! MS46524B
! 1918203/M1: 91020113/M2: 91020112
! 9/9/2020 2:28:19 PM
! C:\USERS\ANRITSUUSER\DESKTOP\2118 -5.S4P
! CHANNEL.1
! TR.MEASUREMENT
! CORRECTED.DATA
# GHZ S RI R 50.0
! FREQ.GHZ         S11RE        S11IM         S12RE        S12IM         S13RE        S13IM         S14RE        S14IM         
!		       S21RE        S21IM         S22RE        S22IM         S23RE        S23IM         S24RE        S24IM         
!		       S31RE        S31IM         S32RE        S32IM         S33RE        S33IM         S34RE        S34IM         
!		       S41RE        S41IM         S42RE        S42IM         S43RE        S43IM         S44RE        S44IM         
!; PortSelection: Port_1234
   0.030000000     0.0687584    0.0701399     0.8949512   -0.3271432     0.0614046    0.0971155    -0.0581843   -0.0842060 
 		       0.8958909   -0.3280752     0.0690761    0.0702906    -0.0583489   -0.0839466     0.0614851    0.0972029
 		       0.0616334    0.0972474    -0.0584186   -0.0841486     0.0698312    0.0715305     0.8955378   -0.3271213
 		      -0.0583231   -0.0842643     0.0616192    0.0972423     0.8958090   -0.3274861     0.0690284    0.0705183
   0.060000000     0.1376933    0.0528251     0.7197356   -0.5564213     0.1453490    0.1087210    -0.1403475   -0.0944170 
 		       0.7200990   -0.5577601     0.1377206    0.0534603    -0.1411500   -0.0941689     0.1460834    0.1087198
 		       0.1464832    0.1088113    -0.1411172   -0.0941607     0.1392409    0.0546535     0.7203564   -0.5562885
 		      -0.1406514   -0.0940359     0.1458706    0.1083319     0.7199024   -0.5558790     0.1391707    0.0547232
   0.090000000     0.1601377   -0.0057061     0.5077491   -0.7132713     0.1978857    0.0684505    -0.2121478   -0.0645909 
 		       0.5077416   -0.7150874     0.1605925   -0.0056130    -0.2127688   -0.0637272     0.1988211    0.0678621
 		       0.1991274    0.0678654    -0.2129332   -0.0636128     0.1625874   -0.0040820     0.5089971   -0.7132915
 		      -0.2123941   -0.0638198     0.1982929    0.0675200     0.5082427   -0.7131065     0.1613737   -0.0032542
   0.120000000     0.1202870   -0.0655957     0.2639245   -0.8018414     0.1946632    0.0134578    -0.2763135   -0.0065043 
 		       0.2634526   -0.8030140     0.1221241   -0.0657921    -0.2771636   -0.0056123     0.1975359    0.0131179
 		       0.1956481    0.0128739    -0.2774019   -0.0055141     0.1245336   -0.0656823     0.2660740   -0.8017257
 		      -0.2768205   -0.0053869     0.1971699    0.0127167     0.2651905   -0.8016540     0.1252264   -0.0646538
   0.150000000     0.0357472   -0.0719941     0.0039587   -0.8047459     0.1498093   -0.0032635    -0.3314766    0.0881068 
 		       0.0027288   -0.8060709     0.0355618   -0.0618261    -0.3322696    0.0895215     0.1492451    0.0062900
 		       0.1506368   -0.0042243    -0.3323015    0.0894887     0.0407352   -0.0716064     0.0057296   -0.8056831
 		      -0.3317782    0.0891558     0.1487593    0.0059522     0.0052005   -0.8055729     0.0398697   -0.0607311
   0.180000000    -0.0292985    0.0125309    -0.2271911   -0.6998580     0.1135224    0.0539447    -0.3438574    0.2391478 
 		      -0.2290257   -0.7005345    -0.0269289    0.0141372    -0.3438328    0.2411292     0.1163847    0.0557152
 		       0.1142256    0.0541224    -0.3441457    0.2412711    -0.0245236    0.0096866    -0.2260135   -0.7027630
 		      -0.3434106    0.2408046     0.1163084    0.0553372    -0.2265657   -0.7019615    -0.0222351    0.0115587
   0.210000000    -0.0105108    0.1250040    -0.3538712   -0.5365701     0.1540649    0.1313734    -0.2500965    0.3962878 
 		      -0.3548972   -0.5371114    -0.0026238    0.1267383    -0.2496524    0.3982450     0.1620234    0.1314297
 		       0.1555741    0.1309693    -0.2491854    0.3990266    -0.0074575    0.1218254    -0.3539448   -0.5397281
 		      -0.2492947    0.3974114     0.1616286    0.1311117    -0.3534488   -0.5395274    -0.0004002    0.1223798
   0.240000000     0.0828003    0.1923283    -0.3976028   -0.3982878     0.2516909    0.1554198    -0.0847186    0.4799471 
 		      -0.3978691   -0.3993178     0.0871331    0.1895016    -0.0829998    0.4818866     0.2562952    0.1520151
 		       0.2534817    0.1550226    -0.0812110    0.4829481     0.0839343    0.1883889    -0.3995118   -0.4013649
 		      -0.0840340    0.4808530     0.2563691    0.1512761    -0.3985899   -0.4016559     0.0885774    0.1852495
   0.270000000     0.1800554    0.1892557    -0.4201151   -0.3049299     0.3409542    0.1130166     0.0847064    0.4742749 
 		      -0.4211020   -0.3052688     0.1840045    0.1888898     0.0868553    0.4749011     0.3445849    0.1106711
 		       0.3433838    0.1118489     0.0885111    0.4750373     0.1802810    0.1862009    -0.4221837   -0.3066886
 		       0.0862393    0.4746965     0.3437902    0.1101329    -0.4215513   -0.3067286     0.1830287    0.1853134
   0.300000000     0.2472292    0.1645922    -0.4511674   -0.2222861     0.3837703    0.0500080     0.2152476    0.4178378 
 		      -0.4537875   -0.2219788     0.2572613    0.1580566     0.2174093    0.4191317     0.3941818    0.0391076
 		       0.3860394    0.0482456     0.2192016    0.4185519     0.2477291    0.1611264    -0.4541143   -0.2230424
 		       0.2161624    0.4176707     0.3937635    0.0398463    -0.4521745   -0.2213745     0.2572213    0.1509186
   0.330000000     0.3106077    0.1185767    -0.4731491   -0.1372938     0.4153596   -0.0192604     0.3213038    0.3326419 
 		      -0.4741532   -0.1364863     0.3055300    0.1067683     0.3239528    0.3315198     0.4085825   -0.0325974
 		       0.4173114   -0.0219719     0.3249238    0.3312214     0.3112675    0.1160661    -0.4754058   -0.1366655
 		       0.3236184    0.3315222     0.4078144   -0.0335908    -0.4748870   -0.1357936     0.3027330    0.1048593
   0.360000000     0.3516288    0.0574177    -0.4875957   -0.0502556     0.4171937   -0.0950550     0.3911997    0.2235733 
 		      -0.4889807   -0.0490410     0.3486162    0.0572497     0.3929518    0.2219053     0.4121689   -0.0960565
 		       0.4184666   -0.0979901     0.3934937    0.2214234     0.3521528    0.0549388    -0.4904534   -0.0492452
 		       0.3927209    0.2221595     0.4111427   -0.0963653    -0.4893044   -0.0489544     0.3463805    0.0559049
   0.390000000     0.3718595    0.0042974    -0.4955006    0.0564698     0.3971380   -0.1431240     0.4227170    0.1213158 
 		      -0.4967533    0.0574146     0.3718226   -0.0045203     0.4242361    0.1196634     0.3960710   -0.1522411
 		       0.3984387   -0.1457717     0.4250607    0.1182916     0.3714429    0.0015535    -0.4979516    0.0580191
 		       0.4239714    0.1195432     0.3949206   -0.1530762    -0.4970447    0.0580977     0.3694574   -0.0045260
   0.420000000     0.3885502   -0.0639203    -0.4739846    0.1553888     0.3821589   -0.1959274     0.4356205    0.0054081 
 		      -0.4744281    0.1567404     0.3781976   -0.0733750     0.4355893    0.0031801     0.3703058   -0.2054434
 		       0.3825907   -0.1995549     0.4362919    0.0019175     0.3886690   -0.0670801    -0.4749288    0.1568166
 		       0.4362168    0.0037146     0.3691359   -0.2056545    -0.4739831    0.1571763     0.3751378   -0.0721183
   0.450000000     0.3809510   -0.1370557    -0.4400152    0.2576002     0.3476119   -0.2418173     0.4095525   -0.0981434 
 		      -0.4401737    0.2593122     0.3667361   -0.1226768     0.4090222   -0.1005933     0.3327398   -0.2268974
 		       0.3478006   -0.2448787     0.4092018   -0.1012675     0.3806381   -0.1403082    -0.4411442    0.2595596
 		       0.4099216   -0.1004140     0.3321949   -0.2272574    -0.4402849    0.2594790     0.3644500   -0.1216294
   0.480000000     0.3456863   -0.1908514    -0.3788524    0.3585917     0.3068980   -0.2633662     0.3665189   -0.1860125 
 		      -0.3785570    0.3603582     0.3634193   -0.1837710     0.3655359   -0.1888502     0.3226450   -0.2552375
 		       0.3066679   -0.2668604     0.3652335   -0.1896337     0.3461839   -0.1938497    -0.3786593    0.3608322
 		       0.3659362   -0.1884348     0.3216570   -0.2554778    -0.3779936    0.3610224     0.3603689   -0.1814605
   0.510000000     0.3316362   -0.2342492    -0.2819665    0.4525930     0.2955185   -0.2758873     0.3141373   -0.2523255 
 		      -0.2819840    0.4541724     0.3369283   -0.2451892     0.3125674   -0.2539137     0.3002988   -0.2864186
 		       0.2952050   -0.2788524     0.3123231   -0.2546149     0.3313624   -0.2376614    -0.2819564    0.4541074
 		       0.3138623   -0.2541195     0.2994956   -0.2865064    -0.2813888    0.4539115     0.3345792   -0.2420460
   0.540000000     0.2906856   -0.2968868    -0.1587503    0.5123517     0.2735220   -0.3117536     0.2562386   -0.3111876 
 		      -0.1579077    0.5137447     0.2879827   -0.3036265     0.2545308   -0.3122383     0.2713253   -0.3193972
 		       0.2729083   -0.3151447     0.2539683   -0.3131554     0.2899119   -0.3008186    -0.1584859    0.5143346
 		       0.2549812   -0.3129725     0.2700258   -0.3195771    -0.1580226    0.5134214     0.2864545   -0.3002184
   0.570000000     0.2167311   -0.3342030    -0.0107849    0.5386920     0.2272061   -0.3390534     0.1976732   -0.3592248 
 		      -0.0094042    0.5396393     0.2115002   -0.3394454     0.1957569   -0.3591165     0.2230017   -0.3442386
 		       0.2257834   -0.3423634     0.1949624   -0.3596642     0.2160908   -0.3394696    -0.0106595    0.5396650
 		       0.1963348   -0.3605756     0.2219942   -0.3442138    -0.0101847    0.5391430     0.2118895   -0.3348792
   0.600000000     0.1283651   -0.3173651     0.1468841    0.4906478     0.1707041   -0.3212765     0.1379626   -0.4267881 
 		       0.1488177    0.4917045     0.1211003   -0.3194349     0.1369230   -0.4266151     0.1645259   -0.3252407
 		       0.1695116   -0.3241850     0.1363248   -0.4269053     0.1271092   -0.3225973     0.1467401    0.4927908
 		       0.1362096   -0.4287992     0.1643077   -0.3246408     0.1466814    0.4915455     0.1239144   -0.3161291
   0.630000000     0.1150615   -0.2590197     0.2226411    0.3875186     0.1855813   -0.2798790     0.0010451   -0.4986669 
 		       0.2249893    0.3878156     0.1099949   -0.2527537     0.0004570   -0.4991949     0.1814817   -0.2779237
 		       0.1844061   -0.2824851    -0.0006992   -0.4995015     0.1119005   -0.2638583     0.2246084    0.3900988
 		      -0.0014297   -0.4995608     0.1805749   -0.2780294     0.2243863    0.3887617     0.1129652   -0.2513790
   0.660000000     0.1342299   -0.2631035     0.2588062    0.3344421     0.2233638   -0.3097771    -0.1616612   -0.4715070 
 		       0.2609496    0.3344457     0.1354370   -0.2529875    -0.1632792   -0.4718333     0.2228197   -0.3071692
 		       0.2223916   -0.3125584    -0.1644685   -0.4717116     0.1307085   -0.2666572     0.2613577    0.3362112
 		      -0.1643865   -0.4713677     0.2215893   -0.3072122     0.2610358    0.3350366     0.1360321   -0.2539014
   0.690000000     0.1199872   -0.2790818     0.3138235    0.2875184     0.2189780   -0.3624722    -0.2776129   -0.3944123 
 		       0.3163471    0.2869823     0.1302918   -0.2734313    -0.2798359   -0.3944530     0.2232914   -0.3632466
 		       0.2172755   -0.3657761    -0.2813631   -0.3944004     0.1166087   -0.2816388     0.3175996    0.2884850
 		      -0.2808108   -0.3938878     0.2224484   -0.3637969     0.3167528    0.2876564     0.1299568   -0.2726400
   0.720000000     0.1039376   -0.2877293     0.3710650    0.2224623     0.1942820   -0.4077531    -0.3598733   -0.3018556 
 		       0.3735593    0.2217884     0.1159425   -0.2870730    -0.3617234   -0.3009839     0.1974978   -0.4139729
 		       0.1923848   -0.4108292    -0.3626903   -0.3000957     0.1004576   -0.2903544     0.3746926    0.2219848
 		      -0.3619659   -0.3005224     0.1964145   -0.4133531     0.3739185    0.2214220     0.1147769   -0.2866187
   0.750000000     0.0839104   -0.2944118     0.4132377    0.1392342     0.1547926   -0.4493159    -0.4136350   -0.2001318 
 		       0.4155769    0.1377406     0.0982795   -0.3005834    -0.4148267   -0.1983945     0.1570868   -0.4590623
 		       0.1523907   -0.4524545    -0.4151984   -0.1974909     0.0812812   -0.2976810     0.4165854    0.1384682
 		      -0.4156211   -0.1981306     0.1560136   -0.4587941     0.4154725    0.1381560     0.0967983   -0.2988547
   0.780000000     0.0676590   -0.2988421     0.4363612    0.0475320     0.1037731   -0.4797938    -0.4422745   -0.0937999 
 		       0.4381844    0.0458425     0.0787162   -0.3082556    -0.4427149   -0.0923532     0.1015849   -0.4900231
 		       0.1009061   -0.4828741    -0.4432903   -0.0912680     0.0650786   -0.3015971     0.4393428    0.0458666
 		      -0.4434868   -0.0915821     0.1003015   -0.4896809     0.4383687    0.0457561     0.0781962   -0.3058266
   0.810000000     0.0501736   -0.3045407     0.4387940   -0.0492519     0.0474392   -0.4964450    -0.4461604    0.0146797 
 		       0.4401812   -0.0517057     0.0623359   -0.3179438    -0.4461407    0.0166519     0.0431805   -0.5072003
 		       0.0441263   -0.4992108    -0.4466504    0.0176796     0.0482275   -0.3069369     0.4406842   -0.0518562
 		      -0.4471204    0.0166280     0.0422535   -0.5066324     0.4398783   -0.0518411     0.0619098   -0.3149487
   0.840000000     0.0363503   -0.3090250     0.4186718   -0.1462678    -0.0094084   -0.4999933    -0.4254077    0.1168371 
 		       0.4194958   -0.1489290     0.0442251   -0.3251931    -0.4248036    0.1186181    -0.0172421   -0.5093703
 		      -0.0128644   -0.5022429    -0.4246533    0.1195032     0.0334515   -0.3120889     0.4204501   -0.1488253
 		      -0.4254878    0.1194581    -0.0185594   -0.5087328     0.4193393   -0.1488982     0.0440139   -0.3215303
   0.870000000     0.0216620   -0.3198606     0.3774619   -0.2370511    -0.0635384   -0.4934793    -0.3843997    0.2102108 
 		       0.3775963   -0.2402070     0.0321641   -0.3361120    -0.3836557    0.2122387    -0.0676758   -0.4994867
 		      -0.0672861   -0.4951732    -0.3832523    0.2130395     0.0191481   -0.3233732     0.3786150   -0.2403642
 		      -0.3836168    0.2128110    -0.0689098   -0.4986964     0.3775876   -0.2398876     0.0313199   -0.3330188
   0.900000000     0.0038139   -0.3316460     0.3140958   -0.3162226    -0.1115071   -0.4785204    -0.3237157    0.2935299 
 		       0.3140071   -0.3191645     0.0085440   -0.3566180    -0.3223574    0.2949395    -0.1182450   -0.4892893
 		      -0.1153335   -0.4801750    -0.3220035    0.2954688     0.0009379   -0.3343126     0.3152049   -0.3194085
 		      -0.3222764    0.2960646    -0.1203275   -0.4881113     0.3141985   -0.3182359     0.0090767   -0.3528169
   0.930000000    -0.0229447   -0.3501864     0.2373289   -0.3770447    -0.1569874   -0.4594779    -0.2457039    0.3613164 
 		       0.2364459   -0.3801149    -0.0238119   -0.3727187    -0.2438297    0.3620281    -0.1679952   -0.4659605
 		      -0.1614006   -0.4611127    -0.2431117    0.3629651    -0.0254948   -0.3520636     0.2370705   -0.3814500
 		      -0.2438548    0.3637504    -0.1688198   -0.4645490     0.2362070   -0.3801173    -0.0235140   -0.3694079
   0.960000000    -0.0598934   -0.3584411     0.1477318   -0.4232830    -0.1956248   -0.4311887    -0.1530886    0.4095090 
 		       0.1459571   -0.4258448    -0.0610644   -0.3841307    -0.1511571    0.4091997    -0.2040258   -0.4370303
 		      -0.1997277   -0.4318763    -0.1501340    0.4101001    -0.0625614   -0.3618633     0.1460861   -0.4266042
 		      -0.1506331    0.4106846    -0.2048147   -0.4360302     0.1456942   -0.4255912    -0.0606004   -0.3795843
   0.990000000    -0.0978919   -0.3615243     0.0477003   -0.4474921    -0.2254590   -0.3994503    -0.0515808    0.4327996 
 		       0.0454250   -0.4492295    -0.1047094   -0.3879332    -0.0498983    0.4322152    -0.2343343   -0.4075495
 		      -0.2293466   -0.3997621    -0.0489506    0.4326850    -0.1016560   -0.3646737     0.0458963   -0.4509553
 		      -0.0492852    0.4336654    -0.2351771   -0.4062953     0.0456908   -0.4499431    -0.1045607   -0.3838416
   1.020000000    -0.1343615   -0.3553298    -0.0544885   -0.4473386    -0.2388761   -0.3669247     0.0523063    0.4328068 
 		      -0.0567632   -0.4492142    -0.1509974   -0.3800521     0.0540637    0.4324346    -0.2550243   -0.3752251
 		      -0.2429139   -0.3667685     0.0548710    0.4324050    -0.1377044   -0.3594740    -0.0571046   -0.4512159
 		       0.0548279    0.4331984    -0.2555804   -0.3741110    -0.0571235   -0.4499671    -0.1511415   -0.3762911
   1.050000000    -0.1706544   -0.3499364    -0.1513585   -0.4267291    -0.2464954   -0.3509295     0.1582720    0.4057392 
 		      -0.1538602   -0.4277367    -0.1902922   -0.3669796     0.1598522    0.4039423    -0.2625343   -0.3515365
 		      -0.2503257   -0.3501543     0.1612519    0.4039688    -0.1748031   -0.3540814    -0.1555905   -0.4296319
 		       0.1609683    0.4054591    -0.2632681   -0.3501860    -0.1552803   -0.4285955    -0.1905695   -0.3625437
   1.080000000    -0.2214743   -0.3453262    -0.2497601   -0.3881598    -0.2650265   -0.3448408     0.2455623    0.3491167 
 		      -0.2526878   -0.3887664    -0.2382400   -0.3590276     0.2459036    0.3469086    -0.2779838   -0.3455910
 		      -0.2694853   -0.3446376     0.2475410    0.3463878    -0.2264514   -0.3481597    -0.2554475   -0.3890792
 		       0.2482626    0.3481706    -0.2789238   -0.3440192    -0.2547877   -0.3879696    -0.2383558   -0.3522954
   1.110000000    -0.2799683   -0.3153833    -0.3407832   -0.3183170    -0.2992598   -0.3302256     0.3138169    0.2828945 
 		      -0.3441155   -0.3178873    -0.2914693   -0.3248823     0.3134226    0.2810464    -0.3063772   -0.3307484
 		      -0.3038109   -0.3291122     0.3146593    0.2798679    -0.2859811   -0.3161904    -0.3460284   -0.3164895
 		       0.3162198    0.2811818    -0.3070773   -0.3293586    -0.3452308   -0.3156748    -0.2902095   -0.3169252
   1.140000000    -0.3179913   -0.2593545    -0.4060017   -0.2227558    -0.3221426   -0.3000402     0.3709409    0.2056537 
 		      -0.4086129   -0.2216018    -0.3269037   -0.2746048     0.3694576    0.2045970    -0.3284122   -0.3100424
 		      -0.3262821   -0.2985906     0.3704654    0.2031197    -0.3224786   -0.2598194    -0.4089301   -0.2204804
 		       0.3726816    0.2039765    -0.3290055   -0.3081641    -0.4080051   -0.2198747    -0.3237104   -0.2679335
   1.170000000    -0.3353058   -0.2011937    -0.4418891   -0.1190385    -0.3351663   -0.2742519     0.4098736    0.1149850 
 		      -0.4441235   -0.1170407    -0.3480950   -0.2229229     0.4082451    0.1145272    -0.3490740   -0.2904576
 		      -0.3389191   -0.2723842     0.4089276    0.1128786    -0.3388595   -0.2013386    -0.4443079   -0.1165915
 		       0.4114531    0.1119303    -0.3495101   -0.2886011    -0.4433730   -0.1161038    -0.3435108   -0.2162257
   1.200000000    -0.3318148   -0.1536804    -0.4511707   -0.0118964    -0.3454636   -0.2572653     0.4286049    0.0158741 
 		      -0.4532833   -0.0090140    -0.3501243   -0.1781784     0.4273142    0.0158122    -0.3687842   -0.2751247
 		      -0.3490227   -0.2551552     0.4272717    0.0146167    -0.3351967   -0.1538603    -0.4528326   -0.0093883
 		       0.4287564    0.0132083    -0.3695457   -0.2743185    -0.4517454   -0.0092368    -0.3451578   -0.1712869
   1.230000000    -0.3276753   -0.1186822    -0.4348668    0.0888598    -0.3668314   -0.2464800     0.4216714   -0.0874649 
 		      -0.4360320    0.0918244    -0.3546211   -0.1364762     0.4204547   -0.0871224    -0.4025794   -0.2567762
 		      -0.3703345   -0.2448232     0.4205395   -0.0883897    -0.3309821   -0.1191076    -0.4365995    0.0915911
 		       0.4218244   -0.0905756    -0.4030266   -0.2548852    -0.4356490    0.0916354    -0.3494362   -0.1313396
   1.260000000    -0.3222852   -0.0816689    -0.4021885    0.1803602    -0.3965686   -0.2240987     0.3863295   -0.1868612 
