
# Hz S RI R 50

30000000 0.9728095874764009 -0.1682443203498769
60000000 0.9275023037484504 -0.3256867252651041
90000000 0.8575794290041021 -0.4718460880568536
120000000 0.7664386963173166 -0.6026428374124901
150000000 0.6557225939817436 -0.7164913291712443
180000000 0.5299015353453849 -0.8112358453464323
210000000 0.3893298652963465 -0.8842586963425441
240000000 0.2414348983735206 -0.9337655565938774
270000000 0.08625034184168567 -0.958468961070919
300000000 -0.06930954462313743 -0.9585410824833133
330000000 -0.22255962087280157 -0.9316706356368832
360000000 -0.36839639189590045 -0.8816755988895467
390000000 -0.5051420596617213 -0.8082387415740793
420000000 -0.6277443005954503 -0.7153545092724062
450000000 -0.7332668137049996 -0.6037181396917654
480000000 -0.8190361686466513 -0.4766086846469395
510000000 -0.8837651313530634 -0.33828347333824205
540000000 -0.9245125663791024 -0.19092105931553538
570000000 -0.9415815687787296 -0.03965322017975115
600000000 -0.9339399638290051 0.11175463486984472
630000000 -0.903068503192508 0.25997568736320276
660000000 -0.8481439923587413 0.40117791081100296
690000000 -0.7711344782957485 0.5316737148869748
720000000 -0.6744521143393863 0.6472667790632761
750000000 -0.5613696346010175 0.7458671535210837
780000000 -0.4330075538767066 0.8246709752642071
810000000 -0.2947208072096351 0.8824228136039556
840000000 -0.14901281260752475 0.917015563986301
870000000 -9.05069851553364e-05 0.9275125166815883
900000000 0.14871186954978566 0.9140117154857643
930000000 0.29266912131118406 0.8777012053412367
960000000 0.4291520393082529 0.8178129715787509
990000000 0.5536283676528655 0.7369816276751503
1020000000 0.6640701487054583 0.6377009550430071
1050000000 0.7567946872321737 0.52199472779496
1080000000 0.8297785442168996 0.3931479885475738
1110000000 0.880374897983362 0.2544594828405812
1140000000 0.9081544562498722 0.10928795443254202
1170000000 0.9122609967094734 -0.036264426782086634
1200000000 0.8939714912114868 -0.1815661021946937
1230000000 0.8525081992150177 -0.3223486804832949
1260000000 0.7887200137608272 -0.4543826251910177
1290000000 0.7049497604143004 -0.5739846665198921
1320000000 0.6032491663135173 -0.6782400958853743
1350000000 0.4862850879539585 -0.7649909302774177
1380000000 0.356772070998565 -0.8322422818945053
1410000000 0.21885971937655002 -0.8770230002187243
1440000000 0.07549271536792379 -0.8995922693085158
1470000000 -0.06932467115232821 -0.8988610472523912
1500000000 -0.21177790937136265 -0.8748281798482134
1530000000 -0.34900635552320436 -0.8288144067282758
1560000000 -0.4765598953545379 -0.7608106237978378
1590000000 -0.5915011862175774 -0.673715448425487
1620000000 -0.6914831508850245 -0.5693155737225942
1650000000 -0.7726971477530313 -0.4501809444707553
1680000000 -0.8335545665064675 -0.31921197673525126
1710000000 -0.8718539867453713 -0.1794449810423453
1740000000 -0.8834361906201011 -0.038243412037268776
1770000000 -0.8806849915016055 0.0976037762039963
1800000000 -0.8548856005069071 0.23847919201573364
1830000000 -0.805130645506824 0.3730154598132094
1860000000 -0.7338700831832047 0.4971174501168083
1890000000 -0.6442363006293347 0.6073897588152127
1920000000 -0.5387672006373196 0.7022737000087564
1950000000 -0.4188329514617317 0.7779353679837344
1980000000 -0.2885340644235834 0.8341897010336871
2009999999.9999998 -0.1512463897073365 0.8686837382972502
2040000000 -0.01064058485993713 0.8802691375769854
2069999999.9999998 0.13007748797694318 0.8695470104617483
2100000000 0.2667055008647826 0.83609953940918
2130000000 0.3963464397651052 0.7820694396567336
2160000000 0.5164301850220407 0.7072423871728835
2190000000 0.6222532530795227 0.6141804620980128
2220000000 0.7115368357143033 0.5052684276214553
2250000000 0.7825788831761403 0.3830321781838353
2280000000 0.8316893248056939 0.25025172448343136
2310000000 0.8549122704844881 0.11111987395807565
2340000000 0.8549209660565945 -0.01718389444114879
2370000000 0.8494444303925367 -0.15073874215453342
2400000000 0.8158698006170304 -0.28785082284938146
2430000000 0.7588223524874781 -0.4159122349271269
2460000000 0.6816583774470151 -0.5326918463620351
2490000000 0.5868812426882126 -0.6346208250038989
2520000000 0.4774777314639618 -0.7197559989823471
2550000000 0.35614289358559514 -0.785880944486047
2580000000 0.22573012037431806 -0.8316692566519663
2610000000 0.0900294856378322 -0.8561075783077038
2640000000 -0.047261377823904605 -0.8588853868317168
2670000000 -0.18256683214569935 -0.8389238286576053
2700000000 -0.3138503440862085 -0.7986541147350428
2730000000 -0.43634707143882645 -0.7373067876543785
2760000000 -0.5473198400524942 -0.657825476854019
2790000000 -0.6450488178169943 -0.5606917896128397
2820000000 -0.7250293548747436 -0.4500588505153078
2850000000 -0.7864658424666152 -0.3272110679121606
2880000000 -0.8268613053857904 -0.1956268826968458
2910000000 -0.8424661194915647 -0.0617893731646349
2940000000 -0.8413693254990996 0.06895548707251492
2970000000 -0.8222159396936741 0.20211285927372324
3000000000 -0.7787926139278184 0.3329711956289031
3030000000 -0.7146673153162544 0.45316612585437865
3060000000 -0.6326685180707419 0.5620428152136892
3090000000 -0.5334763914182453 0.6557005242352558
3120000000 -0.4212419161849595 0.7317538268342029
3150000000 -0.2981296891352867 0.7888579118035378
3180000000 -0.1682257938868157 0.82465089580469
3210000000 -0.03515457740166095 0.8406532112809684
3240000000 0.0990716214237305 0.8341644526573785
3270000000 0.2299559876906947 0.8069396658803252
3300000000 0.3549902044899703 0.7597100089962687
3330000000 0.47180289901818195 0.6928754338749229
3360000000 0.5751655484450406 0.6081569202329273
3390000000 0.6637165026053596 0.5085354722614812
3420000000 0.7361975817835544 0.3952057269052274
3450000000 0.7881944782991657 0.2719732021184924
3480000000 0.8197626751797799 0.14257549183185458
3510000000 0.8299225059479346 0.010756187541525436
3540000000 0.821265419302964 -0.12092990848759733
3570000000 0.7914193483767252 -0.2503230353890553
3600000000 0.7403540822783788 -0.37411385833663846
3630000000 0.6700344752618879 -0.4874540969097153
3660000000 0.5833502459381469 -0.5876955634071536
3690000000 0.4809872535283201 -0.672697454062657
3720000000 0.36713286351035335 -0.7392580213466068
3750000000 0.2442727471188163 -0.7876915923628125
3780000000 0.11548755614086459 -0.8155184672000806
3810000000 -0.01567888105086257 -0.8230401087186698
3840000000 -0.14599772766700492 -0.8092042735735007
3870000000 -0.2729212220777856 -0.7751331179256966
3900000000 -0.3931023094787703 -0.7206978545769742
3930000000 -0.5024518660117665 -0.6482658986237937
3960000000 -0.599254101786791 -0.5584547303107489
3990000000 -0.6796528967213118 -0.45501932013149404
4019999999.9999995 -0.742897446114388 -0.3401493000827811
4050000000 -0.7854028018908618 -0.21576327950049834
4080000000 -0.8082298727539446 -0.0880326253329401
4110000000.0000005 -0.8108777911938159 0.03989687730943131
4139999999.9999995 -0.7944045877348487 0.16868816201793801
4170000000 -0.7575362022311117 0.29371153896775404
4200000000 -0.7007383261566856 0.41084823972501905
4230000000.0000005 -0.6247533306222551 0.5172443888706131
4260000000 -0.5335117221027987 0.6093709596916195
4290000000 -0.43021553959363 0.6857452883442874
4320000000 -0.3154646148136029 0.7448515899309816
4350000000 -0.19270499554872544 0.7841896824638498
4380000000 -0.06642108559197213 0.8046545648176164
4410000000 0.06220347072754784 0.8042937470240604
4440000000 0.18821504016044277 0.7833756103656215
4470000000 0.3101678131163098 0.7426234609468577
4500000000 0.42463246784679504 0.6828948274912279
4530000000 0.5274820108080687 0.6057822640163849
4560000000 0.6154909672432723 0.5126808351999873
4590000000 0.6886044528673378 0.40557827580277994
4620000000 0.7422326362013756 0.2890316438901608
4650000000 0.7739975229984362 0.1649212154004377
4680000000 0.7830731825664046 0.042935091897552735
4710000000 0.7812821804538592 -0.073759702132839
4740000000 0.7648378148677728 -0.1976810631723892
4770000000 0.7254885654025072 -0.3189528175438544
4800000000 0.6643679244436442 -0.4319451226673674
4830000000 0.585857703610501 -0.5337779680136922
4860000000 0.4923019866436804 -0.62073441227207
4890000000 0.3862806006065018 -0.6901649641480047
4920000000 0.2704552562332043 -0.7428551172396394
4950000000 0.14812366923220877 -0.7758124317479761
4980000000 0.0219638485388588 -0.7888915592407808
5010000000 -0.10407246241628054 -0.7817984549584348
5040000000 -0.227596425513517 -0.7544135010194929
5070000000 -0.34609001656225713 -0.7070124062193046
5100000000 -0.4545405079176016 -0.6419823055935234
5130000000 -0.5511739059063916 -0.5601385532466338
5160000000 -0.6327273542553624 -0.46273098312979455
5190000000 -0.6972993594514173 -0.35392574828663836
5220000000 -0.7425778827501762 -0.2363720847699472
5250000000 -0.7667150730697825 -0.11420276598803791
5280000000 -0.7725049265288824 0.005586529974757171
5310000000 -0.7646693009633262 0.12526325321018428
5340000000 -0.7368410574769999 0.24678535418293723
5370000000 -0.6885914445522311 0.3627360152512136
5400000000 -0.6213817867409002 0.4684550301238739
5430000000 -0.5379120393010833 0.5615145798206235
5460000000 -0.44147582265708085 0.6393744718554436
5490000000 -0.3340604167481496 0.7015281419382723
5520000000 -0.21797747430845515 0.7445778824434224
5550000000 -0.09823323486655988 0.7692456172895902
5580000000 0.02558076254627295 0.775308165490245
5610000000 0.14827123462669878 0.7600917313598801
5640000000 0.2664705581643698 0.7262876914129687
5670000000 0.37913725269714416 0.6746073157016044
5700000000 0.4812124189960522 0.6043025634895889
5730000000 0.5705148256582405 0.5189915134914403
5760000000 0.6444804804292541 0.4201927179923811
5790000000 0.7017458853682415 0.31034935864097246
5820000000 0.7404401106754394 0.1939328896193171
5850000000 0.7592218554765455 0.07365143173945826
5880000000 0.7602068943241849 -0.046085408945599815
5910000000 0.7448590379418474 -0.1661500369249691
5940000000 0.7093588754382787 -0.2830704746936301
5970000000 0.6543718030216146 -0.3930520300997442
6000000000 0.5824746780369237 -0.49220321356373453
6030000000 0.4967183466280859 -0.5788676109060363
6060000000 0.397420391861089 -0.6497159159392462
6090000000 0.2896853340880432 -0.703542444096171
6120000000 0.17496283306601224 -0.741134845176499
6150000000 0.054676843792465735 -0.758333588222646
6180000000 -0.06562175229291378 -0.7566668425637403
6210000000 -0.1852709835408869 -0.7369062530118384
6240000000 -0.2999536719774927 -0.6971028762273798
6270000000 -0.40648763496041734 -0.639928778197608
6300000000 -0.5028294002438933 -0.5656095836235706
6330000000 -0.5850198708470733 -0.47698135808159337
6360000000 -0.6522441599261326 -0.37610534957116015
6390000000 -0.7019687132400124 -0.26605913059718567
6420000000 -0.7327243411984944 -0.15011558546315307
6450000000 -0.7441636464614598 -0.03342483949684141
6480000000 -0.7402384582991556 0.08331828908319971
6510000000 -0.7195643342776675 0.19972390971210263
6540000000 -0.67915978252984 0.31343655988958363
6570000000 -0.6197271310158521 0.4185905074571372
6600000000 -0.5438711455926268 0.5122631732440218
6630000000 -0.4551044719051776 0.5917523040712366
6660000000 -0.3547620776150174 0.6575642886809167
6690000000 -0.24557141700216079 0.7047927874038749
6720000000 -0.1312027181711104 0.7345691303391033
6750000000 -0.011872433980761543 0.7460915392217564
6780000000 0.10694492657230759 0.7377281358829467
6810000000 0.22183249022307128 0.7109845447528362
6840000000 0.3329909934939688 0.6660974104492494
6870000000 0.4336848515768945 0.602867857907261
6900000000 0.5227146883162598 0.5250375880723404
6930000000 0.5989323261472456 0.43311042723795523
6960000000 0.657656000256146 0.3302586951547364
6990000000 0.6982788858083956 0.22008565278370174
7020000000 0.7191749835077078 0.1069595928295557
7050000000 0.7231603380023265 -0.0032850658069186606
7080000000 0.7163674572779439 -0.11403804412089347
7110000000 0.6925571847488532 -0.22713599772446746
7140000000 0.6488309773823094 -0.3364191479234586
7170000000 0.586385880575932 -0.43725670524709126
7200000000 0.5083884434945224 -0.525559157742235
7230000000 0.41710814815618935 -0.6008044256406931
7260000000 0.3152657464731744 -0.6593316328614355
7290000000 0.20623734290848628 -0.7021933886845869
7320000000 0.09031279246851598 -0.7250700026054064
7350000000 -0.02586746301663234 -0.7303887364681295
7380000000 -0.1434068951802412 -0.7167876808210901
7410000000 -0.2551898097520797 -0.6836048493956529
7440000000 -0.36059445211013685 -0.6339930209460198
7470000000 -0.45714021391782167 -0.567362638308318
7500000000 -0.5408098796704581 -0.4858476785547263
7530000000 -0.6101394763539357 -0.3933206458045131
7560000000 -0.6643189205573014 -0.2909017334653582
7590000000 -0.7003379770473431 -0.1811044368536392
7620000000 -0.7191447397944319 -0.06767480782532365
7650000000 -0.7203277204407628 0.04626266879701185
7680000000 -0.703345611041963 0.15993109291128493
7710000000 -0.6689439316295821 0.2697320161398846
7740000000 -0.6168258000427567 0.3731667651995372
7770000000 -0.5491964454041804 0.46572895336400477
7800000000 -0.4679284605203325 0.5465670022316569
7830000000 -0.37485532578759484 0.6128432377521492
7860000000 -0.27299397872802433 0.6656171159381394
7890000000 -0.1641940929767962 0.6987259466538689
7920000000 -0.05285745979184153 0.716902775627601
7950000000 0.06501316750737607 0.7158837629240711
7980000000 0.17619860077001626 0.6952627270923143
8010000000 0.28613842217096197 0.6592790918761622
8039999999.999999 0.3868417757421924 0.602330361053175
8070000000 0.4765240386429239 0.5335437709225896
8100000000 0.5549461632802852 0.449727395902503
8130000000.000001 0.6178060981142692 0.35473181709647195
8160000000 0.6657188562069287 0.2519539579931078
8189999999.999999 0.6963307604999414 0.1424081579073605
8220000000.000001 0.7093131157928912 0.030139808058219503
8250000000 0.7042496232929105 -0.0819871616135669
8279999999.999999 0.6820906357863098 -0.1931427002731292
8310000000.000001 0.6415699580084946 -0.29931820150860833
8340000000 0.5849411412686264 -0.39646331611159447
8369999999.999999 0.5153662432348898 -0.4841564107405313
8400000000 0.4311823778234135 -0.5592345349521621
8430000000 0.33816031941509306 -0.6189704955249281
8460000000.000001 0.23595234974288914 -0.6661521061427389
8490000000 0.12608484087048755 -0.6942352678363533
8520000000 0.015573592890824273 -0.7056263153143021
8550000000.000001 -0.09817516715611374 -0.6997828236829724
8580000000 -0.20817858372517273 -0.6721904226302777
8610000000 -0.3113636768657031 -0.6307501135342842
8640000000 -0.4086964936878664 -0.571842413769767
8670000000 -0.4921625728117479 -0.4968065276164615
8700000000 -0.5637072276963664 -0.41235155045268
8730000000 -0.6211969918963959 -0.31614369080462046
8760000000 -0.6607213057083192 -0.21196757656091725
8790000000 -0.6832547770206718 -0.10559844530595502
8820000000 -0.6902574541030629 0.002678565420931079
8850000000 -0.68154600771717 0.11147603736401235
8880000000 -0.6558202953269184 0.21791179622594536
8910000000 -0.6138926197553226 0.32006766386562435
8940000000 -0.5542474414096414 0.41466057362123065
8970000000 -0.48074342512925894 0.49689185626495336
9000000000 -0.3961624345172826 0.5683645352546086
9030000000 -0.29972539908721585 0.6241533399515585
9060000000 -0.19715328285240907 0.6639493672204759
9090000000 -0.08759374708002687 0.6878466666754911
9120000000 0.022973883125517403 0.691566836461843
9150000000 0.13265305367154123 0.6795744383026
9180000000 0.24007246105285907 0.6482991487334254
9210000000 0.33899191782767346 0.6004850115335894
9240000000 0.42986233205142005 0.5382459717096815
9270000000 0.5092866829106455 0.4615304446298325
9300000000 0.5742416136233162 0.37412185480683524
9330000000 0.6252892530105553 0.27750199057385894
9360000000 0.6597425829353168 0.173622439529317
9390000000 0.6766923565617606 0.06744064521255139
9420000000 0.6780639565190556 -0.03940509730526155
9450000000 0.6637630209333356 -0.1463767155276539
9480000000 0.6320342965517582 -0.2505577774926808
9510000000 0.5839367951852739 -0.346893283997178
9540000000 0.5221325879563632 -0.43736689186911115
9570000000 0.4445458596233469 -0.5146381340404499
9600000000 0.35814774310568853 -0.5778784421289831
9630000000 0.2613363756607041 -0.6292695836322781
9660000000 0.15678181986161754 -0.66166530724738
9690000000 0.050484513217116334 -0.6785744167538309
9720000000 -0.05892987798224425 -0.6785107098080628
9750000000 -0.1657753161213118 -0.6585708565936048
9780000000 -0.2675347557924298 -0.6234617150153097
9810000000 -0.3637154099737552 -0.5722661520647614
9840000000 -0.44812264637572186 -0.5057355970970544
9870000000 -0.5213169881979667 -0.4279463144005078
9900000000 -0.5816945073912776 -0.33901157896785683
9930000000 -0.6258022245463111 -0.24159790113478385
9960000000 -0.6536971761717741 -0.13991185651806182
9990000000 -0.6659455773228712 -0.03561241591963807
10020000000 -0.6627805836205065 0.06893453864930921
10050000000 -0.64345506911389 0.17206775123926876
10080000000 -0.6089346380030414 0.2726751058597252
10110000000 -0.5567266083590521 0.3674309245180658
10140000000 -0.4901192099081603 0.44972897246926646
10170000000 -0.4138231806607575 0.5231126436537332
10200000000 -0.3222741354180954 0.5823105729579732
10230000000 -0.22589051870553567 0.6245120808378324
10260000000 -0.12394600160448277 0.6549237654949394
10290000000 -0.015807510819220827 0.6650922388700883
10320000000 0.08907923982440435 0.6585875896023269
10350000000 0.1939550567164442 0.6368310437845817
10380000000 0.29326663509885276 0.5959891724531164
10410000000 0.38314627442899907 0.5414998299053542
10440000000 0.46505754242143044 0.4732424529093058
10470000000 0.5333684938264018 0.39238435007486716
10500000000 0.5876227517875908 0.3027572982987754
10530000000 0.6278086586306585 0.205154377288017
10560000000 0.6514170858521366 0.10302710868443116
10590000000 0.6587327168329415 -0.000935686128021751
10620000000 0.6495833710133521 -0.10530595184853686
10650000000 0.6241238308018726 -0.20732553822051458
10680000000 0.5819437829596701 -0.3030988169338422
10710000000 0.527443066923978 -0.3912347517787559
10740000000 0.45684326823562965 -0.470675716384524
10770000000 0.3762453298482965 -0.5357147383871076
10800000000 0.2874565591225017 -0.5900341999153966
10830000000 0.18764142374433534 -0.6275425298556586
10860000000 0.08627852099148148 -0.6487540819787533
10890000000 -0.018905989114825328 -0.6551953189937032
10920000000 -0.12409470153146962 -0.6416770265094989
10950000000 -0.22307344152206532 -0.6126750683106297
10980000000 -0.31875518472255226 -0.5682081376725895
11010000000 -0.40358152711048967 -0.5075890163841043
11040000000 -0.4771339160352216 -0.4365640996635338
11070000000 -0.5389379539746724 -0.3524820636599981
11100000000 -0.5839872955324292 -0.2605474870300495
11130000000 -0.6136342668256051 -0.16481438688804728
11160000000 -0.6270494445170417 -0.06670840948916296
11190000000 -0.6275940408304599 0.028820178411438746
11220000000 -0.6173042793146022 0.12523868990249748
11250000000 -0.5921133747762466 0.22263124910023918
11280000000 -0.5488496844746744 0.3163892105474604
11310000000 -0.4905157039739002 0.4016563841116545
11340000000 -0.41843787344790323 0.47772094774909524
11370000000 -0.33296923265388045 0.5393243849578484
11400000000 -0.24071575467133022 0.5855246818516783
11430000000 -0.1402911461432862 0.6177393343853026
11460000000 -0.03552189637598735 0.6304648138767137
11490000000 0.06608045336896029 0.6267565800052518
11520000000 0.1671304524444176 0.6074504663092991
11550000000 0.26276466249318964 0.5690611452870994
11580000000 0.3471949933230225 0.5186564811415052
11610000000 0.42507296903201686 0.45727757853357087
11640000000 0.4901137949774145 0.38282443231948926
11670000000 0.5405112706881188 0.30220579926514546
11700000000 0.579673121192223 0.2159014338318469
11730000000 0.6049583183915938 0.12432165434258796
11760000000 0.615370154143992 0.0323408819589949
11790000000 0.6143432582657252 -0.05966013370925172
