
# Hz S RI R 50

40000000 0.9698079396193079 -0.1639801340090491
80000000 0.926267862589606 -0.31486215496027303
120000000 0.8611317592169523 -0.4543536093868853
160000000 0.7759785231941365 -0.5810592140685531
200000000 0.6731170949666102 -0.6926476588737078
240000000 0.5547914414817184 -0.7858678365840353
280000000 0.42435521646857516 -0.8600949760573281
320000000 0.2862208502305653 -0.9131121115354026
360000000 0.1403065717256481 -0.942878568190741
400000000 -0.008495384829635633 -0.9516111135769785
440000000 -0.1537553357346978 -0.9356336593492022
480000000 -0.29544060557868723 -0.8976348328771585
520000000 -0.43017907208764 -0.839978792963558
560000000 -0.5532095852399839 -0.7626502432442607
600000000 -0.6628376108038067 -0.6664637777037419
640000000 -0.756367392043396 -0.5550369784236855
680000000 -0.831188519949129 -0.43086263129818814
720000000 -0.8859702672247264 -0.2972167461774935
760000000 -0.9185967512692603 -0.15610064631789933
800000000 -0.926175914343352 -0.013252185033711894
840000000 -0.9195406718192247 0.12663202646302762
880000000 -0.8877825484755371 0.26744274610733354
920000000 -0.8345714331202989 0.40048893523639095
960000000 -0.761031062092784 0.5236616279244777
1000000000 -0.669670284477019 0.6332169995967951
1040000000 -0.5636069706520642 0.7279112523489865
1080000000 -0.4434999555043421 0.8046303397669533
1120000000 -0.3132852980471944 0.8626757522894463
1160000000 -0.17651743440881607 0.8985934000199564
1200000000 -0.03534207761219044 0.9154685039091907
1240000000 0.10565717747546466 0.9070076236410005
1280000000 0.24428851727240575 0.8781647760320428
1320000000 0.3770834557769899 0.8286793130497879
1360000000 0.500353164903486 0.7588380397695781
1400000000 0.6108673205218736 0.6708446050325498
1440000000 0.7067902118170517 0.5656727105709515
1480000000 0.7843519283816984 0.44707208493424133
1520000000 0.8427437607872807 0.31401701028515694
1560000000 0.8733466013104472 0.1698795831140424
1600000000 0.8539628101263649 0.037992454431922784
1640000000 0.8546548117641448 -0.05058227962564865
1680000000 0.8653579244577145 -0.1845008849798746
1720000000 0.8310852852846892 -0.3248216310597649
1760000000 0.7696963200088812 -0.45327961332138467
1800000000 0.6901883730781864 -0.5668539795138271
1840000000 0.5928519518936834 -0.6670983761654529
1880000000 0.4826766759462012 -0.750328388932834
1920000000 0.36080700436032964 -0.8147356869910787
1960000000 0.23067039492573904 -0.8600542122605351
2000000000 0.09636616179074109 -0.8840332204463947
2040000000 -0.040921388358268085 -0.886862907415192
2080000000 -0.17602484516619965 -0.8691205235736368
2120000000 -0.30729822653514705 -0.8295425666530893
2160000000 -0.4300367994995486 -0.7729138271892149
2200000000 -0.5425524135226519 -0.6965720457734346
2240000000 -0.6417328054568694 -0.6049718787395456
2280000000 -0.726353913447831 -0.49865396524983374
2320000000 -0.7927512098915049 -0.38108380638930295
2360000000 -0.841016983219344 -0.2545778511343233
2400000000 -0.8680319736139909 -0.12262429659468721
2440000000 -0.8739003179443281 0.010484736600276712
2480000000 -0.862326072779094 0.1431049562122455
2520000000 -0.8296340344260685 0.2733581044476874
2560000000 -0.7782483215021562 0.3972032907739689
2600000000 -0.7073119563680956 0.5115447691405179
2640000000 -0.6196743616005267 0.6132862882069202
2680000000 -0.5176801858505179 0.6995582402603949
2720000000 -0.4034487494972533 0.7696670828434914
2760000000 -0.2810146309738678 0.8219753274759616
2800000000 -0.15162038220228424 0.8539101136845559
2840000000 -0.018150363990814378 0.8659848074550802
2880000000 0.11402651474270464 0.8574719548772567
2920000000 0.24468401946296037 0.828575334225534
2960000000 0.36819753470857747 0.7803531267964297
3000000000 0.48318232486933815 0.7146566235964259
3040000000 0.5861493551240935 0.6303309903609831
3080000000 0.6755706901902956 0.532546045655284
3120000000 0.7477208650499655 0.4200300101625076
3160000000 0.8020553232843066 0.29749597573006636
3200000000 0.8323222297487358 0.16763032393983313
3240000000 0.8355286679105287 0.04204900908122394
3280000000 0.8350670096778853 -0.07082089661448787
3320000000 0.8244762056279976 -0.19784912850593805
3360000000 0.7871242620976006 -0.3264727378933512
3400000000 0.7265401033124976 -0.44424284879907483
3440000000 0.6481968947667412 -0.5531054826308011
3480000000 0.5553323075628241 -0.6446344823539782
3520000000 0.4465063047030403 -0.722958629786948
3560000000 0.33179263263334546 -0.782252311515467
3600000000 0.2050223376231991 -0.8220462286314607
3640000000 0.07818086782706168 -0.8461290740240415
3680000000 -0.05350125923637217 -0.8459085007672038
3720000000 -0.1820431507381023 -0.8274047118693766
3760000000 -0.30760986911062216 -0.7886359994404317
3800000000 -0.4242754643355893 -0.7320697270843043
3840000000 -0.5324588005969715 -0.6578070775234889
3880000000 -0.6256131960389887 -0.5669225868530029
3920000000 -0.7057680198298211 -0.46326387065659413
3960000000 -0.7665760058523067 -0.3478867125834919
4000000000 -0.809293304962449 -0.22354888099862458
4040000000 -0.8284744942403715 -0.09699412157615361
4080000000 -0.8299724364423889 0.02403039515363757
4120000000 -0.821754166239129 0.14600836191647926
4160000000 -0.7907690740667241 0.2721927139756112
4200000000 -0.7395818032905405 0.3907399724641929
4240000000 -0.6708987204637153 0.5000876451399329
4280000000.0000005 -0.5855736806433604 0.5964859449758867
4320000000 -0.48705281998592065 0.6784472734391475
4360000000 -0.3758424691612275 0.743410239660139
4400000000 -0.2581611889758586 0.79200277745464
4440000000 -0.13322289557628897 0.8203840090496165
4480000000 -0.006858675479069709 0.8304984968953779
4520000000 0.12033453019286466 0.8202810771747472
4560000000 0.24334658197454095 0.7922049535777077
4600000000 0.3635291325395484 0.7444104126453386
4640000000 0.4717628533362246 0.6810513312818824
4680000000 0.5725153937910966 0.5976480743419673
4720000000 0.6560269202159847 0.5026738943968357
4760000000 0.7243231585506538 0.39295020760728383
4800000000 0.7741894607714921 0.27585618782475363
4840000000 0.8023573672679264 0.15114254299264218
4880000000 0.8090675028332076 0.031035426075880973
4920000000 0.8069136970258021 -0.08455052215966302
4960000000 0.7898540327215287 -0.2072004350283405
5000000000 0.7510072273629493 -0.32725856388211805
5040000000 0.6918422770214208 -0.4397183385604362
5080000000 0.617057935763463 -0.5398556337306282
5120000000 0.5252162386555713 -0.6290887596758893
5160000000 0.424546955274256 -0.7008942039261522
5200000000 0.3081017589246947 -0.7571387455092907
5240000000 0.19386698589222195 -0.7944441198690972
5280000000 0.0675075251220556 -0.8126485690354157
5320000000 -0.053694790950369886 -0.8150425899205013
5360000000 -0.17841441683010772 -0.7946538539842161
5400000000 -0.29541571887757745 -0.7597390327660356
5440000000 -0.40821230264046626 -0.7037500375678003
5480000000 -0.509479445611165 -0.6343416176666214
5520000000 -0.5999536290817507 -0.5477953354850743
5560000000 -0.6750482091546492 -0.4511796046344012
5600000000 -0.7355917596363284 -0.3414469864910662
5640000000 -0.7771935397777706 -0.2260766194614957
5680000000 -0.8016560806152523 -0.10440835702086315
5720000000 -0.8076826170376061 0.017529171195519028
5760000000 -0.7957912728320236 0.1387033271919894
5800000000 -0.7653486153753272 0.25895243233342735
5840000000 -0.7165058793936276 0.3707786678895626
5880000000 -0.6508046210527032 0.47641834415168804
5920000000 -0.5705062199980793 0.5689599515494265
5960000000 -0.47541694681695507 0.649361924808473
6000000000 -0.37283835410992644 0.7114679160714794
6040000000 -0.25675421482208427 0.7586036165505772
6080000000 -0.14043833270206796 0.7879445546669892
6120000000 -0.017562113242049482 0.7988031233625146
6160000000 0.1036264129403599 0.7908513309962808
6200000000 0.22455846767720622 0.7638731005657897
6240000000 0.3394451126263148 0.7197145094842883
6280000000 0.44684409203493686 0.6565242496793746
6320000000 0.5424059305853933 0.5772176107759418
6360000000 0.6244170069000986 0.48234309600215786
6400000000 0.6896632505828102 0.37525775225440494
6440000000 0.7342449428240823 0.2572682304496866
6480000000 0.7526104036934526 0.13904927138422052
6520000000 0.7513682390989939 0.031189072407510843
6560000000 0.7523994825519547 -0.06660157075293716
6600000000 0.7471237186156225 -0.17842202184729972
6640000000 0.7186747245845274 -0.2981792700027408
6680000000 0.6658303673143151 -0.4097778404311325
6720000000 0.5948281922259857 -0.5114166731542694
6760000000 0.5085848054136591 -0.5978138393160888
6800000000 0.40993775042560837 -0.6694281994991046
6840000000 0.3021155415971305 -0.724773068240661
6880000000 0.1872769089687546 -0.7619408146957204
6920000000 0.06973464114247185 -0.7824809805794376
6960000000 -0.050253095502442835 -0.7816970717201114
7000000000 -0.16957753523743413 -0.7658544705343251
7040000000 -0.2839538364089633 -0.7293297406849317
7080000000 -0.3918652343267048 -0.6745321707758374
7120000000 -0.49180893166234374 -0.6021862944486357
7160000000 -0.5756616296030589 -0.5133578033995185
7200000000 -0.6445649736188633 -0.40737261292575466
7240000000 -0.6883120034692619 -0.29279735466962187
7280000000 -0.6982287689416123 -0.1745918278027191
7320000000 -0.6874494103834559 -0.0798811429606599
7360000000 -0.6761112081689412 -0.006041905707997994
7400000000 -0.6845756241190688 0.06543350332101738
7440000000 -0.6942320149300285 0.16031028569214567
7480000000 -0.682483487595913 0.2778846606509976
7520000000 -0.6386876504552489 0.3965974240437169
7560000000 -0.5646245140377015 0.5001543269150877
7600000000 -0.47676262800822566 0.5913112437590875
7640000000 -0.37448721989173994 0.6607671819963625
7680000000 -0.2597007983472851 0.7148354980995524
7720000000 -0.14410296082250784 0.7471561789077832
7760000000 -0.019762135186251584 0.7606674932237812
7800000000 0.10155916515008834 0.7544869268598058
7840000000 0.22083630822641354 0.729010927279841
7880000000 0.3370036992570602 0.6819354959978651
7920000000 0.4382017447097889 0.6229097199293023
7960000000 0.5342971048059308 0.5383302954324499
8000000000 0.6098736913452902 0.44589747099590815
8039999999.999999 0.6684969162548706 0.3406409404084436
8080000000 0.7031823224110136 0.22654951268946077
8119999999.999999 0.7081414532863758 0.11561377228335834
8160000000 0.7037498156582465 0.028725317508704107
8199999999.999999 0.706050889286931 -0.055569001766599124
8240000000 0.7107528082986779 -0.1502497988848892
8279999999.999999 0.696313587040578 -0.26602388620271966
8320000000 0.6512148656920167 -0.37615070670040107
8359999999.999999 0.5887425470538914 -0.4794428206912634
8400000000 0.5047761199718797 -0.5646479475528853
8439999999.999999 0.41226401196361834 -0.6408383591923605
8480000000 0.307806003882254 -0.6941311906686013
8520000000 0.19554840812099505 -0.734363164165747
8560000000.000001 0.08170147902892122 -0.7548675927607519
8600000000 -0.038670025966535015 -0.7583074710510441
8640000000 -0.15303931093553647 -0.7421442494500735
8680000000 -0.2699214638814558 -0.7067303801514513
8720000000 -0.3748094593234221 -0.6555756001694035
8760000000 -0.47357001851780184 -0.5814426987905332
8800000000 -0.5555149758711231 -0.49747510688199714
8840000000 -0.6201064519399495 -0.39360398801011354
8880000000 -0.6621049340792535 -0.28327145171799417
8920000000 -0.6747981738981532 -0.17178006732210505
8960000000 -0.6671115460923063 -0.0803396894691083
9000000000 -0.6608369209661085 -0.005828693712326742
9040000000 -0.666266088568682 0.06728315043103184
9080000000 -0.6733694070667382 0.1589723266951606
9120000000 -0.661750554748262 0.26903856134997695
9160000000 -0.6188344252708065 0.3802176593595016
9200000000 -0.5520497366141804 0.4814996933434815
9240000000 -0.4707799062743116 0.5672363356038971
9280000000 -0.37239741833187984 0.6351842604129052
9320000000 -0.26842117777754165 0.6898437169329065
9360000000 -0.15347895778018716 0.7218852234471453
9400000000 -0.038311074566396264 0.7394569603020273
9440000000 0.08315369091652669 0.7325663846467226
9480000000 0.19611113584152395 0.7112746768512865
9520000000 0.31062623696104474 0.6645511150283683
9560000000 0.4091607167843283 0.6058044265401961
9600000000 0.5022205348082776 0.5211010715790347
9640000000 0.5716725148435565 0.43148837011304964
9680000000 0.6225813796344105 0.31722456560694334
9720000000 0.6424837873458509 0.2115998345962128
9760000000 0.6391920171912593 0.1128657205421491
9800000000 0.6285708174986506 0.039833842576570334
9840000000 0.6312963135911897 -0.02755927106291234
9880000000 0.6401799584652929 -0.10300997857406202
9920000000 0.6457550164065696 -0.20260780878686946
9960000000 0.6193730650796978 -0.31428725532359625
10000000000 0.5714761405334041 -0.4239031456957436
10040000000 0.4909946567724135 -0.5178015157036471
10080000000 0.4058185232808258 -0.5978358843570607
10120000000 0.29813506092908504 -0.6563013737697588
10160000000 0.19421989505368065 -0.7024338453521933
10200000000 0.072999956347084 -0.7231886961399363
10240000000 -0.0376754765472489 -0.730769554012954
10280000000 -0.1583915513027061 -0.7149721162606896
10320000000 -0.26703980734900395 -0.6842797036822922
10360000000 -0.37277921463302377 -0.6335821394442642
10400000000 -0.4670769361265468 -0.5717609551702729
10440000000 -0.5484499609919974 -0.4916533528859328
10480000000 -0.6182532635921333 -0.4038232484381995
10520000000 -0.6698905338289529 -0.3046927982358896
10560000000 -0.7080903173668965 -0.20180432360277467
10600000000 -0.7252357402297045 -0.09366059866422272
10640000000 -0.731075286449097 0.008677377709540593
10680000000 -0.7228798900504412 0.11650177409371243
10720000000 -0.7004531723108054 0.21836455474022753
10760000000 -0.6625012454066151 0.323600826498433
10800000000 -0.6065001217345438 0.4141295637160898
10840000000 -0.5394424761809823 0.5039654405953632
10880000000 -0.4581004799825219 0.5743304204384886
10920000000 -0.3672049018792263 0.641695897967293
10960000000 -0.26528993881584517 0.6833476392571927
11000000000 -0.15971207724472258 0.7219575224530038
11040000000 -0.04661058756369463 0.7289280383608514
11080000000 0.06274805614217116 0.7339047461153194
11120000000 0.17575240631506028 0.7063843603361524
11160000000 0.2794864195897085 0.6758751211530521
11200000000 0.37853979460549286 0.6181621670078843
11240000000 0.46647536047551025 0.5547251515472541
11280000000 0.5425497298972386 0.47338741106752813
11320000000 0.6077640603089907 0.3862899109910487
11360000000 0.6561249794123304 0.2871351873330926
11400000000 0.690935813945837 0.18447167221031546
11440000000 0.7070477896953177 0.07740218809498828
11480000000 0.710044914924893 -0.027200676563547632
11520000000 0.6992534719103333 -0.1338041082080954
11560000000 0.6727958266127027 -0.23874624006516165
11600000000 0.6284285511076262 -0.33936266008977767
11640000000 0.5689767150579119 -0.43137692602196
11680000000 0.4974198429978024 -0.5131920146759186
11720000000 0.41389337457759034 -0.5829748227575987
11760000000 0.31919902200995975 -0.6400815220033156
11800000000 0.21935281665942202 -0.6823776363363454
11840000000 0.10831771990829797 -0.7089010936631785
11880000000 0.0012484753858080788 -0.7172655906712034
11920000000 -0.11300644484903422 -0.7089227536870657
11960000000 -0.21832685117395578 -0.6810036760294667
12000000000 -0.3228044702824948 -0.6384701099967772
12040000000 -0.4137931984079514 -0.5796726927961081
12080000000 -0.49908668113783244 -0.5074142818488668
12120000000 -0.5674590991326135 -0.42452451428232396
12160000000 -0.6243334215271693 -0.33029359666058666
12200000000 -0.6639844257896664 -0.2316184577733823
12240000000 -0.6890185218879532 -0.12735446701642872
12280000000 -0.6961524454405882 -0.025492769736621887
12320000000 -0.6957646703115622 0.07604593688851902
12360000000 -0.6779256039386236 0.18150102241035027
12400000000 -0.6463646222667289 0.28143850087569133
12440000000 -0.5956206558829197 0.38211948353569214
12480000000 -0.5323613062077697 0.4662876766287778
12520000000 -0.45255918542060536 0.5468451032032471
12560000000 -0.3660025315441573 0.6060840606455283
12600000000 -0.2657770692779168 0.6582191141004625
12640000000 -0.16599197202285665 0.6877898313582137
12680000000 -0.054321728672499625 0.7067808546958746
12720000000 0.048720595173635695 0.7034052077877014
12760000000 0.16116485620327725 0.6881589461402075
12800000000 0.2570248207892886 0.6517864046021061
12840000000 0.35695809260770217 0.6058449636796934
12880000000 0.43901692220614896 0.5420750569695869
12920000000 0.5186539776134433 0.4687567378309212
12960000000 0.5795383477497176 0.3822726081677328
13000000000 0.6295278208476625 0.28679896448342057
13040000000 0.6582669345884414 0.18649994306576645
13080000000 0.671936154257387 0.08691723392033107
13120000000 0.6732793370875279 -0.00804096719313586
13160000000 0.6682085582483833 -0.10359401578582955
13200000000 0.6492901645912502 -0.203023116673256
13240000000 0.6141939222586409 -0.30045500622350196
13280000000 0.5607902708271163 -0.39444550593331296
13320000000 0.4969006259944659 -0.47534409189736426
13360000000 0.4143007227953329 -0.5504802368147209
13400000000 0.32896785711090787 -0.6044474117663283
13440000000 0.22547048012492288 -0.6529368041506497
13480000000 0.12632022370600837 -0.6759592504926097
13520000000 0.012332457258215301 -0.6897402143771145
13560000000 -0.09019627735597102 -0.6801991607947322
13600000000 -0.20147440544292117 -0.6536706603403275
13640000000 -0.29304687814647495 -0.6130278312589249
13680000000 -0.39049530091598156 -0.5526438755760141
13720000000 -0.46192940902825985 -0.48343171658161677
13760000000 -0.5351586560722583 -0.39981305942576695
13800000000 -0.5800790240107225 -0.30854800307699115
13840000000 -0.6150315049070941 -0.2124743516954778
13880000000 -0.6241845976270368 -0.11754229020920681
13920000000 -0.6280291836388807 -0.03305587436323451
13960000000 -0.6286330144497012 0.050974571723711615
14000000000 -0.6283984459733994 0.13878212782605293
14040000000 -0.6087477887230538 0.24283595284456172
14080000000 -0.5703090806650493 0.3416505468194585
14120000000 -0.5051806785350649 0.4334349115725076
14160000000 -0.4367882780334198 0.5096077165377076
14200000000 -0.34459692009811993 0.5792945571593986
14240000000 -0.2557484933855363 0.6245893932923144
14280000000 -0.1473104578696014 0.6636520209603646
14320000000 -0.04413512091586924 0.6754067557808396
14360000000 0.06582740650796881 0.6773321515805614
14400000000 0.16800367661602422 0.6569437079843721
14440000000 0.27051113438229024 0.6233205071404766
14480000000 0.3607592839153087 0.5745773797346372
14520000000 0.44714570495116784 0.5088976180136963
14560000000 0.5161832137597662 0.43389763197800757
14600000000 0.576419920887065 0.344602205049078
14640000000 0.6136263846468891 0.2514601270235993
14680000000 0.637808138993262 0.15445722862041744
14720000000 0.6444110015773095 0.06253676894859855
14760000000 0.6465236359826673 -0.02472436751454192
14800000000 0.6402522438711478 -0.11614572872571066
14840000000 0.6234692368645418 -0.21214408578719968
14880000000 0.5863363952310032 -0.3086398990013173
14920000000 0.5346438403908785 -0.39969033220590755
14960000000 0.46337961743495026 -0.4795931385829528
15000000000 0.3860123821070254 -0.5489537996016459
15040000000 0.2907188000168137 -0.6028832297245948
15080000000 0.19626442409383327 -0.6432769358504152
15120000000 0.0887227137611949 -0.6669501895480385
15160000000 -0.014281428315431222 -0.6723005641770282
15200000000 -0.12169206704908142 -0.6621436258550494
15240000000 -0.22179571478701654 -0.6352172950104237
15280000000 -0.3175706411181143 -0.5924023143929992
15320000000 -0.4051370043410362 -0.5373387377568124
15360000000 -0.4816660877398985 -0.4671946641579563
15400000000 -0.5471796318834979 -0.38833982456975824
15440000000 -0.595922396954568 -0.298257994149557
15480000000 -0.6305736233474163 -0.2051358685495357
15520000000 -0.646997966385998 -0.11011912082814346
15560000000 -0.6526881928648054 -0.019316698734181792
15600000000 -0.6504420152312697 0.07136168223183348
15640000000 -0.6368224951805052 0.16380138071177314
