! MS46524B
! 1918203/M1: 91020113/M2: 91020112
! 9/9/2020 2:29:01 PM
! C:\USERS\ANRITSUUSER\DESKTOP\2118-5-2.S4P
! CHANNEL.1
! TR.MEASUREMENT
! CORRECTED.DATA
# GHZ S RI R 50.0
! FREQ.GHZ         S11RE        S11IM         S12RE        S12IM         S13RE        S13IM         S14RE        S14IM         
!		       S21RE        S21IM         S22RE        S22IM         S23RE        S23IM         S24RE        S24IM         
!		       S31RE        S31IM         S32RE        S32IM         S33RE        S33IM         S34RE        S34IM         
!		       S41RE        S41IM         S42RE        S42IM         S43RE        S43IM         S44RE        S44IM         
!; PortSelection: Port_1234
   0.030000000     0.0691408    0.0675643     0.8944617   -0.3250947     0.0619592    0.0943398    -0.0589099   -0.0820928 
 		       0.8955790   -0.3264344     0.0695920    0.0690904    -0.0590831   -0.0817722     0.0622721    0.0957846
 		       0.0619261    0.0947660    -0.0587761   -0.0822035     0.0705264    0.0686362     0.8950150   -0.3249900
 		      -0.0587806   -0.0823447     0.0620434    0.0959654     0.8949801   -0.3251401     0.0699445    0.0689938
   0.060000000     0.1363393    0.0497826     0.7209807   -0.5543372     0.1439659    0.1051320    -0.1393382   -0.0921716 
 		       0.7210388   -0.5556206     0.1369452    0.0532408    -0.1401743   -0.0918215     0.1454716    0.1082676
 		       0.1450486    0.1057327    -0.1401116   -0.0922935     0.1379106    0.0511971     0.7212863   -0.5542167
 		      -0.1394368   -0.0920750     0.1449837    0.1080867     0.7205819   -0.5539193     0.1385840    0.0542235
   0.090000000     0.1573872   -0.0087192     0.5099191   -0.7121444     0.1946875    0.0652288    -0.2097198   -0.0629798 
 		       0.5100064   -0.7138540     0.1598596   -0.0037677    -0.2105538   -0.0621014     0.1980731    0.0695874
 		       0.1962152    0.0648817    -0.2106943   -0.0622720     0.1593698   -0.0071857     0.5111079   -0.7115077
 		      -0.2100688   -0.0625324     0.1975019    0.0693535     0.5106072   -0.7113998     0.1606380   -0.0015121
   0.120000000     0.1159937   -0.0664050     0.2680756   -0.8022652     0.1897600    0.0126701    -0.2721359   -0.0066942 
 		       0.2673772   -0.8036885     0.1246819   -0.0612548    -0.2730219   -0.0057720     0.2000583    0.0173006
 		       0.1912490    0.0120870    -0.2734464   -0.0061427     0.1195929   -0.0662549     0.2701704   -0.8021972
 		      -0.2727981   -0.0060156     0.1995368    0.0172148     0.2691325   -0.8017666     0.1279691   -0.0603051
   0.150000000     0.0314970   -0.0711590     0.0053727   -0.8058656     0.1453137   -0.0021197    -0.3300836    0.0870365 
 		       0.0035803   -0.8073341     0.0415275   -0.0633286    -0.3305289    0.0886051     0.1555884    0.0042787
 		       0.1464491   -0.0034515    -0.3309670    0.0879882     0.0361786   -0.0704074     0.0071775   -0.8069431
 		      -0.3304078    0.0879414     0.1548910    0.0044569     0.0065051   -0.8067473     0.0463787   -0.0622029
   0.180000000    -0.0327240    0.0111111    -0.2243718   -0.7023029     0.1101991    0.0527619    -0.3406587    0.2371596 
 		      -0.2262887   -0.7026706    -0.0220879    0.0118117    -0.3405778    0.2390053     0.1215058    0.0531988
 		       0.1107696    0.0525841    -0.3414800    0.2390539    -0.0278351    0.0084859    -0.2231354   -0.7048265
 		      -0.3405717    0.2385848     0.1212164    0.0532765    -0.2233399   -0.7040591    -0.0169916    0.0090241
   0.210000000    -0.0183005    0.1224829    -0.3533409   -0.5421758     0.1466805    0.1290551    -0.2490854    0.3906885 
 		      -0.3540206   -0.5428143     0.0008452    0.1206036    -0.2484472    0.3925987     0.1658372    0.1249357
 		       0.1479407    0.1284600    -0.2485815    0.3934824    -0.0149138    0.1197160    -0.3528872   -0.5455675
 		      -0.2489287    0.3917034     0.1651927    0.1250941    -0.3523343   -0.5451947     0.0030072    0.1159531
   0.240000000     0.0725137    0.1943844    -0.4008636   -0.4030116     0.2415826    0.1570506    -0.0877238    0.4749240 
 		      -0.4011808   -0.4038773     0.0863215    0.1823359    -0.0861186    0.4766814     0.2552856    0.1442749
 		       0.2431422    0.1568066    -0.0843984    0.4781929     0.0739893    0.1902739    -0.4025933   -0.4063755
 		      -0.0872890    0.4761750     0.2555043    0.1441730    -0.4018023   -0.4068733     0.0875227    0.1773797
   0.270000000     0.1713587    0.1979428    -0.4249115   -0.3058846     0.3324122    0.1213419     0.0797983    0.4729580 
 		      -0.4259474   -0.3064848     0.1785323    0.1835948     0.0819866    0.4736520     0.3388941    0.1052384
 		       0.3345103    0.1204941     0.0834716    0.4737855     0.1719161    0.1948895    -0.4273885   -0.3079989
 		       0.0809555    0.4734490     0.3383783    0.1049505    -0.4268862   -0.3080541     0.1772399    0.1797817
   0.300000000     0.2476723    0.1703859    -0.4529878   -0.2224813     0.3839716    0.0552218     0.2132412    0.4173351 
 		      -0.4556112   -0.2227098     0.2489812    0.1564907     0.2162352    0.4178091     0.3862722    0.0396688
 		       0.3862790    0.0539179     0.2170648    0.4181823     0.2480095    0.1665249    -0.4561381   -0.2236456
 		       0.2139548    0.4167440     0.3855764    0.0388986    -0.4537036   -0.2227124     0.2495266    0.1515325
   0.330000000     0.3073058    0.1222543    -0.4766592   -0.1348795     0.4117779   -0.0158144     0.3178816    0.3347172 
 		      -0.4777514   -0.1342683     0.3055204    0.1129288     0.3202384    0.3335409     0.4086516   -0.0264448
 		       0.4137817   -0.0181686     0.3213238    0.3334012     0.3079769    0.1196194    -0.4790063   -0.1344132
 		       0.3198250    0.3337697     0.4079653   -0.0273068    -0.4787517   -0.1339011     0.3027231    0.1109225
   0.360000000     0.3483282    0.0619763    -0.4898447   -0.0490583     0.4131821   -0.0904608     0.3888800    0.2245856 
 		      -0.4909320   -0.0479888     0.3478877    0.0574309     0.3906409    0.2228117     0.4113185   -0.0955760
 		       0.4149806   -0.0931760     0.3914085    0.2222904     0.3482925    0.0594824    -0.4929122   -0.0483307
 		       0.3905758    0.2232715     0.4105425   -0.0959947    -0.4918601   -0.0478271     0.3452770    0.0562896
   0.390000000     0.3709662    0.0102733    -0.4963870    0.0581563     0.3965527   -0.1368672     0.4218974    0.1229917 
 		      -0.4975939    0.0591769     0.3711070   -0.0037687     0.4235379    0.1213562     0.3953620   -0.1513475
 		       0.3974473   -0.1394653     0.4240916    0.1200407     0.3711019    0.0080078    -0.4989376    0.0597252
 		       0.4230254    0.1212741     0.3943293   -0.1522212    -0.4980690    0.0600096     0.3685082   -0.0035797
   0.420000000     0.3880454   -0.0579451    -0.4750710    0.1574715     0.3818338   -0.1903171     0.4343133    0.0073145 
 		      -0.4757005    0.1586812     0.3771760   -0.0716607     0.4342566    0.0048995     0.3692376   -0.2036977
 		       0.3821500   -0.1935435     0.4349305    0.0036320     0.3885374   -0.0614613    -0.4762777    0.1588003
 		       0.4347664    0.0057408     0.3682321   -0.2039689    -0.4753869    0.1590818     0.3742231   -0.0703756
   0.450000000     0.3819552   -0.1308190    -0.4397404    0.2605857     0.3486030   -0.2356803     0.4098005   -0.0953051 
 		      -0.4398085    0.2622045     0.3688934   -0.1212470     0.4092350   -0.0976901     0.3346469   -0.2254866
 		       0.3488604   -0.2385807     0.4094228   -0.0985223     0.3818218   -0.1341648    -0.4407195    0.2624058
 		       0.4101254   -0.0974480     0.3341704   -0.2259116    -0.4401270    0.2622869     0.3663704   -0.1200556
   0.480000000     0.3485834   -0.1869159    -0.3780751    0.3604919     0.3095950   -0.2591959     0.3673165   -0.1841107 
 		      -0.3776745    0.3625524     0.3635226   -0.1829137     0.3663602   -0.1867975     0.3232053   -0.2544895
 		       0.3095951   -0.2626891     0.3659472   -0.1876535     0.3489818   -0.1897241    -0.3779601    0.3630705
 		       0.3668521   -0.1862898     0.3220719   -0.2547434    -0.3774154    0.3633307     0.3608041   -0.1806918
   0.510000000     0.3325394   -0.2317836    -0.2816682    0.4538586     0.2964209   -0.2735686     0.3144352   -0.2510424 
 		      -0.2815946    0.4553129     0.3369967   -0.2447570     0.3128108   -0.2527791     0.3004782   -0.2858866
 		       0.2961919   -0.2763146     0.3126036   -0.2534344     0.3324282   -0.2354064    -0.2818887    0.4552527
 		       0.3142135   -0.2527920     0.2996957   -0.2859707    -0.2811190    0.4551378     0.3347895   -0.2414601
   0.540000000     0.2916265   -0.2948213    -0.1580765    0.5139456     0.2742365   -0.3097245     0.2567838   -0.3097726 
 		      -0.1571795    0.5156414     0.2885622   -0.3025749     0.2552337   -0.3108213     0.2717975   -0.3183769
 		       0.2738519   -0.3130102     0.2546119   -0.3115360     0.2907709   -0.2987518    -0.1577253    0.5159296
 		       0.2557289   -0.3114773     0.2706130   -0.3184205    -0.1573820    0.5154544     0.2868582   -0.2988683
   0.570000000     0.2164150   -0.3325470    -0.0101729    0.5405793     0.2270107   -0.3374806     0.1984722   -0.3575413 
 		      -0.0086907    0.5413423     0.2132268   -0.3380947     0.1964801   -0.3574665     0.2246189   -0.3430735
 		       0.2257311   -0.3405429     0.1957937   -0.3579702     0.2160649   -0.3379513    -0.0100112    0.5413957
 		       0.1971995   -0.3587980     0.2236996   -0.3429304    -0.0093198    0.5409318     0.2135049   -0.3335360
   0.600000000     0.1256735   -0.3159734     0.1492651    0.4932244     0.1680344   -0.3202646     0.1399317   -0.4246031 
 		       0.1506643    0.4936568     0.1237496   -0.3208279     0.1395512   -0.4240415     0.1683932   -0.3260167
 		       0.1670706   -0.3228578     0.1384939   -0.4241846     0.1245568   -0.3215565     0.1488818    0.4950477
 		       0.1382537   -0.4266081     0.1668564   -0.3256780     0.1493893    0.4940638     0.1275495   -0.3173427
   0.630000000     0.1101506   -0.2513469     0.2272414    0.3875623     0.1805286   -0.2723194     0.0054467   -0.4984876 
 		       0.2296780    0.3878794     0.1102800   -0.2553942     0.0048712   -0.4990730     0.1817994   -0.2805626
 		       0.1795033   -0.2749174     0.0037463   -0.4994458     0.1068192   -0.2560737     0.2289899    0.3902151
 		       0.0029536   -0.4995192     0.1809005   -0.2806229     0.2289211    0.3886708     0.1132042   -0.2541550
   0.660000000     0.1351765   -0.2516962     0.2619832    0.3318858     0.2241436   -0.2986672    -0.1587924   -0.4738553 
 		       0.2640271    0.3318349     0.1346732   -0.2538549    -0.1603407   -0.4744280     0.2218582   -0.3081141
 		       0.2232259   -0.3015080    -0.1613533   -0.4742967     0.1313903   -0.2553439     0.2644789    0.3338283
 		      -0.1613470   -0.4739545     0.2210281   -0.3080725     0.2641748    0.3324757     0.1351302   -0.2547337
   0.690000000     0.1259833   -0.2701145     0.3148839    0.2847583     0.2243966   -0.3536077    -0.2771553   -0.3970490 
 		       0.3174021    0.2843210     0.1299233   -0.2734751    -0.2790490   -0.3970177     0.2233223   -0.3637203
 		       0.2230998   -0.3570463    -0.2804774   -0.3968729     0.1221665   -0.2726281     0.3185244    0.2860515
 		      -0.2797646   -0.3964731     0.2222907   -0.3639123     0.3176935    0.2851572     0.1298132   -0.2726446
   0.720000000     0.1112787   -0.2809834     0.3712244    0.2198738     0.2013566   -0.4009811    -0.3596566   -0.3041555 
 		       0.3736852    0.2191948     0.1159318   -0.2878586    -0.3617278   -0.3034148     0.1977687   -0.4144777
 		       0.1994942   -0.4040995    -0.3627418   -0.3024942     0.1079216   -0.2834373     0.3748220    0.2196069
 		      -0.3617616   -0.3031448     0.1965891   -0.4137215     0.3741531    0.2190140     0.1150480   -0.2871321
   0.750000000     0.0931784   -0.2898122     0.4127605    0.1372459     0.1635485   -0.4447794    -0.4142234   -0.2018565 
 		       0.4150817    0.1359310     0.0980462   -0.3008399    -0.4153436   -0.2000361     0.1572154   -0.4593321
 		       0.1614160   -0.4480683    -0.4158610   -0.1992323     0.0902911   -0.2932532     0.4162523    0.1365220
 		      -0.4161122   -0.2001370     0.1561367   -0.4590176     0.4149740    0.1360758     0.0966068   -0.2990479
   0.780000000     0.0769421   -0.2970499     0.4354640    0.0462215     0.1128739   -0.4780975    -0.4431915   -0.0950295 
 		       0.4374517    0.0445047     0.0791528   -0.3089758    -0.4436524   -0.0935726     0.1022250   -0.4908282
 		       0.1097642   -0.4810832    -0.4441802   -0.0923464     0.0744707   -0.2999357     0.4385445    0.0445307
 		      -0.4443306   -0.0928146     0.1007556   -0.4903409     0.4375499    0.0444904     0.0782863   -0.3067952
   0.810000000     0.0588383   -0.3043842     0.4379064   -0.0505910     0.0557663   -0.4961692    -0.4471136    0.0134309 
 		       0.4394241   -0.0528926     0.0621914   -0.3181805    -0.4470757    0.0155869     0.0434736   -0.5078518
 		       0.0525476   -0.4989435    -0.4474247    0.0166202     0.0569635   -0.3065865     0.4400664   -0.0530137
 		      -0.4478430    0.0155134     0.0424116   -0.5070271     0.4390756   -0.0530612     0.0617764   -0.3154745
   0.840000000     0.0456709   -0.3101127     0.4173639   -0.1470830    -0.0006361   -0.5008723    -0.4264138    0.1160384 
 		       0.4181370   -0.1499314     0.0449350   -0.3262214    -0.4259228    0.1180350    -0.0167145   -0.5104207
 		      -0.0040182   -0.5030403    -0.4257651    0.1188185     0.0428011   -0.3130889     0.4191611   -0.1498997
 		      -0.4265330    0.1185209    -0.0175940   -0.5098820     0.4183160   -0.1497719     0.0442402   -0.3226095
   0.870000000     0.0301380   -0.3234708     0.3764414   -0.2373592    -0.0552130   -0.4969195    -0.3852707    0.2100703 
 		       0.3766198   -0.2404300     0.0304778   -0.3366888    -0.3843938    0.2119473    -0.0693557   -0.5002608
 		      -0.0591238   -0.4985411    -0.3840841    0.2130493     0.0277374   -0.3269645     0.3776198   -0.2406698
 		      -0.3845302    0.2125956    -0.0705032   -0.4996685     0.3765857   -0.2403626     0.0294353   -0.3334682
   0.900000000     0.0111359   -0.3358361     0.3134338   -0.3165838    -0.1045774   -0.4825462    -0.3244489    0.2933038 
 		       0.3125017   -0.3191000     0.0076906   -0.3554524    -0.3226249    0.2937575    -0.1189921   -0.4885682
 		      -0.1083516   -0.4840599    -0.3226542    0.2952712     0.0081260   -0.3388087     0.3143618   -0.3197342
 		      -0.3236814    0.2962127    -0.1206514   -0.4871120     0.3135662   -0.3198184     0.0083634   -0.3514504
   0.930000000    -0.0158031   -0.3556114     0.2361723   -0.3777360    -0.1500850   -0.4649089    -0.2467986    0.3608743 
 		       0.2352600   -0.3805313    -0.0233595   -0.3728223    -0.2447676    0.3616239    -0.1671674   -0.4661894
 		      -0.1542974   -0.4662915    -0.2440475    0.3624819    -0.0184094   -0.3578449     0.2360141   -0.3819107
 		      -0.2448740    0.3630471    -0.1682488   -0.4648497     0.2350357   -0.3807524    -0.0230393   -0.3692643
   0.960000000    -0.0528636   -0.3662788     0.1459427   -0.4237378    -0.1890717   -0.4389061    -0.1546927    0.4091639 
 		       0.1442792   -0.4261464    -0.0615019   -0.3845299    -0.1526857    0.4090270    -0.2039620   -0.4379010
 		      -0.1930129   -0.4393878    -0.1517013    0.4098576    -0.0556922   -0.3698972     0.1443447   -0.4269829
 		      -0.1524596    0.4101914    -0.2049779   -0.4368847     0.1439343   -0.4260520    -0.0608873   -0.3799896
   0.990000000    -0.0936240   -0.3727484     0.0461283   -0.4472639    -0.2214860   -0.4104886    -0.0532716    0.4329738 
 		       0.0439381   -0.4489658    -0.1043403   -0.3883621    -0.0513213    0.4325004    -0.2339033   -0.4082609
 		      -0.2252327   -0.4104263    -0.0503981    0.4328016    -0.0976920   -0.3762419     0.0443513   -0.4505468
 		      -0.0509214    0.4337691    -0.2349231   -0.4071248     0.0439887   -0.4496119    -0.1040697   -0.3840441
   1.020000000    -0.1346810   -0.3655843    -0.0562311   -0.4471054    -0.2393979   -0.3766098     0.0508588    0.4333152 
 		      -0.0586008   -0.4489062    -0.1501637   -0.3819834     0.0522548    0.4326791    -0.2545139   -0.3776104
 		      -0.2432744   -0.3765534     0.0533520    0.4326851    -0.1380840   -0.3692048    -0.0588959   -0.4507643
 		       0.0533929    0.4337859    -0.2549688   -0.3762809    -0.0590022   -0.4496748    -0.1505537   -0.3783772
   1.050000000    -0.1735401   -0.3590856    -0.1544992   -0.4247756    -0.2487330   -0.3598734     0.1556328    0.4075854 
 		      -0.1568821   -0.4258331    -0.1927951   -0.3692483     0.1568341    0.4058939    -0.2651043   -0.3538986
 		      -0.2530125   -0.3591014     0.1583765    0.4058992    -0.1770483   -0.3631769    -0.1582074   -0.4275342
 		       0.1581605    0.4074805    -0.2658544   -0.3525307    -0.1580953   -0.4261400    -0.1932152   -0.3647396
   1.080000000    -0.2248593   -0.3519754    -0.2498900   -0.3847233    -0.2686124   -0.3514293     0.2454737    0.3522795 
 		      -0.2531134   -0.3853647    -0.2387565   -0.3581677     0.2458208    0.3501335    -0.2785589   -0.3450178
 		      -0.2726886   -0.3509147     0.2473743    0.3495435    -0.2298439   -0.3548954    -0.2555641   -0.3859085
 		       0.2482798    0.3513207    -0.2794450   -0.3434252    -0.2547886   -0.3846518    -0.2390550   -0.3515509
   1.110000000    -0.2813286   -0.3214549    -0.3403950   -0.3154319    -0.3005275   -0.3360461     0.3143827    0.2855625 
 		      -0.3436575   -0.3149454    -0.2920460   -0.3262531     0.3139759    0.2837678    -0.3067003   -0.3320249
 		      -0.3049964   -0.3351991     0.3152184    0.2826620    -0.2872225   -0.3221645    -0.3455053   -0.3137116
 		       0.3167744    0.2838896    -0.3075764   -0.3306073    -0.3446570   -0.3128366    -0.2907508   -0.3180811
   1.140000000    -0.3193963   -0.2684825    -0.4041696   -0.2201549    -0.3234758   -0.3092183     0.3726698    0.2081029 
 		      -0.4068242   -0.2190190    -0.3279118   -0.2762319     0.3712893    0.2070922    -0.3292347   -0.3114795
 		      -0.3274972   -0.3079099     0.3722423    0.2057509    -0.3234773   -0.2691496    -0.4072720   -0.2180039
 		       0.3743754    0.2065251    -0.3298723   -0.3097735    -0.4063530   -0.2174080    -0.3247981   -0.2694535
   1.170000000    -0.3404731   -0.2123539    -0.4393033   -0.1179389    -0.3402974   -0.2856700     0.4126733    0.1158111 
 		      -0.4416170   -0.1158967    -0.3509618   -0.2250592     0.4108123    0.1153724    -0.3514051   -0.2931759
 		      -0.3442081   -0.2839182     0.4116773    0.1136708    -0.3437833   -0.2131604    -0.4417093   -0.1156550
 		       0.4140761    0.1129314    -0.3522583   -0.2909654    -0.4407713   -0.1153307    -0.3462695   -0.2187863
   1.200000000    -0.3411662   -0.1644491    -0.4497764   -0.0122447    -0.3549741   -0.2684353     0.4298644    0.0153323 
 		      -0.4517930   -0.0093033    -0.3543845   -0.1763837     0.4286110    0.0160111    -0.3731041   -0.2749301
 		      -0.3586158   -0.2661981     0.4289431    0.0140282    -0.3444125   -0.1651721    -0.4517513   -0.0098824
 		       0.4302424    0.0128192    -0.3734872   -0.2725617    -0.4503161   -0.0088131    -0.3499354   -0.1710152
   1.230000000    -0.3408429   -0.1265461    -0.4341551    0.0892609    -0.3804716   -0.2543013     0.4221641   -0.0874921 
 		      -0.4355144    0.0920029    -0.3564770   -0.1346488     0.4211372   -0.0871983    -0.4044250   -0.2553009
 		      -0.3839164   -0.2528008     0.4211126   -0.0882705    -0.3442533   -0.1273543    -0.4359348    0.0919513
 		       0.4221635   -0.0903323    -0.4044775   -0.2533725    -0.4347628    0.0921622    -0.3517248   -0.1299630
   1.260000000    -0.3368866   -0.0867870    -0.4004896    0.1813326    -0.4120588   -0.2292583     0.3880005   -0.1860618 
