! MS46524B
! 1918203/M1: 91020113/M2: 91020112
! 9/9/2020 2:31:12 PM
! C:\USERS\ANRITSUUSER\DESKTOP\2118 -10.S4P
! CHANNEL.1
! TR.MEASUREMENT
! CORRECTED.DATA
# GHZ S RI R 50.0
! FREQ.GHZ         S11RE        S11IM         S12RE        S12IM         S13RE        S13IM         S14RE        S14IM         
!		       S21RE        S21IM         S22RE        S22IM         S23RE        S23IM         S24RE        S24IM         
!		       S31RE        S31IM         S32RE        S32IM         S33RE        S33IM         S34RE        S34IM         
!		       S41RE        S41IM         S42RE        S42IM         S43RE        S43IM         S44RE        S44IM         
!; PortSelection: Port_1234
   0.030000000     0.0781402    0.0251503     0.8133382   -0.4649654     0.0732342    0.0806418    -0.0710577   -0.0680851 
 		       0.8147508   -0.4667800     0.0817867    0.0319780    -0.0693956   -0.0700754     0.0767040    0.0835134
 		       0.0751865    0.0763204    -0.0729680   -0.0664163     0.0776313    0.0308645     0.8155497   -0.4669322
 		      -0.0724710   -0.0670401     0.0788061    0.0827402     0.8176853   -0.4692167     0.0800972    0.0328616
   0.060000000     0.0800771   -0.0376579     0.4823048   -0.7602165     0.1307414    0.0500133    -0.1611032   -0.0529229 
 		       0.4821619   -0.7621000     0.0925409   -0.0256272    -0.1612222   -0.0554936     0.1392884    0.0585848
 		       0.1280678    0.0467144    -0.1619039   -0.0504680     0.0853163   -0.0331883     0.4827700   -0.7624330
 		      -0.1611813   -0.0514249     0.1405363    0.0572826     0.4832770   -0.7654213     0.0931455   -0.0246122
   0.090000000    -0.0224110   -0.0525184     0.0594844   -0.8542501     0.0915057    0.0171022    -0.2495320    0.0351617 
 		       0.0578490   -0.8562744     0.0038283   -0.0468301    -0.2518909    0.0339567     0.1118020    0.0255092
 		       0.0881191    0.0193972    -0.2485472    0.0387999    -0.0159571   -0.0542595     0.0588517   -0.8572372
 		      -0.2485746    0.0372185     0.1136850    0.0237667     0.0566198   -0.8595586     0.0041842   -0.0454185
   0.120000000    -0.1018413    0.0793889    -0.3183469   -0.7072741     0.0492774    0.1007733    -0.2569373    0.2195312 
 		      -0.3202703   -0.7078896    -0.0803120    0.0765472    -0.2578019    0.2210902     0.0697995    0.0976485
 		       0.0507809    0.1030037    -0.2554859    0.2217658    -0.0988298    0.0774134    -0.3195107   -0.7096333
 		      -0.2559403    0.2208783     0.0704838    0.0964717    -0.3214727   -0.7089608    -0.0803178    0.0730279
   0.150000000    -0.0189317    0.2350378    -0.4985528   -0.4494202     0.1312288    0.1930824    -0.0908274    0.3751041 
 		      -0.5009453   -0.4482698     0.0069519    0.2150529    -0.0914231    0.3782075     0.1562546    0.1751632
 		       0.1350422    0.1933086    -0.0872224    0.3747934    -0.0167590    0.2344620    -0.5016811   -0.4493065
 		      -0.0891149    0.3745029     0.1567560    0.1710774    -0.5043597   -0.4468053     0.0053774    0.2158780
   0.180000000     0.1361824    0.2690879    -0.5691530   -0.2301861     0.2508290    0.1831596     0.1215059    0.3702480 
 		      -0.5695263   -0.2286118     0.1449694    0.2511997     0.1249916    0.3720899     0.2578247    0.1634726
 		       0.2532146    0.1813352     0.1232061    0.3688862     0.1398268    0.2696436    -0.5703529   -0.2291075
 		       0.1230714    0.3701115     0.2550713    0.1611888    -0.5691398   -0.2263314     0.1434408    0.2500515
   0.210000000     0.2586493    0.2298375    -0.5945423   -0.0159264     0.3163713    0.1281603     0.2701863    0.2703016 
 		      -0.5955552   -0.0156927     0.2670298    0.2158731     0.2718502    0.2691618     0.3200504    0.1139644
 		       0.3180966    0.1273033     0.2720011    0.2687805     0.2623146    0.2274971    -0.5960462   -0.0160419
 		       0.2710219    0.2701128     0.3189510    0.1135541    -0.5951792   -0.0156862     0.2636825    0.2145238
   0.240000000     0.3460400    0.1315604    -0.5544868    0.1941326     0.3604104    0.0597814     0.3528531    0.1247193 
 		      -0.5554048    0.1945885     0.3535044    0.1171409     0.3543195    0.1227438     0.3618648    0.0464817
 		       0.3626127    0.0579287     0.3542954    0.1210038     0.3495229    0.1294792    -0.5556880    0.1959227
 		       0.3535632    0.1243825     0.3604188    0.0455473    -0.5553241    0.1953206     0.3491781    0.1177045
   0.270000000     0.3696510    0.0061107    -0.4460930    0.3995793     0.3725135   -0.0204134     0.3612154   -0.0186536 
 		      -0.4466053    0.4007706     0.3760419   -0.0060840     0.3602069   -0.0202977     0.3717131   -0.0273686
 		       0.3738503   -0.0224830     0.3597592   -0.0214239     0.3727715    0.0016474    -0.4465182    0.4008990
 		       0.3618222   -0.0195195     0.3706822   -0.0276240    -0.4461368    0.4003409     0.3715802   -0.0030177
   0.300000000     0.2985786   -0.1166417    -0.2324341    0.5660090     0.3304163   -0.1034690     0.3442178   -0.1310716 
 		      -0.2325421    0.5664768     0.3099661   -0.1247153     0.3423401   -0.1314325     0.3375957   -0.1053526
 		       0.3308078   -0.1055274     0.3427536   -0.1324139     0.3004570   -0.1228952    -0.2322966    0.5674349
 		       0.3432640   -0.1337155     0.3362865   -0.1040897    -0.2322749    0.5665584     0.3078385   -0.1234497
   0.330000000     0.1488528   -0.0942821     0.0714899    0.5643823     0.2283656   -0.0765057     0.3274035   -0.2972493 
 		       0.0727972    0.5644178     0.1655883   -0.1257046     0.3281989   -0.2979906     0.2464119   -0.0954101
 		       0.2295110   -0.0778681     0.3269982   -0.2972735     0.1471215   -0.1004134     0.0721113    0.5642241
 		       0.3265694   -0.2991568     0.2450962   -0.0966698     0.0731302    0.5629869     0.1675602   -0.1197884
   0.360000000     0.1613124    0.0152057     0.2318920    0.4089378     0.2854016    0.0044358     0.1352467   -0.4737790 
 		       0.2336397    0.4086572     0.1598387   -0.0128515     0.1347526   -0.4755425     0.2865622   -0.0153835
 		       0.2872871    0.0026572     0.1336916   -0.4750913     0.1586268    0.0128168     0.2329173    0.4098394
 		       0.1330342   -0.4752754     0.2859000   -0.0164585     0.2328660    0.4084758     0.1616646   -0.0102348
   0.390000000     0.2445529    0.0363432     0.3028136    0.3103152     0.3800790   -0.0321955    -0.1206077   -0.4595797 
 		       0.3046795    0.3103884     0.2412897    0.0079055    -0.1226800   -0.4610959     0.3818280   -0.0546599
 		       0.3813130   -0.0341370    -0.1234723   -0.4609006     0.2429880    0.0344947     0.3050857    0.3113534
 		      -0.1224713   -0.4596284     0.3802342   -0.0555595     0.3042763    0.3099743     0.2424053    0.0084742
   0.420000000     0.2991726   -0.0067035     0.3897268    0.2067569     0.4095344   -0.1262690    -0.2916069   -0.3391807 
 		       0.3918618    0.2059492     0.2797038   -0.0365112    -0.2937795   -0.3383811     0.3952760   -0.1528354
 		       0.4108715   -0.1294288    -0.2947510   -0.3375439     0.2993918   -0.0086025     0.3916577    0.2064295
 		      -0.2933413   -0.3387465     0.3935577   -0.1533742     0.3911953    0.2055158     0.2784082   -0.0352699
   0.450000000     0.3297024   -0.0628273     0.4476517    0.0608566     0.3853816   -0.2122303    -0.3855057   -0.1839789 
 		       0.4492918    0.0589599     0.2987218   -0.0580164    -0.3869256   -0.1819149     0.3589852   -0.2050137
 		       0.3859953   -0.2156345    -0.3872308   -0.1811343     0.3302136   -0.0656549     0.4498157    0.0595887
 		      -0.3870841   -0.1823939     0.3574679   -0.2050608     0.4483779    0.0586767     0.2966507   -0.0570063
   0.480000000     0.3237867   -0.1189821     0.4522040   -0.1072923     0.3261741   -0.2549537    -0.4114168   -0.0158065 
 		       0.4533688   -0.1096774     0.3391995   -0.1110089    -0.4119652   -0.0126431     0.3423289   -0.2460796
 		       0.3262204   -0.2583714    -0.4118280   -0.0119356     0.3249390   -0.1218866     0.4537978   -0.1099623
 		      -0.4123329   -0.0135917     0.3408640   -0.2458315     0.4528631   -0.1104635     0.3361818   -0.1094402
   0.510000000     0.3373553   -0.1644401     0.3851910   -0.2828495     0.3061259   -0.2606142    -0.3767163    0.1349931 
 		       0.3857013   -0.2850465     0.3433923   -0.1889210    -0.3754733    0.1375959     0.3108882   -0.2823794
 		       0.3060231   -0.2635869    -0.3749459    0.1380827     0.3380023   -0.1692046     0.3857635   -0.2853989
 		      -0.3771549    0.1368863     0.3096268   -0.2819568     0.3844630   -0.2854390     0.3398813   -0.1852969
   0.540000000     0.3156469   -0.2512619     0.2464166   -0.4213875     0.2879294   -0.2963752    -0.2951756    0.2586170 
 		       0.2458187   -0.4236588     0.3088928   -0.2691368    -0.2925367    0.2596776     0.2797692   -0.3092730
 		       0.2877024   -0.2996810    -0.2919955    0.2601216     0.3144520   -0.2579808     0.2455737   -0.4245959
 		      -0.2945926    0.2604376     0.2786440   -0.3089735     0.2444764   -0.4234248     0.3049986   -0.2645604
   0.570000000     0.2276167   -0.3081612     0.0376874   -0.4946807     0.2362617   -0.3281702    -0.1953999    0.3427424 
 		       0.0358321   -0.4964222     0.2244820   -0.3265078    -0.1926607    0.3406272     0.2342561   -0.3350551
 		       0.2352853   -0.3310895    -0.1919984    0.3407742     0.2239552   -0.3174441     0.0351024   -0.4963716
 		      -0.1940362    0.3441708     0.2329915   -0.3348429     0.0342629   -0.4951964     0.2228551   -0.3179933
   0.600000000     0.1413029   -0.2492612    -0.1742650   -0.4110373     0.1951831   -0.2735389    -0.0609610    0.4452123 
 		      -0.1763081   -0.4114651     0.1316014   -0.2804545    -0.0621745    0.4441012     0.1955285   -0.2936119
 		       0.1950004   -0.2761734    -0.0623371    0.4436076     0.1323851   -0.2540239    -0.1759994   -0.4108172
 		      -0.0587781    0.4466667     0.1939808   -0.2930047    -0.1754139   -0.4087474     0.1377861   -0.2731507
   0.630000000     0.1779131   -0.2257718    -0.2593860   -0.3119280     0.2620678   -0.2894999     0.1721913    0.4264634 
 		      -0.2613792   -0.3121740     0.1544339   -0.2488212     0.1728973    0.4277292     0.2478531   -0.3074247
 		       0.2611204   -0.2928065     0.1730938    0.4282874     0.1722382   -0.2254015    -0.2608073   -0.3120845
 		       0.1747959    0.4263567     0.2473376   -0.3068857    -0.2593993   -0.3113146     0.1585520   -0.2468557
   0.660000000     0.1812762   -0.2502315    -0.3516447   -0.2147379     0.2595471   -0.3658797     0.3246000    0.2966072 
 		      -0.3541302   -0.2141815     0.1539943   -0.2616997     0.3263270    0.2962085     0.2413580   -0.3736609
 		       0.2582683   -0.3691953     0.3272923    0.2962286     0.1782300   -0.2503785    -0.3531717   -0.2148247
 		       0.3266933    0.2953517     0.2409714   -0.3736270    -0.3521651   -0.2147630     0.1550526   -0.2604263
   0.690000000     0.1733884   -0.2680889    -0.4120015   -0.0747289     0.2111110   -0.4230040     0.4012321    0.1392284 
 		      -0.4140405   -0.0729101     0.1504692   -0.2716898     0.4025280    0.1378488     0.1987076   -0.4245205
 		       0.2091693   -0.4266610     0.4036900    0.1369833     0.1710382   -0.2680455    -0.4140162   -0.0737166
 		       0.4027743    0.1371451     0.1979200   -0.4249170    -0.4132768   -0.0736072     0.1511104   -0.2691867
   0.720000000     0.1701989   -0.2901371    -0.4147253    0.0834651     0.1523648   -0.4483035     0.4166182   -0.0286574 
 		      -0.4161796    0.0855465     0.1518272   -0.2944482     0.4170010   -0.0307144     0.1443426   -0.4541900
 		       0.1500515   -0.4514670     0.4173661   -0.0318427     0.1679632   -0.2914486    -0.4158314    0.0850990
 		       0.4172927   -0.0307493     0.1433275   -0.4538584    -0.4149848    0.0849272     0.1516288   -0.2917474
   0.750000000     0.1607669   -0.3275789    -0.3573501    0.2335719     0.0966659   -0.4575668     0.3671055   -0.1864252 
 		      -0.3577220    0.2359988     0.1407730   -0.3312722     0.3659189   -0.1882104     0.0861360   -0.4645442
 		       0.0943088   -0.4602653     0.3656223   -0.1890103     0.1588391   -0.3305233    -0.3581094    0.2353118
 		       0.3668198   -0.1887132     0.0848104   -0.4642648    -0.3572055    0.2346060     0.1407167   -0.3281285
   0.780000000     0.1278693   -0.3723770    -0.2465129    0.3550844     0.0507792   -0.4502725     0.2633674   -0.3111569 
 		      -0.2458942    0.3575456     0.1097991   -0.3737543     0.2616241   -0.3117807     0.0391899   -0.4560977
 		       0.0479279   -0.4527841     0.2609950   -0.3127960     0.1264507   -0.3752197    -0.2463447    0.3570451
 		       0.2621212   -0.3129344     0.0377460   -0.4556264    -0.2457580    0.3561510     0.1105976   -0.3698453
   0.810000000     0.0708975   -0.4059997    -0.0926270    0.4297103     0.0176731   -0.4419001     0.1194862   -0.3833200 
 		      -0.0907568    0.4318083     0.0559196   -0.4068590     0.1168991   -0.3829120     0.0052074   -0.4464363
 		       0.0143809   -0.4443428     0.1161424   -0.3835682     0.0696647   -0.4095478    -0.0915359    0.4311608
 		       0.1180318   -0.3848191     0.0040575   -0.4457579    -0.0912289    0.4302984     0.0570052   -0.4016876
   0.840000000    -0.0033705   -0.4159088     0.0921085    0.4358438    -0.0125634   -0.4369481    -0.0291023   -0.3942341 
 		       0.0947135    0.4371095    -0.0159599   -0.4167999    -0.0302226   -0.3918974    -0.0237236   -0.4404126
 		      -0.0154389   -0.4387851    -0.0310192   -0.3920016    -0.0067644   -0.4208511     0.0930971    0.4372925
 		      -0.0313076   -0.3950261    -0.0247218   -0.4399344     0.0932767    0.4363868    -0.0138490   -0.4105777
   0.870000000    -0.0598975   -0.3722095     0.2490506    0.3420283    -0.0277603   -0.4204891    -0.1835594   -0.3717312 
 		       0.2519769    0.3420115    -0.0750650   -0.3746968    -0.1826322   -0.3710153    -0.0398240   -0.4242787
 		      -0.0310538   -0.4221394    -0.1835629   -0.3706950    -0.0656775   -0.3764511     0.2512137    0.3434730
 		      -0.1859171   -0.3709735    -0.0410622   -0.4236366     0.2508297    0.3425689    -0.0703255   -0.3710427
   0.900000000    -0.0809752   -0.3458279     0.3449696    0.2271138    -0.0360880   -0.4424948    -0.3246656   -0.2581636 
 		       0.3472325    0.2257863    -0.0971488   -0.3510778    -0.3249074   -0.2579186    -0.0494094   -0.4497660
 		      -0.0394446   -0.4444853    -0.3254562   -0.2575244    -0.0855345   -0.3471899     0.3476607    0.2278553
 		      -0.3276585   -0.2569740    -0.0515052   -0.4489582     0.3464157    0.2273906    -0.0935130   -0.3481357
   0.930000000    -0.0956571   -0.3235238     0.4024699    0.0865235    -0.0756180   -0.4718089    -0.3939624   -0.1040111 
 		       0.4048228    0.0847634    -0.1196155   -0.3258264    -0.3938797   -0.1033379    -0.0977234   -0.4744401
 		      -0.0796642   -0.4737425    -0.3943338   -0.1022349    -0.0993199   -0.3242138     0.4056338    0.0852765
 		      -0.3953575   -0.1015836    -0.0987825   -0.4733366     0.4045018    0.0849611    -0.1171019   -0.3231813
   0.960000000    -0.1032576   -0.3092157     0.4071387   -0.0686031    -0.1382608   -0.4801920    -0.3969235    0.0583476 
 		       0.4084899   -0.0708088    -0.1281001   -0.3056628    -0.3963183    0.0591072    -0.1599488   -0.4760742
 		      -0.1424180   -0.4812195    -0.3965738    0.0602515    -0.1066353   -0.3113543     0.4086388   -0.0707726
 		      -0.3970589    0.0606675    -0.1615853   -0.4751770     0.4076807   -0.0708042    -0.1256928   -0.3019303
   0.990000000    -0.1108667   -0.3085876     0.3495446   -0.2165484    -0.2047713   -0.4646344    -0.3417429    0.2043836 
 		       0.3497880   -0.2186925    -0.1334835   -0.2957737    -0.3405915    0.2048333    -0.2228947   -0.4530163
 		      -0.2089383   -0.4651879    -0.3405965    0.2058004    -0.1149655   -0.3107090     0.3508150   -0.2189998
 		      -0.3411874    0.2065527    -0.2243019   -0.4517806     0.3497391   -0.2185739    -0.1311761   -0.2917585
   1.020000000    -0.1261816   -0.3126080     0.2461067   -0.3290526    -0.2590664   -0.4209304    -0.2338043    0.3206338 
 		       0.2456108   -0.3318348    -0.1401580   -0.2958918    -0.2332417    0.3207676    -0.2685173   -0.4095747
 		      -0.2636306   -0.4210364    -0.2325780    0.3217355    -0.1293387   -0.3146959     0.2464496   -0.3326747
 		      -0.2323510    0.3228009    -0.2694172   -0.4083577     0.2458155   -0.3317948    -0.1383553   -0.2933085
   1.050000000    -0.1480491   -0.3219239     0.1049744   -0.4024944    -0.2806424   -0.3746862    -0.0906259    0.3832993 
 		       0.1035408   -0.4043872    -0.1600488   -0.3104437    -0.0899950    0.3825949    -0.2905861   -0.3687789
 		      -0.2851775   -0.3738711    -0.0885295    0.3833785    -0.1511070   -0.3241433     0.1040264   -0.4054330
 		      -0.0884665    0.3844405    -0.2915772   -0.3674383     0.1036140   -0.4044448    -0.1583212   -0.3072465
   1.080000000    -0.1952921   -0.3353584    -0.0548680   -0.4112318    -0.2931549   -0.3437800     0.0667091    0.3901051 
 		      -0.0568746   -0.4129688    -0.2059241   -0.3190336     0.0667844    0.3892457    -0.3055452   -0.3359030
 		      -0.2973925   -0.3432412     0.0684412    0.3896003    -0.1988405   -0.3368945    -0.0574256   -0.4144781
 		       0.0692585    0.3904700    -0.3066680   -0.3340696    -0.0575341   -0.4131578    -0.2040698   -0.3158780
   1.110000000    -0.2553972   -0.3199565    -0.2058624   -0.3632729    -0.3032077   -0.3230709     0.2167624    0.3295209 
 		      -0.2088233   -0.3638142    -0.2571821   -0.3018637     0.2168469    0.3291728    -0.3120577   -0.3139288
 		      -0.3075669   -0.3219760     0.2182860    0.3284298    -0.2604596   -0.3210205    -0.2107505   -0.3647679
 		       0.2194421    0.3285796    -0.3129540   -0.3124447    -0.2104057   -0.3636109    -0.2579117   -0.2979411
   1.140000000    -0.3111222   -0.2731286    -0.3371810   -0.2560727    -0.3215008   -0.3074330     0.3206529    0.2164681 
 		      -0.3400222   -0.2555742    -0.3103385   -0.2581530     0.3203678    0.2164138    -0.3327571   -0.2986683
 		      -0.3257823   -0.3061473     0.3215149    0.2149022    -0.3147278   -0.2727626    -0.3411405   -0.2539807
 		       0.3226855    0.2152676    -0.3336034   -0.2967516    -0.3403071   -0.2532704    -0.3102545   -0.2516059
   1.170000000    -0.3351648   -0.2031131    -0.4055178   -0.1013450    -0.3394868   -0.2887818     0.3794625    0.0780797 
 		      -0.4075781   -0.0993572    -0.3280833   -0.1962982     0.3787433    0.0777941    -0.3478531   -0.2816679
 		      -0.3433971   -0.2869661     0.3793051    0.0760440    -0.3373983   -0.2029988    -0.4074215   -0.0984863
 		       0.3806129    0.0751955    -0.3485468   -0.2793366    -0.4064779   -0.0979514    -0.3244580   -0.1897575
   1.200000000    -0.3207039   -0.1492877    -0.4065030    0.0602876    -0.3600571   -0.2753014     0.3811696   -0.0764047 
 		      -0.4075416    0.0633192    -0.3232777   -0.1494474     0.3808110   -0.0762279    -0.3795583   -0.2686432
 		      -0.3634878   -0.2733188     0.3802712   -0.0778643    -0.3232444   -0.1493179    -0.4074121    0.0629878
 		       0.3809789   -0.0787253    -0.3795668   -0.2667876    -0.4056801    0.0633866    -0.3199144   -0.1430416
   1.230000000    -0.3040366   -0.1228284    -0.3488313    0.2050738    -0.3974344   -0.2593316     0.3201734   -0.2186467 
 		      -0.3494523    0.2079638    -0.3097865   -0.1118503     0.3195694   -0.2185252    -0.4177781   -0.2349292
 		      -0.4016939   -0.2574206     0.3190804   -0.2195131    -0.3062224   -0.1238592    -0.3492793    0.2080126
 		       0.3192533   -0.2209110    -0.4181033   -0.2328265    -0.3483849    0.2075327    -0.3053900   -0.1069302
   1.260000000    -0.2954921   -0.1037389    -0.2460107    0.3168942    -0.4397350   -0.2136645     0.2102966   -0.3257543 
