! MS46524B
! 2118201/M1: 21072234/M2: 20492244
! 10/22/2024 6:44:13 PM
! C:\VNA DATA\LC3-SMK\AD5613\22VAD5613Q\LOT-805\差動\1-L3-4.S4P
! CHANNEL.1
! TR.MEASUREMENT
! CORRECTED.DATA
# GHZ S RI R 50.0
! FREQ.GHZ         S11RE        S11IM         S12RE        S12IM         S13RE        S13IM         S14RE        S14IM         
!		       S21RE        S21IM         S22RE        S22IM         S23RE        S23IM         S24RE        S24IM         
!		       S31RE        S31IM         S32RE        S32IM         S33RE        S33IM         S34RE        S34IM         
!		       S41RE        S41IM         S42RE        S42IM         S43RE        S43IM         S44RE        S44IM         
!; PortSelection: Port_1234
   0.010000000     0.0575613   -0.0015729    -0.0002879    0.0001845     0.0003706    0.0018260     0.9417890   -0.0460208 
 		      -0.0003019    0.0001676     0.0116605   -0.0029629     0.9867864   -0.0471104     0.0003556    0.0019321
 		       0.0003828    0.0018173     0.9875483   -0.0475400     0.0113857   -0.0033524    -0.0002908    0.0002758
 		       0.9404464   -0.0456061     0.0003977    0.0019250    -0.0002933    0.0002645     0.0570847   -0.0059838
   0.020000000     0.0579475   -0.0090596    -0.0002603    0.0003492     0.0006759    0.0036173     0.9372847   -0.0863411 
 		      -0.0002782    0.0003258     0.0124330   -0.0073790     0.9821389   -0.0923925     0.0006783    0.0038135
 		       0.0006589    0.0036214     0.9825187   -0.0928282     0.0117006   -0.0066684    -0.0002282    0.0005382
 		       0.9365069   -0.0861274     0.0006959    0.0038201    -0.0002287    0.0005454     0.0556462   -0.0161171
   0.030000000     0.0575888   -0.0156280    -0.0002337    0.0005200     0.0010972    0.0053568     0.9322054   -0.1266941 
 		      -0.0002469    0.0005054     0.0127722   -0.0111032     0.9753989   -0.1368283     0.0011569    0.0056327
 		       0.0011090    0.0053739     0.9756001   -0.1376516     0.0125955   -0.0114179    -0.0001315    0.0007834
 		       0.9309614   -0.1260171     0.0011995    0.0056637    -0.0001427    0.0007976     0.0531700   -0.0267296
   0.040000000     0.0568577   -0.0220517    -0.0001939    0.0007189     0.0016849    0.0070564     0.9249281   -0.1664749 
 		      -0.0001832    0.0007014     0.0128793   -0.0160572     0.9669946   -0.1803897     0.0018035    0.0074192
 		       0.0017115    0.0070589     0.9673015   -0.1812353     0.0126518   -0.0170270     0.0000103    0.0010397
 		       0.9247136   -0.1661234     0.0018616    0.0074452    -0.0000107    0.0010526     0.0490251   -0.0371263
   0.050000000     0.0556811   -0.0283693    -0.0001109    0.0009444     0.0024173    0.0086770     0.9159786   -0.2063759 
 		      -0.0000978    0.0009428     0.0127916   -0.0209830     0.9561818   -0.2235690     0.0025869    0.0090813
 		       0.0024351    0.0086763     0.9567291   -0.2238443     0.0118431   -0.0221333     0.0001906    0.0013072
 		       0.9158180   -0.2058353     0.0026667    0.0091373     0.0001999    0.0013063     0.0458868   -0.0463111
   0.060000000     0.0542705   -0.0350824     0.0000507    0.0011596     0.0032958    0.0102397     0.9061190   -0.2456812 
 		       0.0000542    0.0011551     0.0117941   -0.0262737     0.9440007   -0.2660515     0.0035447    0.0106842
 		       0.0032979    0.0102081     0.9447109   -0.2664213     0.0113668   -0.0276973     0.0004161    0.0015321
 		       0.9057310   -0.2451427     0.0036386    0.0107388     0.0004395    0.0015424     0.0413158   -0.0555269
   0.070000000     0.0515033   -0.0414347     0.0002522    0.0013376     0.0042923    0.0116997     0.8944722   -0.2847809 
 		       0.0002512    0.0013266     0.0095864   -0.0318230     0.9296638   -0.3076573     0.0046174    0.0121858
 		       0.0042998    0.0116973     0.9303379   -0.3079460     0.0094966   -0.0323588     0.0007333    0.0017058
 		       0.8935800   -0.2845493     0.0047354    0.0122491     0.0007393    0.0017163     0.0360182   -0.0644068
   0.080000000     0.0478842   -0.0471429     0.0004824    0.0014687     0.0053885    0.0131240     0.8810452   -0.3231248 
 		       0.0004565    0.0014561     0.0070703   -0.0366456     0.9137446   -0.3485716     0.0056492    0.0137026
 		       0.0054055    0.0131187     0.9142290   -0.3489300     0.0056376   -0.0363225     0.0010325    0.0018515
 		       0.8807126   -0.3223796     0.0058546    0.0137359     0.0010526    0.0018398     0.0304982   -0.0706716
   0.090000000     0.0438612   -0.0527366     0.0007157    0.0015492     0.0066481    0.0143819     0.8661319   -0.3605667 
 		       0.0007063    0.0015548     0.0052115   -0.0412209     0.8965145   -0.3879594     0.0071535    0.0148854
 		       0.0066745    0.0143886     0.8965519   -0.3891213     0.0044431   -0.0406163     0.0013743    0.0019053
 		       0.8661066   -0.3604799     0.0073409    0.0149231     0.0013973    0.0019040     0.0217216   -0.0765730
   0.100000000     0.0404448   -0.0574099     0.0009403    0.0016379     0.0079469    0.0156325     0.8491682   -0.3985780 
 		       0.0008788    0.0016388     0.0020765   -0.0455755     0.8778941   -0.4275377     0.0083795    0.0162263
 		       0.0079845    0.0155931     0.8773609   -0.4277009     0.0004321   -0.0449740     0.0017569    0.0019189
 		       0.8494418   -0.3973366     0.0086511    0.0162243     0.0017241    0.0019299     0.0152090   -0.0822999
   0.110000000     0.0365034   -0.0626880     0.0012249    0.0017321     0.0094457    0.0166748     0.8308628   -0.4345676 
 		       0.0012104    0.0017387    -0.0002291   -0.0502502     0.8560587   -0.4653669     0.0101058    0.0171167
 		       0.0094657    0.0166353     0.8561519   -0.4653282    -0.0022825   -0.0488020     0.0021073    0.0018882
 		       0.8307722   -0.4349792     0.0103496    0.0171624     0.0021226    0.0019139     0.0071121   -0.0861157
   0.120000000     0.0320492   -0.0675636     0.0015542    0.0017859     0.0110230    0.0176120     0.8112448   -0.4705240 
 		       0.0015417    0.0017656    -0.0042178   -0.0551812     0.8334782   -0.5015284     0.0117697    0.0180310
 		       0.0110458    0.0175687     0.8342416   -0.5026295    -0.0066138   -0.0537557     0.0024722    0.0018129
 		       0.8106979   -0.4708620     0.0119725    0.0180733     0.0024866    0.0018028    -0.0003784   -0.0893843
   0.130000000     0.0256440   -0.0728137     0.0019026    0.0017333     0.0126633    0.0184166     0.7901945   -0.5053341 
 		       0.0018973    0.0017361    -0.0092376   -0.0597351     0.8091440   -0.5384650     0.0134517    0.0187825
 		       0.0126720    0.0184317     0.8099181   -0.5380193    -0.0117301   -0.0578408     0.0028137    0.0016686
 		       0.7902807   -0.5055476     0.0136880    0.0188365     0.0028499    0.0016619    -0.0090570   -0.0926822
   0.140000000     0.0195947   -0.0765327     0.0022446    0.0016517     0.0143710    0.0191209     0.7678025   -0.5395640 
 		       0.0022158    0.0016437    -0.0140633   -0.0631312     0.7831584   -0.5722154     0.0152298    0.0194168
 		       0.0143858    0.0191048     0.7841875   -0.5728074    -0.0164000   -0.0607938     0.0031665    0.0015025
 		       0.7671817   -0.5396870     0.0155180    0.0194713     0.0031814    0.0015107    -0.0176783   -0.0953202
   0.150000000     0.0121012   -0.0795634     0.0025794    0.0015048     0.0161363    0.0196899     0.7440306   -0.5736816 
 		       0.0025537    0.0015197    -0.0189753   -0.0660592     0.7563367   -0.6049418     0.0170537    0.0199123
 		       0.0161640    0.0196873     0.7574269   -0.6056505    -0.0207967   -0.0628725     0.0035148    0.0013058
 		       0.7428331   -0.5736157     0.0173331    0.0199268     0.0035167    0.0012801    -0.0251418   -0.0971569
   0.160000000     0.0019290   -0.0774110     0.0027929    0.0013277     0.0182167    0.0201693     0.7189450   -0.6111230 
 		       0.0028200    0.0013077    -0.0228377   -0.0679103     0.7285299   -0.6369395     0.0191369    0.0202949
 		       0.0181570    0.0200829     0.7286692   -0.6378196    -0.0249954   -0.0655364     0.0036327    0.0011138
 		       0.7177942   -0.6109014     0.0191600    0.0201903     0.0036670    0.0011343    -0.0317559   -0.0930712
   0.170000000     0.0049733   -0.0825745     0.0030178    0.0011976     0.0198821    0.0202284     0.6866778   -0.6347492 
 		       0.0029781    0.0011621    -0.0272360   -0.0701190     0.6990150   -0.6677389     0.0211059    0.0204358
 		       0.0199178    0.0202626     0.6983705   -0.6683044    -0.0300139   -0.0671741     0.0041311    0.0007356
 		       0.6864991   -0.6343229     0.0211492    0.0202669     0.0041514    0.0008011    -0.0408133   -0.1002714
   0.180000000    -0.0020687   -0.0858440     0.0033471    0.0009924     0.0217918    0.0204688     0.6589912   -0.6635640 
 		       0.0033175    0.0010244    -0.0323148   -0.0724738     0.6679570   -0.6969125     0.0230080    0.0204330
 		       0.0217611    0.0203456     0.6674353   -0.6971352    -0.0357963   -0.0694298     0.0043684    0.0004042
 		       0.6594986   -0.6633701     0.0229988    0.0202868     0.0044435    0.0003564    -0.0490858   -0.0989870
   0.190000000    -0.0092865   -0.0875384     0.0036900    0.0006690     0.0236385    0.0204398     0.6301851   -0.6916202 
 		       0.0036296    0.0007069    -0.0382746   -0.0749876     0.6360916   -0.7239963     0.0249024    0.0203308
 		       0.0236313    0.0203713     0.6354234   -0.7247753    -0.0422427   -0.0703226     0.0046001   -0.0000822
 		       0.6299803   -0.6913484     0.0249468    0.0202367     0.0046544   -0.0001238    -0.0565936   -0.0980325
   0.200000000    -0.0164985   -0.0886162     0.0038752    0.0002974     0.0255547    0.0204215     0.5999921   -0.7184478 
 		       0.0039653    0.0004236    -0.0443385   -0.0758409     0.6033218   -0.7506540     0.0266365    0.0204993
 		       0.0255655    0.0202781     0.6028815   -0.7514608    -0.0474392   -0.0713827     0.0046380   -0.0005039
 		       0.5995016   -0.7176217     0.0267787    0.0202436     0.0047675   -0.0004956    -0.0635302   -0.0951449
   0.210000000    -0.0230954   -0.0879966     0.0040574   -0.0001282     0.0275162    0.0198392     0.5678356   -0.7431358 
 		       0.0040781   -0.0000632    -0.0498801   -0.0754906     0.5681918   -0.7748657     0.0287416    0.0196217
 		       0.0275479    0.0197783     0.5678243   -0.7765649    -0.0534788   -0.0711671     0.0048290   -0.0009549
 		       0.5673958   -0.7433730     0.0287578    0.0194060     0.0047904   -0.0010058    -0.0699473   -0.0933314
   0.220000000    -0.0291878   -0.0871384     0.0041051   -0.0005361     0.0293345    0.0193533     0.5344386   -0.7674285 
 		       0.0041553   -0.0005058    -0.0551507   -0.0747138     0.5336636   -0.7974681     0.0306227    0.0190558
 		       0.0293531    0.0193648     0.5320916   -0.7996895    -0.0590438   -0.0696155     0.0048338   -0.0014320
 		       0.5347167   -0.7672628     0.0306545    0.0188010     0.0047945   -0.0014547    -0.0758088   -0.0914032
   0.230000000    -0.0351448   -0.0865645     0.0041869   -0.0008336     0.0312259    0.0188264     0.5007748   -0.7895200 
 		       0.0041845   -0.0008422    -0.0598615   -0.0741069     0.4973641   -0.8192531     0.0324165    0.0183892
 		       0.0312202    0.0186982     0.4958076   -0.8213201    -0.0633384   -0.0686716     0.0048316   -0.0018503
 		       0.5013383   -0.7894765     0.0325438    0.0181002     0.0048175   -0.0018488    -0.0827725   -0.0884937
   0.240000000    -0.0412908   -0.0854483     0.0042650   -0.0011819     0.0330518    0.0179959     0.4653552   -0.8107110 
 		       0.0042365   -0.0011794    -0.0644407   -0.0736409     0.4608801   -0.8389636     0.0343117    0.0174680
 		       0.0330412    0.0179277     0.4589402   -0.8408664    -0.0677674   -0.0669857     0.0047910   -0.0023073
 		       0.4661714   -0.8104120     0.0344052    0.0171776     0.0048419   -0.0023011    -0.0882018   -0.0836882
   0.250000000    -0.0480011   -0.0840372     0.0043862   -0.0015602     0.0347777    0.0171313     0.4299170   -0.8301780 
 		       0.0043469   -0.0015305    -0.0698557   -0.0739241     0.4233747   -0.8571309     0.0359831    0.0164219
 		       0.0347988    0.0169545     0.4211649   -0.8589776    -0.0740601   -0.0651903     0.0047733   -0.0027418
 		       0.4301622   -0.8294739     0.0360327    0.0161267     0.0048538   -0.0027732    -0.0921145   -0.0800751
   0.260000000    -0.0544965   -0.0814786     0.0044599   -0.0021340     0.0364494    0.0161435     0.3931229   -0.8476070 
 		       0.0043842   -0.0020651    -0.0759592   -0.0724866     0.3856660   -0.8741274     0.0376509    0.0153073
 		       0.0364069    0.0160153     0.3834099   -0.8750238    -0.0803656   -0.0630263     0.0046815   -0.0032745
 		       0.3930146   -0.8477160     0.0376646    0.0151026     0.0046922   -0.0033438    -0.0974682   -0.0751718
   0.270000000    -0.0608252   -0.0783599     0.0043360   -0.0027031     0.0380857    0.0149171     0.3556428   -0.8638441 
 		       0.0043587   -0.0026030    -0.0819910   -0.0697765     0.3465446   -0.8884438     0.0392346    0.0141213
 		       0.0381261    0.0147669     0.3452068   -0.8901026    -0.0862673   -0.0602731     0.0044860   -0.0037898
 		       0.3549257   -0.8638413     0.0392142    0.0138294     0.0044725   -0.0038680    -0.1023466   -0.0712157
   0.280000000    -0.0664330   -0.0741196     0.0041188   -0.0031727     0.0395992    0.0135930     0.3172804   -0.8781353 
 		       0.0041512   -0.0031168    -0.0877071   -0.0657850     0.3072205   -0.9011617     0.0407613    0.0127193
 		       0.0396045    0.0135536     0.3057719   -0.9020849    -0.0912560   -0.0564942     0.0041998   -0.0042483
 		       0.3170289   -0.8776461     0.0407519    0.0124767     0.0041393   -0.0042946    -0.1067951   -0.0671689
   0.290000000    -0.0710804   -0.0704587     0.0038492   -0.0035528     0.0410069    0.0121693     0.2785756   -0.8905656 
 		       0.0038621   -0.0035409    -0.0915021   -0.0630828     0.2679954   -0.9131248     0.0421326    0.0112300
 		       0.0410232    0.0121289     0.2664080   -0.9138266    -0.0951723   -0.0525828     0.0038823   -0.0046894
 		       0.2782917   -0.8905397     0.0421672    0.0110268     0.0038665   -0.0046725    -0.1110355   -0.0632779
   0.300000000    -0.0759843   -0.0671434     0.0036755   -0.0038096     0.0424240    0.0108783     0.2397216   -0.9023107 
 		       0.0037125   -0.0039648    -0.0945245   -0.0618647     0.2272617   -0.9226019     0.0441194    0.0103501
 		       0.0425683    0.0106364     0.2261562   -0.9234000    -0.0983401   -0.0491445     0.0036333   -0.0050500
 		       0.2394003   -0.9015253     0.0425111    0.0092701     0.0036431   -0.0048520    -0.1101051   -0.0582047
   0.310000000    -0.0793104   -0.0624283     0.0034462   -0.0042691     0.0436822    0.0089948     0.1991201   -0.9106319 
 		       0.0034010   -0.0042708    -0.0986533   -0.0582122     0.1873017   -0.9308001     0.0446945    0.0080122
 		       0.0437424    0.0088768     0.1858950   -0.9316385    -0.1013261   -0.0465174     0.0032312   -0.0054357
 		       0.1985939   -0.9103501     0.0446443    0.0077303     0.0033107   -0.0054232    -0.1179954   -0.0536151
   0.320000000    -0.0837834   -0.0599367     0.0032716   -0.0046701     0.0448086    0.0073960     0.1598925   -0.9183140 
 		       0.0032294   -0.0045736    -0.1025834   -0.0565218     0.1472666   -0.9371683     0.0457099    0.0062018
 		       0.0448069    0.0071876     0.1449055   -0.9374042    -0.1043934   -0.0423536     0.0028897   -0.0057104
 		       0.1590644   -0.9186546     0.0456659    0.0059634     0.0029296   -0.0057969    -0.1202621   -0.0487706
   0.330000000    -0.0876355   -0.0535571     0.0028889   -0.0051054     0.0459301    0.0055574     0.1186595   -0.9241021 
 		       0.0029086   -0.0050491    -0.1069201   -0.0524246     0.1072492   -0.9419433     0.0466968    0.0043911
 		       0.0457741    0.0054014     0.1046216   -0.9415773    -0.1076140   -0.0370815     0.0025158   -0.0061019
 		       0.1177666   -0.9232778     0.0466284    0.0041455     0.0025005   -0.0061821    -0.1220085   -0.0450862
   0.340000000    -0.0890471   -0.0487061     0.0024105   -0.0054631     0.0467092    0.0036899     0.0793475   -0.9265974 
 		       0.0024730   -0.0053774    -0.1096965   -0.0472116     0.0658777   -0.9445210     0.0475203    0.0024705
 		       0.0466636    0.0036367     0.0638797   -0.9440549    -0.1094884   -0.0311072     0.0019412   -0.0063955
 		       0.0789115   -0.9267140     0.0474790    0.0021717     0.0018747   -0.0064651    -0.1235368   -0.0393188
   0.350000000    -0.0916684   -0.0433865     0.0018993   -0.0057416     0.0474545    0.0018148     0.0391669   -0.9293176 
 		       0.0019755   -0.0057150    -0.1117652   -0.0422687     0.0251628   -0.9455097     0.0481814    0.0004775
 		       0.0474728    0.0017057     0.0231256   -0.9451665    -0.1119070   -0.0251158     0.0013846   -0.0066007
 		       0.0391208   -0.9294991     0.0481631    0.0002210     0.0013332   -0.0066103    -0.1232726   -0.0342059
   0.360000000    -0.0937916   -0.0376177     0.0013582   -0.0059127     0.0481627   -0.0001506    -0.0004298   -0.9298569 
 		       0.0013634   -0.0059156    -0.1133264   -0.0379013    -0.0155126   -0.9448564     0.0487513   -0.0014288
 		       0.0481129   -0.0002447    -0.0169863   -0.9445010    -0.1121471   -0.0194818     0.0008143   -0.0067485
 		      -0.0011032   -0.9299754     0.0487798   -0.0017632     0.0007798   -0.0067432    -0.1249213   -0.0289081
   0.370000000    -0.0948616   -0.0317679     0.0008385   -0.0059646     0.0487268   -0.0021425    -0.0407069   -0.9288307 
 		       0.0008507   -0.0059839    -0.1138801   -0.0327736    -0.0556795   -0.9423055     0.0492771   -0.0034726
 		       0.0487083   -0.0022646    -0.0581091   -0.9421170    -0.1131125   -0.0141773     0.0002763   -0.0068260
 		      -0.0414656   -0.9285622     0.0491807   -0.0038398     0.0003036   -0.0067806    -0.1263610   -0.0221990
   0.380000000    -0.0974343   -0.0264157     0.0004655   -0.0061323     0.0490288   -0.0042587    -0.0806311   -0.9259882 
 		       0.0004078   -0.0061225    -0.1159564   -0.0287783    -0.0960494   -0.9378663     0.0495955   -0.0056533
 		       0.0490010   -0.0043711    -0.0981117   -0.9385255    -0.1146956   -0.0095702    -0.0002805   -0.0069353
 		      -0.0813145   -0.9260997     0.0494997   -0.0059381    -0.0001982   -0.0069553    -0.1258652   -0.0156791
   0.390000000    -0.0988056   -0.0202741    -0.0000329   -0.0062862     0.0493223   -0.0063444    -0.1207319   -0.9213204 
 		      -0.0000272   -0.0062339    -0.1177939   -0.0240355    -0.1363983   -0.9319134     0.0496539   -0.0076885
 		       0.0491981   -0.0064811    -0.1389969   -0.9320220    -0.1157478   -0.0041594    -0.0007982   -0.0069172
 		      -0.1220967   -0.9211590     0.0495872   -0.0081291    -0.0007969   -0.0070044    -0.1251778   -0.0108043
   0.400000000    -0.1002225   -0.0144714    -0.0005175   -0.0064430     0.0494137   -0.0083818    -0.1605972   -0.9150910 
 		      -0.0005129   -0.0064136    -0.1196439   -0.0191460    -0.1763245   -0.9247921     0.0497021   -0.0097070
 		       0.0492995   -0.0084827    -0.1785360   -0.9239975    -0.1165177    0.0014066    -0.0013329   -0.0070057
 		      -0.1622112   -0.9139734     0.0496778   -0.0100755    -0.0013814   -0.0070806    -0.1255151   -0.0060977
   0.410000000    -0.1006092   -0.0088098    -0.0011178   -0.0066117     0.0494058   -0.0105043    -0.2002634   -0.9066285 
 		      -0.0010517   -0.0065867    -0.1207495   -0.0138711    -0.2154632   -0.9148182     0.0495832   -0.0118614
 		       0.0492716   -0.0105981    -0.2174434   -0.9153935    -0.1161932    0.0066415    -0.0019793   -0.0069939
 		      -0.2014544   -0.9059095     0.0495709   -0.0122548    -0.0020204   -0.0070426    -0.1253678   -0.0010658
   0.420000000    -0.0992374   -0.0028137    -0.0018314   -0.0064739     0.0491916   -0.0126611    -0.2389222   -0.8967178 
