! MS46524B
! 2118201/M1: 21072234/M2: 20492244
! 10/22/2024 6:47:11 PM
! C:\VNA DATA\LC3-SMK\AD5613\22VAD5613Q\LOT-805\差動\1-L4-4.S4P
! CHANNEL.1
! TR.MEASUREMENT
! CORRECTED.DATA
# GHZ S RI R 50.0
! FREQ.GHZ         S11RE        S11IM         S12RE        S12IM         S13RE        S13IM         S14RE        S14IM         
!		       S21RE        S21IM         S22RE        S22IM         S23RE        S23IM         S24RE        S24IM         
!		       S31RE        S31IM         S32RE        S32IM         S33RE        S33IM         S34RE        S34IM         
!		       S41RE        S41IM         S42RE        S42IM         S43RE        S43IM         S44RE        S44IM         
!; PortSelection: Port_1234
   0.010000000     0.0061583   -0.0007314    -0.0001534    0.0002309     0.0003253    0.0040606     0.9926103   -0.0452443 
 		      -0.0001683    0.0002217     0.0065085   -0.0005593     0.9922794   -0.0447179     0.0002658    0.0040746
 		       0.0003306    0.0040785     0.9923169   -0.0463173     0.0062495   -0.0007398    -0.0001491    0.0002422
 		       0.9924791   -0.0455298     0.0003267    0.0041108    -0.0001666    0.0002449     0.0065856   -0.0007403
   0.020000000     0.0068643   -0.0023170    -0.0000633    0.0004337     0.0008793    0.0080939     0.9884394   -0.0884828 
 		      -0.0000795    0.0004631     0.0073914   -0.0026803     0.9880185   -0.0882013     0.0008440    0.0080979
 		       0.0008777    0.0080955     0.9882837   -0.0894686     0.0064506   -0.0020277    -0.0000744    0.0004418
 		       0.9887699   -0.0892164     0.0009097    0.0081413    -0.0000975    0.0004634     0.0065292   -0.0009171
   0.030000000     0.0071045   -0.0043078    -0.0000013    0.0006528     0.0017800    0.0120664     0.9830301   -0.1315587 
 		      -0.0000376    0.0006462     0.0073531   -0.0036996     0.9822958   -0.1322506     0.0017092    0.0120479
 		       0.0017944    0.0120769     0.9828156   -0.1333173     0.0071396   -0.0040600    -0.0000136    0.0006541
 		       0.9820896   -0.1320596     0.0018299    0.0121284    -0.0000163    0.0006525     0.0061172   -0.0033092
   0.040000000     0.0071631   -0.0056279     0.0000594    0.0008454     0.0030193    0.0159369     0.9752920   -0.1746741 
 		       0.0000560    0.0008392     0.0080276   -0.0056290     0.9746683   -0.1744198     0.0029690    0.0158879
 		       0.0030477    0.0159367     0.9747869   -0.1757509     0.0079747   -0.0068913     0.0000690    0.0008614
 		       0.9756913   -0.1753100     0.0031044    0.0160196     0.0000590    0.0008712     0.0055062   -0.0057621
   0.050000000     0.0073321   -0.0075218     0.0001339    0.0011010     0.0046136    0.0196797     0.9652960   -0.2170259 
 		       0.0001515    0.0010887     0.0078061   -0.0074601     0.9649211   -0.2174501     0.0045615    0.0196263
 		       0.0046262    0.0196847     0.9652885   -0.2179357     0.0073717   -0.0087339     0.0001901    0.0010828
 		       0.9655520   -0.2176627     0.0047147    0.0197588     0.0001755    0.0011040     0.0065295   -0.0071852
   0.060000000     0.0076775   -0.0100132     0.0003434    0.0013329     0.0065025    0.0233191     0.9545472   -0.2586409 
 		       0.0003468    0.0013487     0.0079300   -0.0099508     0.9543284   -0.2588894     0.0064452    0.0232405
 		       0.0065354    0.0232755     0.9541939   -0.2599964     0.0076376   -0.0114551     0.0003484    0.0012902
 		       0.9546798   -0.2590963     0.0066661    0.0233808     0.0003555    0.0013067     0.0068784   -0.0098303
   0.070000000     0.0069885   -0.0122238     0.0006121    0.0014645     0.0087269    0.0268134     0.9418663   -0.3000798 
 		       0.0006022    0.0015031     0.0072785   -0.0126109     0.9410398   -0.3000690     0.0088515    0.0268197
 		       0.0087658    0.0268241     0.9415048   -0.3006886     0.0070006   -0.0131693     0.0005715    0.0014657
 		       0.9419079   -0.3008249     0.0090342    0.0265917     0.0006105    0.0014525     0.0072194   -0.0127786
   0.080000000     0.0060463   -0.0137087     0.0008023    0.0015918     0.0112170    0.0302031     0.9268955   -0.3404367 
 		       0.0008236    0.0015736     0.0059686   -0.0148030     0.9266593   -0.3406101     0.0109695    0.0302372
 		       0.0112671    0.0301714     0.9262224   -0.3419133     0.0042444   -0.0143314     0.0007891    0.0016257
 		       0.9273677   -0.3408980     0.0112806    0.0301186     0.0007817    0.0015998     0.0076497   -0.0147353
   0.090000000     0.0045406   -0.0157255     0.0010375    0.0016731     0.0140309    0.0331622     0.9106144   -0.3800001 
 		       0.0010479    0.0016580     0.0058435   -0.0166396     0.9102781   -0.3804448     0.0141222    0.0330719
 		       0.0141650    0.0331712     0.9097040   -0.3819258     0.0053369   -0.0159856     0.0010228    0.0016948
 		       0.9109823   -0.3802689     0.0143126    0.0328923     0.0009965    0.0017273     0.0053528   -0.0167514
   0.100000000     0.0040904   -0.0166757     0.0012766    0.0017882     0.0170275    0.0360805     0.8924652   -0.4196336 
 		       0.0011791    0.0017879     0.0043748   -0.0183310     0.8924118   -0.4189897     0.0166041    0.0361719
 		       0.0171286    0.0359786     0.8917589   -0.4202905     0.0035053   -0.0178332     0.0013475    0.0018187
 		       0.8927560   -0.4194166     0.0169388    0.0359852     0.0012959    0.0018554     0.0048122   -0.0181971
   0.110000000     0.0032678   -0.0189434     0.0015959    0.0019428     0.0203976    0.0384942     0.8727452   -0.4567435 
 		       0.0015258    0.0019262     0.0042544   -0.0200480     0.8721698   -0.4571495     0.0205224    0.0383811
 		       0.0205055    0.0384734     0.8718519   -0.4577648     0.0031585   -0.0189834     0.0015981    0.0018757
 		       0.8727184   -0.4577554     0.0206857    0.0381983     0.0016655    0.0019189     0.0037176   -0.0190338
   0.120000000     0.0018978   -0.0206544     0.0019931    0.0019609     0.0239134    0.0408872     0.8519446   -0.4938150 
 		       0.0019377    0.0019985     0.0034022   -0.0225528     0.8509027   -0.4937257     0.0240850    0.0406821
 		       0.0239947    0.0407839     0.8508863   -0.4951623     0.0013535   -0.0216087     0.0019359    0.0018995
 		       0.8514788   -0.4946210     0.0242570    0.0405101     0.0020072    0.0018595     0.0028884   -0.0196887
   0.130000000     0.0000583   -0.0229233     0.0023961    0.0018438     0.0276500    0.0429060     0.8290246   -0.5296998 
 		       0.0023883    0.0019102     0.0009296   -0.0250325     0.8283264   -0.5304024     0.0277919    0.0427236
 		       0.0277584    0.0428476     0.8279778   -0.5314019    -0.0011313   -0.0236457     0.0023058    0.0018401
 		       0.8289453   -0.5308718     0.0280079    0.0425214     0.0023313    0.0018113     0.0021696   -0.0224199
   0.140000000    -0.0019459   -0.0243011     0.0027196    0.0016636     0.0316430    0.0445448     0.8045298   -0.5656505 
 		       0.0027588    0.0016859    -0.0009939   -0.0264551     0.8032274   -0.5653929     0.0317844    0.0443287
 		       0.0316239    0.0444562     0.8034549   -0.5658753    -0.0029010   -0.0244454     0.0026458    0.0017120
 		       0.8039743   -0.5660974     0.0319590    0.0441263     0.0026169    0.0016799     0.0001125   -0.0252298
   0.150000000    -0.0042514   -0.0255685     0.0029343    0.0014875     0.0355489    0.0459541     0.7785344   -0.5991327 
 		       0.0030108    0.0014978    -0.0024837   -0.0281962     0.7777122   -0.5988643     0.0357051    0.0458674
 		       0.0356529    0.0458728     0.7777362   -0.5997539    -0.0042723   -0.0253862     0.0029276    0.0016597
 		       0.7773666   -0.5993851     0.0359720    0.0453712     0.0028344    0.0016640    -0.0015984   -0.0275850
   0.160000000    -0.0057466   -0.0262281     0.0031336    0.0013568     0.0397224    0.0471423     0.7515249   -0.6312481 
 		       0.0031346    0.0013160    -0.0041368   -0.0284257     0.7512576   -0.6310611     0.0399769    0.0468463
 		       0.0398398    0.0470195     0.7502682   -0.6327355    -0.0052374   -0.0263671     0.0031889    0.0014814
 		       0.7508131   -0.6321241     0.0401903    0.0465738     0.0032010    0.0015872    -0.0046263   -0.0295495
   0.170000000    -0.0071240   -0.0268307     0.0034100    0.0014020     0.0440068    0.0477459     0.7229918   -0.6633261 
 		       0.0034690    0.0013053    -0.0052652   -0.0291320     0.7222829   -0.6625826     0.0442839    0.0475064
 		       0.0440865    0.0477955     0.7208496   -0.6635488    -0.0067376   -0.0271868     0.0034487    0.0013399
 		       0.7223739   -0.6629620     0.0445156    0.0472921     0.0034810    0.0014212    -0.0065592   -0.0293588
   0.180000000    -0.0087527   -0.0278451     0.0037395    0.0011495     0.0484266    0.0483486     0.6928763   -0.6926090 
 		       0.0038668    0.0010804    -0.0065522   -0.0302561     0.6927109   -0.6928448     0.0486733    0.0478794
 		       0.0484196    0.0482396     0.6913704   -0.6933410    -0.0088446   -0.0287863     0.0038155    0.0010968
 		       0.6932629   -0.6932539     0.0489075    0.0475947     0.0037771    0.0009689    -0.0080944   -0.0296312
   0.190000000    -0.0111002   -0.0286611     0.0041902    0.0008070     0.0528074    0.0483733     0.6621639   -0.7214994 
 		       0.0040992    0.0007674    -0.0088353   -0.0319434     0.6614797   -0.7211115     0.0530765    0.0480122
 		       0.0528057    0.0482259     0.6604322   -0.7219488    -0.0116485   -0.0295350     0.0040807    0.0007388
 		       0.6615787   -0.7219340     0.0532367    0.0476040     0.0040172    0.0006568    -0.0090294   -0.0306916
   0.200000000    -0.0134525   -0.0289588     0.0042803    0.0003925     0.0571046    0.0484203     0.6304695   -0.7484012 
 		       0.0044881    0.0004575    -0.0108943   -0.0327252     0.6289650   -0.7489181     0.0568891    0.0486312
 		       0.0572783    0.0482063     0.6289760   -0.7496527    -0.0134679   -0.0299208     0.0040376    0.0003685
 		       0.6294757   -0.7488445     0.0573422    0.0480266     0.0042681    0.0004786    -0.0104731   -0.0305275
   0.210000000    -0.0151809   -0.0282931     0.0044638   -0.0001224     0.0616041    0.0475490     0.5969749   -0.7747524 
 		       0.0043706   -0.0001061    -0.0130676   -0.0323888     0.5954818   -0.7744797     0.0619413    0.0469811
 		       0.0616948    0.0473594     0.5943733   -0.7765615    -0.0160407   -0.0301990     0.0043418   -0.0000070
 		       0.5963799   -0.7746104     0.0622643    0.0466563     0.0043675    0.0000956    -0.0120747   -0.0319426
   0.220000000    -0.0168741   -0.0276401     0.0043987   -0.0005119     0.0660943    0.0466561     0.5626452   -0.7987213 
 		       0.0044138   -0.0004501    -0.0150010   -0.0316105     0.5612421   -0.7986507     0.0663717    0.0460193
 		       0.0660953    0.0464605     0.5596889   -0.8005852    -0.0180870   -0.0287099     0.0044439   -0.0003559
 		       0.5623856   -0.7988744     0.0666480    0.0455235     0.0045050   -0.0002429    -0.0141897   -0.0334401
   0.230000000    -0.0182253   -0.0275766     0.0044512   -0.0007306     0.0703670    0.0453308     0.5273915   -0.8212120 
 		       0.0044232   -0.0006843    -0.0162797   -0.0313555     0.5263452   -0.8211911     0.0707321    0.0446879
 		       0.0704491    0.0451415     0.5240841   -0.8234513    -0.0184670   -0.0279737     0.0045404   -0.0006398
 		       0.5276200   -0.8210535     0.0709428    0.0441700     0.0046029   -0.0006458    -0.0167741   -0.0336428
   0.240000000    -0.0199768   -0.0269898     0.0045992   -0.0008618     0.0746599    0.0438100     0.4911385   -0.8428668 
 		       0.0045612   -0.0009953    -0.0174104   -0.0313990     0.4903198   -0.8425019     0.0750273    0.0430957
 		       0.0747855    0.0436257     0.4874745   -0.8444940    -0.0194721   -0.0273234     0.0046783   -0.0010445
 		       0.4918289   -0.8423069     0.0752558    0.0425340     0.0047052   -0.0010524    -0.0183439   -0.0323156
   0.250000000    -0.0220394   -0.0266456     0.0048123   -0.0013195     0.0788516    0.0417827     0.4546238   -0.8622357 
 		       0.0047386   -0.0013643    -0.0190547   -0.0323790     0.4533471   -0.8616237     0.0793095    0.0410317
 		       0.0791040    0.0416296     0.4505593   -0.8640274    -0.0221058   -0.0272763     0.0047414   -0.0013937
 		       0.4549942   -0.8623424     0.0795263    0.0404198     0.0047817   -0.0014625    -0.0188348   -0.0314371
   0.260000000    -0.0240486   -0.0254680     0.0048813   -0.0019125     0.0828721    0.0396293     0.4167046   -0.8803670 
 		       0.0048371   -0.0019896    -0.0215724   -0.0323189     0.4158424   -0.8796210     0.0833348    0.0387684
 		       0.0831001    0.0395089     0.4134235   -0.8815206    -0.0249208   -0.0268855     0.0047595   -0.0019743
 		       0.4165446   -0.8808562     0.0834086    0.0381698     0.0047110   -0.0020133    -0.0201578   -0.0299426
   0.270000000    -0.0257952   -0.0242532     0.0047514   -0.0026039     0.0868188    0.0369936     0.3786997   -0.8967327 
 		       0.0046883   -0.0025741    -0.0239252   -0.0317560     0.3772322   -0.8962348     0.0872189    0.0361859
 		       0.0869712    0.0368500     0.3754065   -0.8981348    -0.0277994   -0.0256748     0.0046864   -0.0024033
 		       0.3780105   -0.8970718     0.0873279    0.0355071     0.0046373   -0.0023995    -0.0217145   -0.0302764
   0.280000000    -0.0278448   -0.0225696     0.0044009   -0.0031333     0.0905824    0.0342891     0.3393961   -0.9114146 
 		       0.0043687   -0.0030816    -0.0267221   -0.0298318     0.3381709   -0.9108765     0.0909161    0.0332075
 		       0.0907741    0.0340297     0.3357897   -0.9121233    -0.0296429   -0.0238000     0.0044736   -0.0029038
 		       0.3386377   -0.9116566     0.0911068    0.0326256     0.0044496   -0.0028076    -0.0240689   -0.0310399
   0.290000000    -0.0286317   -0.0210462     0.0040696   -0.0034269     0.0942079    0.0311510     0.3003882   -0.9243180 
 		       0.0040468   -0.0033064    -0.0275690   -0.0287614     0.2988884   -0.9239488     0.0945237    0.0301310
 		       0.0942246    0.0309741     0.2971668   -0.9249193    -0.0300280   -0.0218029     0.0042713   -0.0032728
 		       0.2995501   -0.9239792     0.0945844    0.0294294     0.0043641   -0.0032184    -0.0267076   -0.0310588
   0.300000000    -0.0297192   -0.0208373     0.0040626   -0.0035426     0.0974559    0.0279826     0.2608033   -0.9358987 
 		       0.0048641   -0.0040271    -0.0278734   -0.0293398     0.2585501   -0.9353557     0.0970814    0.0269934
 		       0.0974548    0.0274285     0.2564068   -0.9360647    -0.0300316   -0.0216446     0.0043070   -0.0032775
 		       0.2614535   -0.9365109     0.0973241    0.0268331     0.0035467   -0.0041359    -0.0265124   -0.0297662
   0.310000000    -0.0307276   -0.0187821     0.0037913   -0.0038716     0.1007658    0.0241837     0.2199658   -0.9458809 
 		       0.0037813   -0.0039028    -0.0287890   -0.0284973     0.2182551   -0.9448671     0.1009816    0.0228646
 		       0.1008590    0.0238783     0.2163506   -0.9459269    -0.0307837   -0.0209525     0.0038274   -0.0038892
 		       0.2194009   -0.9459505     0.1010034    0.0222717     0.0038319   -0.0039830    -0.0295768   -0.0276705
   0.320000000    -0.0306277   -0.0189409     0.0037703   -0.0041519     0.1036560    0.0202131     0.1788181   -0.9534422 
 		       0.0037558   -0.0042712    -0.0295270   -0.0286818     0.1779458   -0.9528100     0.1037604    0.0189732
 		       0.1036962    0.0199233     0.1754892   -0.9531838    -0.0310312   -0.0199780     0.0036871   -0.0042153
 		       0.1783079   -0.9540959     0.1037783    0.0182709     0.0035452   -0.0042874    -0.0294687   -0.0273849
   0.330000000    -0.0316208   -0.0173350     0.0034677   -0.0047673     0.1062861    0.0162338     0.1383034   -0.9598438 
 		       0.0033678   -0.0047832    -0.0312075   -0.0283371     0.1380435   -0.9591823     0.1063365    0.0148333
 		       0.1063135    0.0158997     0.1346946   -0.9592923    -0.0322043   -0.0177069     0.0033031   -0.0046905
 		       0.1369360   -0.9596242     0.1064067    0.0141381     0.0031831   -0.0046750    -0.0297368   -0.0272769
   0.340000000    -0.0311555   -0.0147032     0.0028817   -0.0050432     0.1086492    0.0119420     0.0967382   -0.9637083 
 		       0.0028031   -0.0049756    -0.0315381   -0.0264126     0.0959800   -0.9637533     0.1086522    0.0104339
 		       0.1086296    0.0116606     0.0937818   -0.9637244    -0.0321637   -0.0155838     0.0028364   -0.0048326
 		       0.0962181   -0.9641200     0.1087118    0.0097454     0.0027500   -0.0048221    -0.0290722   -0.0266635
   0.350000000    -0.0308254   -0.0128774     0.0022242   -0.0052202     0.1106653    0.0075063     0.0555023   -0.9663861 
 		       0.0022868   -0.0051931    -0.0321119   -0.0247485     0.0543847   -0.9658740     0.1106616    0.0058538
 		       0.1108469    0.0072193     0.0520613   -0.9659854    -0.0323972   -0.0124346     0.0024193   -0.0050310
 		       0.0551816   -0.9669126     0.1107466    0.0051964     0.0023927   -0.0049813    -0.0291628   -0.0268863
   0.360000000    -0.0302934   -0.0104952     0.0016408   -0.0052421     0.1124836    0.0028640     0.0150249   -0.9672331 
 		       0.0018134   -0.0052005    -0.0313776   -0.0230684     0.0136734   -0.9666448     0.1124320    0.0013480
 		       0.1124746    0.0026258     0.0115768   -0.9664657    -0.0314568   -0.0096532     0.0018665   -0.0051647
 		       0.0139672   -0.9671535     0.1124146    0.0005769     0.0019339   -0.0050615    -0.0310649   -0.0246992
   0.370000000    -0.0291488   -0.0085691     0.0012687   -0.0050526     0.1139010   -0.0017610    -0.0260443   -0.9664642 
 		       0.0014700   -0.0051241    -0.0306067   -0.0216985    -0.0269944   -0.9658669     0.1138508   -0.0033368
 		       0.1140454   -0.0020060    -0.0298392   -0.9657087    -0.0308230   -0.0081723     0.0015166   -0.0051470
 		      -0.0268610   -0.9663095     0.1137329   -0.0042316     0.0016428   -0.0052081    -0.0311786   -0.0225970
   0.380000000    -0.0301322   -0.0072859     0.0010630   -0.0052339     0.1151306   -0.0065947    -0.0669116   -0.9642262 
 		       0.0011745   -0.0054273    -0.0316306   -0.0210301    -0.0681681   -0.9628802     0.1149322   -0.0083508
 		       0.1151608   -0.0068290    -0.0704910   -0.9634869    -0.0310363   -0.0074918     0.0012101   -0.0054012
 		      -0.0675416   -0.9644889     0.1148629   -0.0090335     0.0011793   -0.0054898    -0.0314363   -0.0197148
   0.390000000    -0.0300045   -0.0051382     0.0008571   -0.0054830     0.1160431   -0.0116560    -0.1079786   -0.9600986 
 		       0.0007567   -0.0057272    -0.0317862   -0.0200439    -0.1092855   -0.9588380     0.1156898   -0.0132702
 		       0.1159585   -0.0118967    -0.1119246   -0.9588329    -0.0314294   -0.0063460     0.0007307   -0.0055691
 		      -0.1092073   -0.9601638     0.1155533   -0.0141629     0.0006793   -0.0056747    -0.0309567   -0.0181523
   0.400000000    -0.0301628   -0.0039667     0.0004205   -0.0058117     0.1165480   -0.0165046    -0.1485008   -0.9540734 
 		       0.0001054   -0.0058797    -0.0322410   -0.0189181    -0.1498938   -0.9533301     0.1160530   -0.0182632
 		       0.1164097   -0.0168770    -0.1527161   -0.9527251    -0.0319124   -0.0047067     0.0002621   -0.0058529
 		      -0.1505065   -0.9530589     0.1159981   -0.0192076     0.0001680   -0.0057236    -0.0309379   -0.0182420
   0.410000000    -0.0295290   -0.0026985    -0.0002824   -0.0060320     0.1166138   -0.0215924    -0.1892519   -0.9464736 
 		      -0.0003343   -0.0059594    -0.0332715   -0.0175087    -0.1904795   -0.9453732     0.1162054   -0.0234860
 		       0.1166563   -0.0218359    -0.1930220   -0.9453114    -0.0310319   -0.0031521    -0.0002725   -0.0057307
 		      -0.1906547   -0.9456041     0.1159849   -0.0241828    -0.0003612   -0.0056580    -0.0310787   -0.0174201
   0.420000000    -0.0277986   -0.0010204    -0.0010443   -0.0058530     0.1165138   -0.0266195    -0.2290475   -0.9369013 
