! 2/21/2025 7:07:05 AM
! Z:\OQC\AD5\613\LOT-141-0825\SINGLE\1-L20-8.S2P
! CHANNEL.1
! TR.MEASUREMENT
! CORRECTED.DATA
! RF.CORRECTION: FULL.FOUR.PORT.CAL.PORT.1.2.3.4
! AVERAGING.OFF
! IF.BANDWIDTH: 1KHZ
! SWEEPTYPE:  FREQ.SWEEP(Linear)
! Reference Plane Port Info
! PORT:              PORT1              PORT2             
! DISTANCE:          0  m               0  m              
! TIME:              0  s               0  s              
! PHASE.OFFSET:      0 °                0 °               
! LOSS:              0  dB              0  dB             
! REF.LOSS:          0  dB              0  dB             
! REF.FREQ:          0  Hz              0  Hz             
! Power Info
! POWER:             -10  dBm           -10  dBm          
! EFF.POWER:         -10  dBm           -10  dBm          
! SOURCE.ATTEN:      0  dB              0  dB             
! TEST.ATTEN:        0  dB              0  dB             
# GHZ S RI R 50.0
! FREQ.GHZ         S11RE         S11IM         S21RE         S21IM         S12RE         S12IM         S22RE         S22IM         
!; PortSelection: Port_12
   0.010000000     0.0174050   -0.0142302     0.9768274   -0.0871488     0.9762912   -0.0871331     0.0177385   -0.0140236 
   0.020000000     0.0169366   -0.0327746     0.9628408   -0.1731673     0.9626696   -0.1736435     0.0172941   -0.0325085 
   0.030000000     0.0104841   -0.0513207     0.9400766   -0.2563218     0.9405812   -0.2564165     0.0109963   -0.0510122 
   0.040000000     0.0014916   -0.0663616     0.9113495   -0.3366347     0.9117309   -0.3365439     0.0018346   -0.0661936 
   0.050000000    -0.0081045   -0.0810937     0.8751506   -0.4121493     0.8756748   -0.4127139    -0.0076558   -0.0806256 
   0.060000000    -0.0209472   -0.0955701     0.8338957   -0.4849200     0.8339712   -0.4847684    -0.0202702   -0.0951451 
   0.070000000    -0.0376611   -0.1071385     0.7852510   -0.5522717     0.7853712   -0.5526552    -0.0366743   -0.1066463 
   0.080000000    -0.0550484   -0.1145793     0.7329882   -0.6150885     0.7329506   -0.6149524    -0.0540591   -0.1141418 
   0.090000000    -0.0721242   -0.1197205     0.6747240   -0.6715918     0.6750978   -0.6721660    -0.0710595   -0.1190701 
   0.100000000    -0.0905293   -0.1232108     0.6124626   -0.7225099     0.6125723   -0.7226111    -0.0895092   -0.1224169 
   0.110000000    -0.1110734   -0.1231367     0.5468451   -0.7683902     0.5475400   -0.7681640    -0.1096319   -0.1224467 
   0.120000000    -0.1299871   -0.1181867     0.4797518   -0.8081040     0.4791430   -0.8082191    -0.1288882   -0.1175891 
   0.130000000    -0.1464942   -0.1122088     0.4083265   -0.8409371     0.4085585   -0.8410026    -0.1449207   -0.1120345 
   0.140000000    -0.1628516   -0.1046260     0.3365654   -0.8689569     0.3370776   -0.8690611    -0.1613540   -0.1053601 
   0.150000000    -0.1787203   -0.0932102     0.2616053   -0.8893638     0.2618160   -0.8883315    -0.1776162   -0.0939715 
   0.160000000    -0.1916189   -0.0785984     0.1873626   -0.9031397     0.1884883   -0.9028534    -0.1901381   -0.0793973 
   0.170000000    -0.2011057   -0.0632063     0.1154278   -0.9120107     0.1141239   -0.9123988    -0.2001921   -0.0644875 
   0.180000000    -0.2085267   -0.0477176     0.0401929   -0.9157834     0.0405716   -0.9159475    -0.2078339   -0.0490202 
   0.190000000    -0.2154212   -0.0312517    -0.0344492   -0.9128940    -0.0345482   -0.9130988    -0.2144670   -0.0325206 
   0.200000000    -0.2191207   -0.0124051    -0.1078968   -0.9044629    -0.1079438   -0.9046761    -0.2185370   -0.0147803 
   0.210000000    -0.2179716    0.0055893    -0.1785597   -0.8910333    -0.1784905   -0.8906206    -0.2183454    0.0028526 
   0.220000000    -0.2151814    0.0210919    -0.2489259   -0.8710943    -0.2501206   -0.8715969    -0.2157058    0.0195255 
   0.230000000    -0.2119199    0.0380840    -0.3173293   -0.8460940    -0.3190180   -0.8459733    -0.2117350    0.0357811 
   0.240000000    -0.2039617    0.0556503    -0.3839580   -0.8174262    -0.3835746   -0.8170456    -0.2042829    0.0522955 
   0.250000000    -0.1924242    0.0689864    -0.4478725   -0.7827375    -0.4465989   -0.7823274    -0.1942523    0.0659274 
   0.260000000    -0.1815075    0.0798378    -0.5074738   -0.7443324    -0.5089112   -0.7438592    -0.1836043    0.0782561 
   0.270000000    -0.1702892    0.0914696    -0.5651969   -0.7003973    -0.5676555   -0.6997899    -0.1715933    0.0883610 
   0.280000000    -0.1549167    0.1009953    -0.6190949   -0.6526186    -0.6210228   -0.6521593    -0.1578145    0.0970891 
   0.290000000    -0.1378767    0.1059729    -0.6709132   -0.6004902    -0.6717144   -0.5996271    -0.1422156    0.1032169 
   0.300000000    -0.1225771    0.1082204    -0.7168394   -0.5447847    -0.7171668   -0.5435504    -0.1262936    0.1068333 
   0.310000000    -0.1068606    0.1101251    -0.7595052   -0.4847549    -0.7596498   -0.4843144    -0.1102053    0.1069959 
   0.320000000    -0.0897729    0.1088707    -0.7966233   -0.4203455    -0.7973620   -0.4199729    -0.0946566    0.1055725 
   0.330000000    -0.0730123    0.1028183    -0.8287614   -0.3537067    -0.8285979   -0.3542905    -0.0798829    0.1011610 
   0.340000000    -0.0606372    0.0950068    -0.8557408   -0.2862139    -0.8566079   -0.2865850    -0.0661248    0.0938939 
   0.350000000    -0.0475365    0.0882420    -0.8761551   -0.2138594    -0.8765549   -0.2124061    -0.0539438    0.0862288 
   0.360000000    -0.0340237    0.0777352    -0.8917859   -0.1416977    -0.8922099   -0.1418036    -0.0427990    0.0760567 
   0.370000000    -0.0250545    0.0629697    -0.9009435   -0.0669000    -0.9010978   -0.0671020    -0.0335306    0.0638983 
   0.380000000    -0.0193177    0.0494977    -0.9035861    0.0068326    -0.9030729    0.0091015    -0.0268615    0.0502378 
   0.390000000    -0.0143977    0.0342078    -0.8999323    0.0832892    -0.9000196    0.0826900    -0.0224784    0.0346515 
   0.400000000    -0.0126451    0.0176872    -0.8890229    0.1564319    -0.8885102    0.1576309    -0.0223900    0.0193537 
   0.410000000    -0.0133712    0.0032228    -0.8715806    0.2307024    -0.8722637    0.2322953    -0.0231253    0.0067439 
   0.420000000    -0.0151369   -0.0115300    -0.8492701    0.3016761    -0.8490265    0.3017497    -0.0247266   -0.0074623 
   0.430000000    -0.0209451   -0.0269431    -0.8194799    0.3715870    -0.8200746    0.3720689    -0.0305967   -0.0225524 
   0.440000000    -0.0299353   -0.0389733    -0.7843062    0.4376053    -0.7842647    0.4391001    -0.0397767   -0.0336243 
   0.450000000    -0.0392984   -0.0507527    -0.7438635    0.5011784    -0.7436893    0.5017978    -0.0493257   -0.0438163 
   0.460000000    -0.0523690   -0.0619053    -0.6976496    0.5615647    -0.6975710    0.5624315    -0.0616395   -0.0536130 
   0.470000000    -0.0673929   -0.0699597    -0.6495066    0.6146123    -0.6477526    0.6150598    -0.0763020   -0.0609079 
   0.480000000    -0.0816071   -0.0737779    -0.5937089    0.6670412    -0.5937256    0.6653986    -0.0903863   -0.0638853 
   0.490000000    -0.0946442   -0.0771473    -0.5361183    0.7097120    -0.5328696    0.7114221    -0.1037600   -0.0664427 
   0.500000000    -0.1096262   -0.0792532    -0.4725874    0.7501986    -0.4731560    0.7503831    -0.1169390   -0.0663951 
   0.510000000    -0.1274895   -0.0776570    -0.4088015    0.7845772    -0.4086161    0.7834352    -0.1323185   -0.0653939 
   0.520000000    -0.1426605   -0.0709404    -0.3437422    0.8119863    -0.3410331    0.8118646    -0.1482896   -0.0598216 
   0.530000000    -0.1555117   -0.0641099    -0.2736278    0.8354633    -0.2742284    0.8345016    -0.1608743   -0.0495038 
   0.540000000    -0.1687027   -0.0577877    -0.2062663    0.8528411    -0.2033902    0.8534734    -0.1704735   -0.0412824 
   0.550000000    -0.1812133   -0.0455033    -0.1345120    0.8640128    -0.1346194    0.8634949    -0.1810042   -0.0318951 
   0.560000000    -0.1880988   -0.0322133    -0.0636813    0.8691809    -0.0639912    0.8711392    -0.1900894   -0.0182831 
   0.570000000    -0.1932646   -0.0217076     0.0048120    0.8685864     0.0052870    0.8698830    -0.1945657   -0.0042264 
   0.580000000    -0.2040207   -0.0082149     0.0747299    0.8647291     0.0746479    0.8656103    -0.1987925    0.0087910 
   0.590000000    -0.2066632    0.0122263     0.1438714    0.8536336     0.1444533    0.8514501    -0.2027422    0.0242009 
   0.600000000    -0.2045874    0.0269469     0.2115915    0.8382633     0.2097518    0.8374330    -0.2028711    0.0422805 
   0.610000000    -0.2040080    0.0385055     0.2760972    0.8172016     0.2784832    0.8177084    -0.1971982    0.0574848 
   0.620000000    -0.2025648    0.0536675     0.3413142    0.7909012     0.3409739    0.7907487    -0.1906968    0.0679216 
   0.630000000    -0.1942798    0.0687543     0.4025749    0.7596362     0.4018069    0.7617365    -0.1857831    0.0786171 
   0.640000000    -0.1847547    0.0799147     0.4617605    0.7247710     0.4622223    0.7267671    -0.1790221    0.0945064 
   0.650000000    -0.1774258    0.0895741     0.5164747    0.6864379     0.5177220    0.6867374    -0.1649010    0.1065230 
   0.660000000    -0.1689381    0.1030473     0.5689517    0.6427728     0.5717481    0.6414050    -0.1527375    0.1130511 
   0.670000000    -0.1539760    0.1119641     0.6201441    0.5956087     0.6184633    0.5946162    -0.1418995    0.1205330 
   0.680000000    -0.1388162    0.1135423     0.6651245    0.5432125     0.6654462    0.5445879    -0.1278348    0.1271502 
   0.690000000    -0.1282003    0.1139730     0.7055550    0.4900724     0.7087339    0.4900742    -0.1104960    0.1281086 
   0.700000000    -0.1157017    0.1196531     0.7454439    0.4307146     0.7453657    0.4300195    -0.0965039    0.1243773 
   0.710000000    -0.0974153    0.1203120     0.7771333    0.3691311     0.7787848    0.3700074    -0.0857869    0.1226629 
   0.720000000    -0.0844991    0.1143942     0.8060231    0.3041041     0.8044298    0.3054903    -0.0714502    0.1224896 
   0.730000000    -0.0743039    0.1111882     0.8291267    0.2387515     0.8281499    0.2386858    -0.0541208    0.1176442 
   0.740000000    -0.0603930    0.1055427     0.8457510    0.1707358     0.8449088    0.1687776    -0.0405043    0.1062684 
   0.750000000    -0.0488537    0.0932509     0.8569958    0.0997245     0.8565686    0.1016467    -0.0343523    0.0927884 
   0.760000000    -0.0431563    0.0817167     0.8633397    0.0283881     0.8639213    0.0298299    -0.0284114    0.0841994 
   0.770000000    -0.0364476    0.0722407     0.8623624   -0.0421461     0.8621087   -0.0438909    -0.0178071    0.0716168 
   0.780000000    -0.0299455    0.0604268     0.8579275   -0.1113609     0.8570991   -0.1130757    -0.0137312    0.0549919 
   0.790000000    -0.0277274    0.0461174     0.8445621   -0.1830838     0.8442470   -0.1840622    -0.0137470    0.0416513 
   0.800000000    -0.0290932    0.0335662     0.8261324   -0.2508678     0.8259242   -0.2517973    -0.0110234    0.0305566 
   0.810000000    -0.0303650    0.0194190     0.8020019   -0.3194874     0.8011815   -0.3218949    -0.0124315    0.0126496 
   0.820000000    -0.0355431    0.0036640     0.7719114   -0.3835908     0.7715229   -0.3842154    -0.0203737   -0.0052747 
   0.830000000    -0.0446754   -0.0064399     0.7394919   -0.4479679     0.7370734   -0.4485262    -0.0327281   -0.0151515 
   0.840000000    -0.0515600   -0.0134666     0.6955889   -0.5076388     0.6958207   -0.5070924    -0.0386545   -0.0224377 
   0.850000000    -0.0587557   -0.0225870     0.6511067   -0.5604609     0.6513042   -0.5607122    -0.0452641   -0.0338387 
   0.860000000    -0.0727946   -0.0333882     0.6007302   -0.6131898     0.6002823   -0.6149043    -0.0598634   -0.0467569 
   0.870000000    -0.0886311   -0.0349703     0.5468569   -0.6587352     0.5464619   -0.6589545    -0.0768721   -0.0500322 
   0.880000000    -0.0992660   -0.0353153     0.4901337   -0.7013044     0.4884013   -0.7010845    -0.0895847   -0.0505451 
   0.890000000    -0.1117978   -0.0407882     0.4307318   -0.7378734     0.4280362   -0.7369205    -0.1028000   -0.0536212 
   0.900000000    -0.1302844   -0.0387482     0.3669634   -0.7677084     0.3673456   -0.7661548    -0.1217667   -0.0547087 
   0.910000000    -0.1425593   -0.0286966     0.3016147   -0.7934768     0.3036135   -0.7941317    -0.1377272   -0.0473065 
   0.920000000    -0.1494946   -0.0234385     0.2344405   -0.8130198     0.2355046   -0.8129880    -0.1467451   -0.0411002 
   0.930000000    -0.1630369   -0.0208869     0.1677687   -0.8274367     0.1676636   -0.8288569    -0.1568229   -0.0371894 
   0.940000000    -0.1785003   -0.0084987     0.0996846   -0.8368314     0.0987410   -0.8348331    -0.1720756   -0.0304558 
   0.950000000    -0.1840157    0.0067918     0.0300320   -0.8394757     0.0328243   -0.8373061    -0.1852514   -0.0145069 
   0.960000000    -0.1877782    0.0181616    -0.0369470   -0.8377249    -0.0353526   -0.8373119    -0.1899277    0.0023650 
   0.970000000    -0.1941343    0.0293540    -0.1039520   -0.8303927    -0.1027557   -0.8297485    -0.1934960    0.0126637 
   0.980000000    -0.1989920    0.0464555    -0.1712231   -0.8155689    -0.1676569   -0.8184561    -0.2003800    0.0225822 
   0.990000000    -0.1958145    0.0625142    -0.2317165   -0.7971912    -0.2317619   -0.8011277    -0.2054705    0.0401433 
   1.000000000    -0.1932920    0.0733097    -0.2937053   -0.7766321    -0.2947418   -0.7759036    -0.2012673    0.0563193 
   1.010000000    -0.1948384    0.0869634    -0.3541602   -0.7490429    -0.3543072   -0.7494578    -0.1983245    0.0670420 
   1.020000000    -0.1878866    0.1066173    -0.4132145   -0.7185509    -0.4115326   -0.7170954    -0.1980357    0.0817904 
   1.030000000    -0.1749365    0.1172821    -0.4698524   -0.6799632    -0.4663939   -0.6832622    -0.1908081    0.1008594 
   1.040000000    -0.1656730    0.1245584    -0.5201299   -0.6414375    -0.5205354   -0.6433384    -0.1778333    0.1118237 
   1.050000000    -0.1590676    0.1359327    -0.5707836   -0.5976851    -0.5699184   -0.6000450    -0.1688299    0.1174329 
   1.060000000    -0.1431763    0.1475389    -0.6133901   -0.5499125    -0.6150047   -0.5532390    -0.1628279    0.1248539 
   1.070000000    -0.1276808    0.1499661    -0.6566373   -0.5005478    -0.6581692   -0.4999331    -0.1516821    0.1383289 
   1.080000000    -0.1174168    0.1537396    -0.6944089   -0.4468675    -0.6949195   -0.4455883    -0.1332389    0.1444163 
   1.090000000    -0.1022326    0.1592250    -0.7298058   -0.3893491    -0.7285774   -0.3887011    -0.1187604    0.1429892 
   1.100000000    -0.0831034    0.1584932    -0.7585262   -0.3294673    -0.7571598   -0.3304559    -0.1088761    0.1439325 
   1.110000000    -0.0686730    0.1513135    -0.7815407   -0.2676137    -0.7850771   -0.2700246    -0.0962935    0.1477376 
   1.120000000    -0.0587564    0.1478618    -0.8002948   -0.2045645    -0.8038568   -0.2046836    -0.0785854    0.1446637 
   1.130000000    -0.0449316    0.1460550    -0.8174106   -0.1398915    -0.8175880   -0.1378638    -0.0662689    0.1343911 
   1.140000000    -0.0286069    0.1359836    -0.8258203   -0.0715613    -0.8271344   -0.0739269    -0.0605272    0.1288654 
   1.150000000    -0.0199104    0.1217828    -0.8303578   -0.0045848    -0.8307748   -0.0059115    -0.0491445    0.1266848 
   1.160000000    -0.0136038    0.1126885    -0.8287740    0.0616025    -0.8289688    0.0608066    -0.0346273    0.1166646 
   1.170000000    -0.0049360    0.1012578    -0.8218604    0.1297066    -0.8215033    0.1297157    -0.0287185    0.1002274 
   1.180000000     0.0005242    0.0839978    -0.8086607    0.1972516    -0.8103708    0.1954806    -0.0295826    0.0875869 
   1.190000000    -0.0006258    0.0701054    -0.7893074    0.2628602    -0.7913686    0.2645535    -0.0268510    0.0809135 
   1.200000000     0.0011435    0.0590578    -0.7651879    0.3275623    -0.7660893    0.3261642    -0.0208484    0.0680722 
   1.210000000     0.0015276    0.0420876    -0.7364800    0.3905558    -0.7365404    0.3900763    -0.0217617    0.0510518 
   1.220000000    -0.0061596    0.0272051    -0.7010794    0.4498582    -0.7016655    0.4486993    -0.0287564    0.0409354 
   1.230000000    -0.0133526    0.0184680    -0.6617774    0.5061635    -0.6620106    0.5058247    -0.0325001    0.0339848 
   1.240000000    -0.0187738    0.0060615    -0.6178466    0.5579225    -0.6171495    0.5579063    -0.0367732    0.0221936 
   1.250000000    -0.0311929   -0.0073128    -0.5683635    0.6069444    -0.5686907    0.6061561    -0.0489544    0.0108953 
   1.260000000    -0.0461404   -0.0123209    -0.5165458    0.6515009    -0.5160297    0.6505512    -0.0617328    0.0072674 
   1.270000000    -0.0550400   -0.0156420    -0.4594579    0.6897681    -0.4606456    0.6894535    -0.0689530    0.0036799 
   1.280000000    -0.0655089   -0.0238462    -0.4013537    0.7256719    -0.4017125    0.7240671    -0.0777260   -0.0033145 
   1.290000000    -0.0842448   -0.0272726    -0.3368265    0.7546999    -0.3395103    0.7532651    -0.0929255   -0.0067577 
   1.300000000    -0.1003414   -0.0208076    -0.2757324    0.7774051    -0.2752783    0.7767968    -0.1075979   -0.0018690 
   1.310000000    -0.1084515   -0.0155565    -0.2099112    0.7966863    -0.2117555    0.7965262    -0.1157265    0.0045981 
   1.320000000    -0.1202222   -0.0167846    -0.1433851    0.8086384    -0.1453746    0.8097250    -0.1239808    0.0054673 
   1.330000000    -0.1388458   -0.0103233    -0.0764355    0.8165302    -0.0778178    0.8159745    -0.1383601    0.0079431 
   1.340000000    -0.1494115    0.0050541    -0.0111127    0.8164636    -0.0113534    0.8174720    -0.1515977    0.0194265 
   1.350000000    -0.1510409    0.0142071     0.0553407    0.8145443     0.0536350    0.8144392    -0.1545364    0.0326536 
   1.360000000    -0.1597836    0.0194924     0.1206685    0.8053890     0.1210780    0.8054655    -0.1568627    0.0390638 
   1.370000000    -0.1710210    0.0359499     0.1869409    0.7912458     0.1829078    0.7910333    -0.1651707    0.0486560 
   1.380000000    -0.1703241    0.0549434     0.2484758    0.7695962     0.2479672    0.7728322    -0.1710395    0.0649957 
   1.390000000    -0.1674630    0.0648226     0.3077664    0.7488512     0.3071970    0.7484483    -0.1683418    0.0789352 
   1.400000000    -0.1717764    0.0743132     0.3661974    0.7190371     0.3650346    0.7215476    -0.1659523    0.0873614 
   1.410000000    -0.1717151    0.0930496     0.4226084    0.6890271     0.4197585    0.6882015    -0.1653674    0.0975630 
   1.420000000    -0.1604466    0.1064167     0.4755766    0.6497461     0.4739699    0.6522902    -0.1616580    0.1120740 
   1.430000000    -0.1526684    0.1140367     0.5250633    0.6106344     0.5243331    0.6104465    -0.1511684    0.1241824 
   1.440000000    -0.1480799    0.1251774     0.5716891    0.5656046     0.5694470    0.5671865    -0.1426853    0.1310036 
   1.450000000    -0.1365875    0.1393247     0.6136069    0.5168326     0.6128470    0.5199230    -0.1374425    0.1388213 
   1.460000000    -0.1224475    0.1447968     0.6522162    0.4666254     0.6535968    0.4697384    -0.1292163    0.1497889 
   1.470000000    -0.1133768    0.1480500     0.6864751    0.4143442     0.6876249    0.4129688    -0.1134842    0.1542994 
   1.480000000    -0.1027670    0.1551325     0.7199690    0.3571795     0.7177489    0.3595186    -0.1023922    0.1530354 
   1.490000000    -0.0844747    0.1585963     0.7446736    0.2979597     0.7438407    0.3013944    -0.0933596    0.1552953 
   1.500000000    -0.0690423    0.1532601     0.7658927    0.2370789     0.7682837    0.2410272    -0.0799794    0.1595393 
   1.510000000    -0.0605509    0.1509292     0.7827443    0.1765652     0.7852741    0.1752734    -0.0631340    0.1574848 
   1.520000000    -0.0476020    0.1524654     0.7962670    0.1144221     0.7951379    0.1145046    -0.0540592    0.1496816 
