! 2/21/2025 7:03:06 AM
! Z:\OQC\AD5\613\LOT-141-0825\SINGLE\1-L5-8.S2P
! CHANNEL.1
! TR.MEASUREMENT
! CORRECTED.DATA
! RF.CORRECTION: FULL.FOUR.PORT.CAL.PORT.1.2.3.4
! AVERAGING.OFF
! IF.BANDWIDTH: 1KHZ
! SWEEPTYPE:  FREQ.SWEEP(Linear)
! Reference Plane Port Info
! PORT:              PORT1              PORT2             
! DISTANCE:          0  m               0  m              
! TIME:              0  s               0  s              
! PHASE.OFFSET:      0 °                0 °               
! LOSS:              0  dB              0  dB             
! REF.LOSS:          0  dB              0  dB             
! REF.FREQ:          0  Hz              0  Hz             
! Power Info
! POWER:             -10  dBm           -10  dBm          
! EFF.POWER:         -10  dBm           -10  dBm          
! SOURCE.ATTEN:      0  dB              0  dB             
! TEST.ATTEN:        0  dB              0  dB             
# GHZ S RI R 50.0
! FREQ.GHZ         S11RE         S11IM         S21RE         S21IM         S12RE         S12IM         S22RE         S22IM         
!; PortSelection: Port_12
   0.010000000     0.0188190   -0.0068017     0.9757834   -0.0873332     0.9758371   -0.0872627     0.0193036   -0.0068188 
   0.020000000     0.0205184   -0.0188305     0.9621195   -0.1730983     0.9619382   -0.1732096     0.0213552   -0.0186895 
   0.030000000     0.0171256   -0.0313286     0.9393032   -0.2555567     0.9399579   -0.2555664     0.0186005   -0.0315035 
   0.040000000     0.0120462   -0.0410817     0.9109473   -0.3352774     0.9114255   -0.3351193     0.0140324   -0.0417775 
   0.050000000     0.0071020   -0.0510545     0.8757945   -0.4110040     0.8759419   -0.4114592     0.0099554   -0.0520645 
   0.060000000    -0.0005757   -0.0618058     0.8349625   -0.4835549     0.8348498   -0.4835864     0.0033773   -0.0637170 
   0.070000000    -0.0115911   -0.0705732     0.7873341   -0.5517108     0.7882407   -0.5519792    -0.0064474   -0.0735873 
   0.080000000    -0.0230483   -0.0760217     0.7358356   -0.6145511     0.7351530   -0.6144676    -0.0171532   -0.0803970 
   0.090000000    -0.0341799   -0.0802571     0.6776860   -0.6716450     0.6784496   -0.6724927    -0.0273529   -0.0860925 
   0.100000000    -0.0466060   -0.0835279     0.6167244   -0.7250094     0.6168273   -0.7253413    -0.0392324   -0.0912489 
   0.110000000    -0.0612073   -0.0841774     0.5514258   -0.7723215     0.5516283   -0.7715927    -0.0532169   -0.0940328 
   0.120000000    -0.0746251   -0.0808535     0.4833046   -0.8129704     0.4829873   -0.8133882    -0.0666387   -0.0932851 
   0.130000000    -0.0857992   -0.0768276     0.4122433   -0.8472314     0.4115839   -0.8470646    -0.0778374   -0.0920576 
   0.140000000    -0.0971291   -0.0720322     0.3378812   -0.8762410     0.3391742   -0.8760948    -0.0899161   -0.0907120 
   0.150000000    -0.1089810   -0.0641700     0.2631840   -0.8981780     0.2623571   -0.8982694    -0.1029068   -0.0857701 
   0.160000000    -0.1181429   -0.0533382     0.1880118   -0.9144336     0.1885577   -0.9137610    -0.1133024   -0.0777929 
   0.170000000    -0.1239822   -0.0419778     0.1120882   -0.9241157     0.1111555   -0.9243864    -0.1209960   -0.0696987 
   0.180000000    -0.1289013   -0.0310040     0.0338391   -0.9270598     0.0354762   -0.9275491    -0.1285985   -0.0612073 
   0.190000000    -0.1338882   -0.0194083    -0.0415702   -0.9243288    -0.0418655   -0.9239262    -0.1355061   -0.0514780 
   0.200000000    -0.1359705   -0.0053664    -0.1178328   -0.9155269    -0.1174719   -0.9160296    -0.1408658   -0.0408948 
   0.210000000    -0.1337966    0.0077238    -0.1915062   -0.9013054    -0.1914461   -0.9008123    -0.1428887   -0.0298535 
   0.220000000    -0.1308395    0.0182869    -0.2637652   -0.8800696    -0.2639198   -0.8802363    -0.1434106   -0.0195595 
   0.230000000    -0.1279998    0.0305128    -0.3341209   -0.8532504    -0.3354647   -0.8542516    -0.1434287   -0.0093690 
   0.240000000    -0.1206392    0.0434998    -0.4021045   -0.8219953    -0.4037015   -0.8221676    -0.1409809    0.0018003 
   0.250000000    -0.1104542    0.0522086    -0.4681632   -0.7845507    -0.4665725   -0.7853583    -0.1362590    0.0111533 
   0.260000000    -0.1019405    0.0587796    -0.5291087   -0.7427474    -0.5298992   -0.7437738    -0.1314825    0.0188935 
   0.270000000    -0.0932266    0.0665680    -0.5886306   -0.6959912    -0.5884757   -0.6959367    -0.1264614    0.0265215 
   0.280000000    -0.0802541    0.0723917    -0.6415631   -0.6458359    -0.6424704   -0.6452085    -0.1193926    0.0327386 
   0.290000000    -0.0666802    0.0742147    -0.6926054   -0.5904701    -0.6930766   -0.5891320    -0.1110794    0.0376975 
   0.300000000    -0.0549132    0.0738894    -0.7371503   -0.5321087    -0.7375924   -0.5300853    -0.1024722    0.0410712 
   0.310000000    -0.0429983    0.0736240    -0.7786595   -0.4677190    -0.7786014   -0.4677801    -0.0942151    0.0419492 
   0.320000000    -0.0297669    0.0705867    -0.8143296   -0.4012209    -0.8143336   -0.4017414    -0.0857052    0.0422093 
   0.330000000    -0.0173234    0.0637545    -0.8433486   -0.3338252    -0.8428046   -0.3328542    -0.0772142    0.0407506 
   0.340000000    -0.0091203    0.0557953    -0.8682010   -0.2625245    -0.8682899   -0.2634771    -0.0702915    0.0374559 
   0.350000000    -0.0001326    0.0495349    -0.8861456   -0.1894242    -0.8860086   -0.1886294    -0.0637976    0.0342966 
   0.360000000     0.0096009    0.0396822    -0.8979352   -0.1160295    -0.8977245   -0.1160470    -0.0572801    0.0295283 
   0.370000000     0.0147590    0.0267087    -0.9040006   -0.0410700    -0.9026663   -0.0404584    -0.0523347    0.0234213 
   0.380000000     0.0176847    0.0149967    -0.9031104    0.0334300    -0.9031541    0.0351720    -0.0485108    0.0164483 
   0.390000000     0.0201357    0.0024051    -0.8963333    0.1093054    -0.8968436    0.1075675    -0.0463704    0.0079604 
   0.400000000     0.0195139   -0.0110097    -0.8837432    0.1828101    -0.8830647    0.1831582    -0.0474081    0.0002607 
   0.410000000     0.0170215   -0.0224787    -0.8647467    0.2547840    -0.8642964    0.2557581    -0.0479996   -0.0049881 
   0.420000000     0.0144760   -0.0342755    -0.8397970    0.3245402    -0.8380283    0.3261545    -0.0482114   -0.0125509 
   0.430000000     0.0081811   -0.0460548    -0.8081615    0.3923239    -0.8086784    0.3928277    -0.0515382   -0.0206735 
   0.440000000    -0.0001304   -0.0551301    -0.7710098    0.4592816    -0.7729248    0.4577557    -0.0572730   -0.0256796 
   0.450000000    -0.0087478   -0.0639843    -0.7301255    0.5191749    -0.7293814    0.5201808    -0.0624712   -0.0303774 
   0.460000000    -0.0203030   -0.0721901    -0.6825323    0.5778449    -0.6813621    0.5789896    -0.0694109   -0.0353743 
   0.470000000    -0.0333077   -0.0776174    -0.6322803    0.6316362    -0.6320277    0.6302366    -0.0783252   -0.0386116 
   0.480000000    -0.0450166   -0.0794052    -0.5767327    0.6810670    -0.5768589    0.6807231    -0.0861892   -0.0388308 
   0.490000000    -0.0557406   -0.0812579    -0.5183479    0.7238417    -0.5164340    0.7249782    -0.0927452   -0.0389637 
   0.500000000    -0.0675476   -0.0824617    -0.4555347    0.7626994    -0.4548575    0.7630358    -0.0992181   -0.0386404 
   0.510000000    -0.0825686   -0.0800847    -0.3893148    0.7958726    -0.3895355    0.7961391    -0.1078465   -0.0378309 
   0.520000000    -0.0946465   -0.0733966    -0.3241921    0.8231236    -0.3209021    0.8242326    -0.1173414   -0.0337474 
   0.530000000    -0.1042030   -0.0673601    -0.2538876    0.8459721    -0.2536728    0.8450034    -0.1235505   -0.0257821 
   0.540000000    -0.1140459   -0.0621860    -0.1847330    0.8629752    -0.1817735    0.8632402    -0.1269686   -0.0210935 
   0.550000000    -0.1240689   -0.0513297    -0.1120615    0.8728914    -0.1127281    0.8722031    -0.1320286   -0.0161061 
   0.560000000    -0.1271477   -0.0395835    -0.0402263    0.8774636    -0.0410600    0.8791119    -0.1361118   -0.0072646 
   0.570000000    -0.1309531   -0.0323112     0.0312607    0.8764347     0.0307148    0.8772742    -0.1373855    0.0012628 
   0.580000000    -0.1391637   -0.0207137     0.1021357    0.8690633     0.1028846    0.8700246    -0.1389475    0.0089080 
   0.590000000    -0.1406000   -0.0036778     0.1709931    0.8574513     0.1724882    0.8548060    -0.1407745    0.0175621 
   0.600000000    -0.1364042    0.0073121     0.2415904    0.8390602     0.2406560    0.8377885    -0.1394756    0.0289818 
   0.610000000    -0.1350405    0.0153972     0.3084509    0.8154407     0.3086530    0.8160509    -0.1335347    0.0373088 
   0.620000000    -0.1334787    0.0274858     0.3725490    0.7874579     0.3739777    0.7859067    -0.1277424    0.0419818 
   0.630000000    -0.1248373    0.0385538     0.4359599    0.7525707     0.4352856    0.7542866    -0.1252199    0.0451530 
   0.640000000    -0.1159042    0.0454534     0.4937036    0.7152563     0.4957554    0.7149331    -0.1209048    0.0553472 
   0.650000000    -0.1098575    0.0517451     0.5502617    0.6721103     0.5508217    0.6718483    -0.1103274    0.0614343 
   0.660000000    -0.1023811    0.0617189     0.6032875    0.6247527     0.6035110    0.6236075    -0.1024578    0.0628597 
   0.670000000    -0.0886712    0.0668766     0.6527749    0.5733942     0.6513494    0.5723889    -0.0968959    0.0650523 
   0.680000000    -0.0764951    0.0646990     0.6964291    0.5162976     0.6966155    0.5179005    -0.0881118    0.0677150 
   0.690000000    -0.0694294    0.0630506     0.7355217    0.4593151     0.7376171    0.4592193    -0.0773936    0.0656401 
   0.700000000    -0.0587228    0.0656836     0.7715136    0.3976259     0.7711937    0.3976019    -0.0701726    0.0595239 
   0.710000000    -0.0435170    0.0635690     0.8001753    0.3314835     0.8023100    0.3316456    -0.0652995    0.0577782 
   0.720000000    -0.0351282    0.0562135     0.8260648    0.2649746     0.8238945    0.2652540    -0.0585612    0.0568686 
   0.730000000    -0.0285626    0.0517378     0.8438148    0.1969981     0.8442248    0.1964764    -0.0477136    0.0528715 
   0.740000000    -0.0190580    0.0454546     0.8566936    0.1256324     0.8563470    0.1250636    -0.0420318    0.0430191 
   0.750000000    -0.0119573    0.0325971     0.8634692    0.0551448     0.8639780    0.0556541    -0.0423833    0.0324365 
   0.760000000    -0.0099868    0.0212903     0.8655603   -0.0156136     0.8669538   -0.0159894    -0.0424159    0.0279799 
   0.770000000    -0.0070362    0.0131053     0.8596739   -0.0879060     0.8607104   -0.0889312    -0.0364923    0.0198767 
   0.780000000    -0.0042103    0.0027021     0.8512855   -0.1578202     0.8491003   -0.1584529    -0.0375311    0.0086639 
   0.790000000    -0.0057175   -0.0093040     0.8330522   -0.2285735     0.8321121   -0.2271326    -0.0411878    0.0014369 
   0.800000000    -0.0096594   -0.0197320     0.8108446   -0.2948773     0.8096457   -0.2960778    -0.0412092   -0.0039878 
   0.810000000    -0.0132467   -0.0314566     0.7820445   -0.3613115     0.7818583   -0.3634143    -0.0443918   -0.0146272 
   0.820000000    -0.0205352   -0.0437840     0.7484192   -0.4221616     0.7470188   -0.4237721    -0.0532987   -0.0253480 
   0.830000000    -0.0313230   -0.0507165     0.7127326   -0.4838706     0.7098789   -0.4846047    -0.0651706   -0.0278732 
   0.840000000    -0.0385004   -0.0542888     0.6653751   -0.5411961     0.6672214   -0.5412552    -0.0687566   -0.0292610 
   0.850000000    -0.0459058   -0.0608366     0.6193995   -0.5917642     0.6196966   -0.5929874    -0.0735168   -0.0344451 
   0.860000000    -0.0601660   -0.0682159     0.5669602   -0.6413523     0.5669022   -0.6423025    -0.0849739   -0.0407857 
   0.870000000    -0.0752604   -0.0665814     0.5105437   -0.6838821     0.5089560   -0.6842130    -0.0984229   -0.0381759 
   0.880000000    -0.0841186   -0.0650424     0.4539214   -0.7222865     0.4521686   -0.7222255    -0.1059315   -0.0346114 
   0.890000000    -0.0957559   -0.0680748     0.3910726   -0.7564438     0.3905086   -0.7550002    -0.1135475   -0.0345140 
   0.900000000    -0.1117492   -0.0634740     0.3258492   -0.7834088     0.3283833   -0.7818755    -0.1263553   -0.0321190 
   0.910000000    -0.1210188   -0.0529826     0.2605803   -0.8068901     0.2635924   -0.8070405    -0.1358108   -0.0227230 
   0.920000000    -0.1260169   -0.0465365     0.1933809   -0.8227218     0.1954818   -0.8239182    -0.1388410   -0.0160998 
   0.930000000    -0.1379142   -0.0432491     0.1264369   -0.8349556     0.1249447   -0.8356440    -0.1429135   -0.0127522 
   0.940000000    -0.1507896   -0.0304330     0.0574284   -0.8415413     0.0569988   -0.8406914    -0.1526044   -0.0065993 
   0.950000000    -0.1534508   -0.0157636    -0.0123288   -0.8419034    -0.0098370   -0.8394002    -0.1592422    0.0076882 
   0.960000000    -0.1550286   -0.0055730    -0.0801163   -0.8366597    -0.0770547   -0.8366168    -0.1581806    0.0216285 
   0.970000000    -0.1592186    0.0041441    -0.1467519   -0.8267237    -0.1462056   -0.8261816    -0.1565689    0.0283388 
   0.980000000    -0.1619622    0.0201802    -0.2140706   -0.8086207    -0.2110890   -0.8113477    -0.1592542    0.0346639 
   0.990000000    -0.1571103    0.0337700    -0.2756855   -0.7870359    -0.2777039   -0.7904155    -0.1609364    0.0475650 
   1.000000000    -0.1537744    0.0421072    -0.3388950   -0.7631779    -0.3386020   -0.7629634    -0.1534206    0.0578216 
   1.010000000    -0.1538496    0.0537981    -0.3990555   -0.7321967    -0.3995543   -0.7321446    -0.1486381    0.0630368 
   1.020000000    -0.1459282    0.0701800    -0.4572704   -0.6991262    -0.4551193   -0.6969874    -0.1468293    0.0725976 
   1.030000000    -0.1327520    0.0773309    -0.5124985   -0.6567434    -0.5100639   -0.6589607    -0.1383195    0.0853469 
   1.040000000    -0.1242236    0.0816578    -0.5616205   -0.6138569    -0.5618697   -0.6162499    -0.1261943    0.0897949 
   1.050000000    -0.1183509    0.0908945    -0.6107829   -0.5661718    -0.6109383   -0.5677268    -0.1188313    0.0897696 
   1.060000000    -0.1027827    0.0990416    -0.6525539   -0.5139920    -0.6537600   -0.5158081    -0.1151260    0.0929202 
   1.070000000    -0.0897286    0.0979962    -0.6942719   -0.4604420    -0.6949649   -0.4584968    -0.1055024    0.1009529 
   1.080000000    -0.0818917    0.0996946    -0.7283871   -0.4020289    -0.7272781   -0.4019756    -0.0907874    0.1015503 
   1.090000000    -0.0686338    0.1029333    -0.7593952   -0.3424975    -0.7593104   -0.3414207    -0.0810458    0.0961230 
   1.100000000    -0.0525463    0.0989896    -0.7848448   -0.2787617    -0.7840331   -0.2797585    -0.0759125    0.0936039 
   1.110000000    -0.0420684    0.0899563    -0.8039491   -0.2139085    -0.8063627   -0.2141729    -0.0681510    0.0949396 
   1.120000000    -0.0354322    0.0859426    -0.8176815   -0.1481467    -0.8203867   -0.1472100    -0.0555392    0.0887626 
   1.130000000    -0.0246100    0.0827552    -0.8291876   -0.0803788    -0.8297744   -0.0782206    -0.0498817    0.0775548 
   1.140000000    -0.0129033    0.0717679    -0.8321051   -0.0118128    -0.8330365   -0.0124818    -0.0495547    0.0725201 
   1.150000000    -0.0086078    0.0579740    -0.8310463    0.0571689    -0.8317757    0.0558255    -0.0433120    0.0704593 
   1.160000000    -0.0063306    0.0499869    -0.8236580    0.1253960    -0.8240567    0.1244822    -0.0344116    0.0605068 
   1.170000000    -0.0011124    0.0392691    -0.8100156    0.1924208    -0.8103154    0.1914371    -0.0347346    0.0469327 
   1.180000000     0.0000380    0.0239284    -0.7910960    0.2592194    -0.7922872    0.2568389    -0.0405275    0.0382278 
   1.190000000    -0.0047416    0.0128244    -0.7663003    0.3228263    -0.7679315    0.3236189    -0.0415207    0.0349437 
   1.200000000    -0.0057220    0.0044748    -0.7366171    0.3849581    -0.7373831    0.3836427    -0.0395752    0.0256236 
   1.210000000    -0.0081690   -0.0097028    -0.7023460    0.4455435    -0.7025437    0.4451582    -0.0440695    0.0133827 
   1.220000000    -0.0183469   -0.0203714    -0.6619470    0.5012243    -0.6620291    0.4997789    -0.0531501    0.0091797 
   1.230000000    -0.0266564   -0.0253635    -0.6181657    0.5544395    -0.6184762    0.5524814    -0.0577354    0.0072271 
   1.240000000    -0.0333571   -0.0340827    -0.5693662    0.6016083    -0.5689282    0.6012715    -0.0630671    0.0003821 
   1.250000000    -0.0466497   -0.0430263    -0.5178043    0.6451608    -0.5177196    0.6450959    -0.0753150   -0.0049386 
   1.260000000    -0.0610697   -0.0436866    -0.4620404    0.6844934    -0.4618478    0.6847505    -0.0862491   -0.0030025 
   1.270000000    -0.0686650   -0.0437514    -0.4036151    0.7188613    -0.4042134    0.7190523    -0.0913360   -0.0021826 
   1.280000000    -0.0787113   -0.0485673    -0.3419039    0.7501389    -0.3433752    0.7483499    -0.0981476   -0.0051074 
   1.290000000    -0.0957463   -0.0479607    -0.2771449    0.7734827    -0.2800630    0.7723531    -0.1103640   -0.0040028 
   1.300000000    -0.1089084   -0.0384414    -0.2147750    0.7913709    -0.2147230    0.7909077    -0.1207940    0.0045470 
   1.310000000    -0.1142914   -0.0316101    -0.1478037    0.8058019    -0.1507813    0.8057503    -0.1244156    0.0132091 
   1.320000000    -0.1241859   -0.0309195    -0.0817914    0.8131074    -0.0827552    0.8137068    -0.1289038    0.0154395 
   1.330000000    -0.1399010   -0.0220332    -0.0144543    0.8157968    -0.0162078    0.8160638    -0.1391141    0.0198891 
   1.340000000    -0.1463694   -0.0058074     0.0502319    0.8117731     0.0498336    0.8123264    -0.1468923    0.0325161 
   1.350000000    -0.1451988    0.0026979     0.1165226    0.8050242     0.1153346    0.8043245    -0.1447944    0.0446028 
   1.360000000    -0.1517054    0.0083916     0.1802066    0.7920497     0.1803914    0.7915967    -0.1434878    0.0497524 
   1.370000000    -0.1595272    0.0252990     0.2450131    0.7733232     0.2416313    0.7729065    -0.1480738    0.0582358 
   1.380000000    -0.1553872    0.0425762     0.3066611    0.7471901     0.3056154    0.7499601    -0.1495820    0.0728648 
   1.390000000    -0.1506090    0.0503726     0.3637429    0.7221860     0.3633691    0.7215160    -0.1433302    0.0835606 
   1.400000000    -0.1536318    0.0593623     0.4211986    0.6879235     0.4195709    0.6905161    -0.1383756    0.0884902 
   1.410000000    -0.1504106    0.0759736     0.4750451    0.6528404     0.4728219    0.6529723    -0.1358075    0.0955960 
   1.420000000    -0.1376119    0.0863472     0.5259776    0.6103890     0.5252109    0.6127668    -0.1299277    0.1065885 
   1.430000000    -0.1295714    0.0916794     0.5720666    0.5662923     0.5715134    0.5677314    -0.1180457    0.1142311 
   1.440000000    -0.1243619    0.1008678     0.6157508    0.5181596     0.6149509    0.5201445    -0.1095143    0.1169855 
   1.450000000    -0.1119859    0.1119986     0.6550862    0.4660729     0.6545805    0.4681026    -0.1045935    0.1216438 
   1.460000000    -0.0985541    0.1143979     0.6893779    0.4126953     0.6915148    0.4141908    -0.0962901    0.1283327 
   1.470000000    -0.0907622    0.1152296     0.7209270    0.3550361     0.7219506    0.3541616    -0.0819322    0.1286431 
   1.480000000    -0.0805637    0.1202809     0.7486970    0.2960609     0.7475462    0.2969345    -0.0733289    0.1238429 
   1.490000000    -0.0633486    0.1206149     0.7687599    0.2342238     0.7682273    0.2356776    -0.0666179    0.1236537 
   1.500000000    -0.0510139    0.1133284     0.7851870    0.1697144     0.7877220    0.1729987    -0.0553244    0.1250937 
   1.510000000    -0.0448425    0.1104416     0.7960444    0.1063922     0.7981045    0.1061477    -0.0420173    0.1198529 
   1.520000000    -0.0333695    0.1104265     0.8041781    0.0423873     0.8028664    0.0427881    -0.0370844    0.1107102 
