! 2/21/2025 7:02:13 AM
! Z:\OQC\AD5\613\LOT-141-0825\SINGLE\1-L5-4.S2P
! CHANNEL.1
! TR.MEASUREMENT
! CORRECTED.DATA
! RF.CORRECTION: FULL.FOUR.PORT.CAL.PORT.1.2.3.4
! AVERAGING.OFF
! IF.BANDWIDTH: 1KHZ
! SWEEPTYPE:  FREQ.SWEEP(Linear)
! Reference Plane Port Info
! PORT:              PORT1              PORT2             
! DISTANCE:          0  m               0  m              
! TIME:              0  s               0  s              
! PHASE.OFFSET:      0 °                0 °               
! LOSS:              0  dB              0  dB             
! REF.LOSS:          0  dB              0  dB             
! REF.FREQ:          0  Hz              0  Hz             
! Power Info
! POWER:             -10  dBm           -10  dBm          
! EFF.POWER:         -10  dBm           -10  dBm          
! SOURCE.ATTEN:      0  dB              0  dB             
! TEST.ATTEN:        0  dB              0  dB             
# GHZ S RI R 50.0
! FREQ.GHZ         S11RE         S11IM         S21RE         S21IM         S12RE         S12IM         S22RE         S22IM         
!; PortSelection: Port_12
   0.010000000     0.0098053   -0.0016352     0.9887080   -0.0450923     0.9886570   -0.0449129     0.0100636   -0.0014697 
   0.020000000     0.0123617   -0.0068931     0.9845353   -0.0906497     0.9845760   -0.0908763     0.0127951   -0.0065529 
   0.030000000     0.0116871   -0.0128284     0.9763245   -0.1353567     0.9775298   -0.1354268     0.0123018   -0.0125763 
   0.040000000     0.0104376   -0.0166677     0.9686635   -0.1790889     0.9691595   -0.1793331     0.0109868   -0.0165557 
   0.050000000     0.0109156   -0.0206888     0.9580156   -0.2221477     0.9578151   -0.2222767     0.0114331   -0.0202412 
   0.060000000     0.0107977   -0.0266528     0.9466284   -0.2643040     0.9464208   -0.2649243     0.0116291   -0.0261443 
   0.070000000     0.0084272   -0.0330288     0.9320981   -0.3069382     0.9319863   -0.3070844     0.0096634   -0.0324956 
   0.080000000     0.0055403   -0.0374195     0.9162490   -0.3475447     0.9160670   -0.3472753     0.0066906   -0.0370422 
   0.090000000     0.0034581   -0.0415014     0.8981770   -0.3872340     0.8990939   -0.3878246     0.0047341   -0.0409400 
   0.100000000     0.0014274   -0.0466960     0.8792912   -0.4260374     0.8797293   -0.4262315     0.0028174   -0.0461079 
   0.110000000    -0.0027315   -0.0523885     0.8587548   -0.4647848     0.8590822   -0.4644828    -0.0011339   -0.0519017 
   0.120000000    -0.0081528   -0.0560416     0.8361228   -0.5012082     0.8354859   -0.5007391    -0.0065160   -0.0557962 
   0.130000000    -0.0120201   -0.0586503     0.8114917   -0.5358702     0.8117231   -0.5371670    -0.0098503   -0.0585334 
   0.140000000    -0.0153257   -0.0626065     0.7867690   -0.5714408     0.7862499   -0.5708535    -0.0126523   -0.0632818 
   0.150000000    -0.0209791   -0.0669547     0.7583702   -0.6050890     0.7579393   -0.6049017    -0.0181782   -0.0680384 
   0.160000000    -0.0274554   -0.0691382     0.7298152   -0.6371060     0.7307000   -0.6362061    -0.0243973   -0.0704303 
   0.170000000    -0.0333012   -0.0698895     0.7013220   -0.6666756     0.7013564   -0.6665664    -0.0296853   -0.0716866 
   0.180000000    -0.0379514   -0.0705583     0.6698753   -0.6974005     0.6700535   -0.6969277    -0.0346852   -0.0731006 
   0.190000000    -0.0436060   -0.0729972     0.6386202   -0.7244186     0.6375286   -0.7247838    -0.0405956   -0.0754373 
   0.200000000    -0.0511803   -0.0742370     0.6056675   -0.7514271     0.6052179   -0.7508600    -0.0472306   -0.0773720 
   0.210000000    -0.0579042   -0.0727559     0.5715566   -0.7754042     0.5709523   -0.7754461    -0.0540316   -0.0776124 
   0.220000000    -0.0619221   -0.0719679     0.5352440   -0.7990686     0.5358621   -0.7988326    -0.0593206   -0.0772512 
   0.230000000    -0.0679160   -0.0729830     0.5001038   -0.8200325     0.4986852   -0.8205729    -0.0647349   -0.0778611 
   0.240000000    -0.0762680   -0.0713702     0.4630026   -0.8400738     0.4623042   -0.8402973    -0.0716195   -0.0771025 
   0.250000000    -0.0819828   -0.0666947     0.4267569   -0.8584865     0.4244352   -0.8577975    -0.0775841   -0.0747155 
   0.260000000    -0.0856419   -0.0646286     0.3872654   -0.8747336     0.3866954   -0.8744859    -0.0826917   -0.0727049 
   0.270000000    -0.0914550   -0.0639299     0.3479038   -0.8902488     0.3472712   -0.8900694    -0.0879960   -0.0712068 
   0.280000000    -0.0984437   -0.0606184     0.3102047   -0.9026555     0.3082147   -0.9033453    -0.0940021   -0.0691067 
   0.290000000    -0.1031151   -0.0550260     0.2698174   -0.9148030     0.2687761   -0.9142411    -0.0993971   -0.0658943 
   0.300000000    -0.1063939   -0.0510783     0.2295380   -0.9243761     0.2284391   -0.9237058    -0.1046833   -0.0622682 
   0.310000000    -0.1109215   -0.0476017     0.1888054   -0.9324320     0.1885316   -0.9316140    -0.1087543   -0.0577975 
   0.320000000    -0.1161365   -0.0425601     0.1478999   -0.9386663     0.1479925   -0.9380437    -0.1131095   -0.0538241 
   0.330000000    -0.1196912   -0.0357853     0.1070258   -0.9432673     0.1070572   -0.9419263    -0.1172942   -0.0493328 
   0.340000000    -0.1206479   -0.0306764     0.0665478   -0.9459282     0.0662048   -0.9458094    -0.1203336   -0.0446154 
   0.350000000    -0.1229387   -0.0268975     0.0269537   -0.9473925     0.0251603   -0.9460045    -0.1231243   -0.0402630 
   0.360000000    -0.1275732   -0.0205655    -0.0161520   -0.9452786    -0.0147547   -0.9462933    -0.1265047   -0.0354335 
   0.370000000    -0.1286054   -0.0129808    -0.0543534   -0.9430723    -0.0551398   -0.9428451    -0.1290650   -0.0300558 
   0.380000000    -0.1290324   -0.0077228    -0.0951428   -0.9395766    -0.0957206   -0.9383652    -0.1311908   -0.0242400 
   0.390000000    -0.1304812   -0.0016801    -0.1366009   -0.9338237    -0.1341743   -0.9337363    -0.1327170   -0.0175206 
   0.400000000    -0.1298689    0.0051235    -0.1762636   -0.9265054    -0.1748220   -0.9260579    -0.1318276   -0.0118204 
   0.410000000    -0.1286703    0.0099976    -0.2143174   -0.9175831    -0.2151995   -0.9169236    -0.1322546   -0.0083110 
   0.420000000    -0.1288071    0.0158091    -0.2532412   -0.9059680    -0.2533462   -0.9056225    -0.1342895   -0.0025190 
   0.430000000    -0.1274322    0.0231648    -0.2919785   -0.8928822    -0.2919150   -0.8934497    -0.1339911    0.0046094 
   0.440000000    -0.1251414    0.0287545    -0.3296869   -0.8799337    -0.3301118   -0.8799734    -0.1322676    0.0100575 
   0.450000000    -0.1244426    0.0339365    -0.3668042   -0.8652719    -0.3678092   -0.8632048    -0.1321570    0.0146677 
   0.460000000    -0.1222510    0.0410908    -0.4038427   -0.8468845    -0.4045688   -0.8463667    -0.1311940    0.0208261 
   0.470000000    -0.1170814    0.0461323    -0.4397101   -0.8287413    -0.4380409   -0.8286397    -0.1277195    0.0264242 
   0.480000000    -0.1126670    0.0494213    -0.4733723   -0.8086504    -0.4735574   -0.8094267    -0.1246237    0.0301542 
   0.490000000    -0.1103345    0.0530630    -0.5068273   -0.7878797    -0.5087760   -0.7864091    -0.1222763    0.0337079 
   0.500000000    -0.1077901    0.0589643    -0.5405102   -0.7646410    -0.5410329   -0.7637036    -0.1211955    0.0377532 
   0.510000000    -0.1023807    0.0654381    -0.5728737   -0.7405321    -0.5727534   -0.7388352    -0.1187975    0.0439441 
   0.520000000    -0.0959522    0.0680761    -0.6037174   -0.7147446    -0.6035690   -0.7147673    -0.1138387    0.0491360 
   0.530000000    -0.0920035    0.0693584    -0.6344894   -0.6868999    -0.6335699   -0.6881472    -0.1080073    0.0500798 
   0.540000000    -0.0884583    0.0724592    -0.6619790   -0.6597862    -0.6621486   -0.6594082    -0.1057735    0.0513678 
   0.550000000    -0.0803071    0.0757586    -0.6894590   -0.6308497    -0.6897300   -0.6316854    -0.1024948    0.0547525 
   0.560000000    -0.0727526    0.0741097    -0.7141503   -0.6016741    -0.7160544   -0.6007820    -0.0959361    0.0576340 
   0.570000000    -0.0714615    0.0756466    -0.7407093   -0.5687359    -0.7407798   -0.5691830    -0.0914922    0.0587039 
   0.580000000    -0.0658898    0.0822111    -0.7622232   -0.5370826    -0.7639444   -0.5367184    -0.0885044    0.0612784 
   0.590000000    -0.0549001    0.0828119    -0.7864407   -0.5035759    -0.7847155   -0.5027271    -0.0837865    0.0651867 
   0.600000000    -0.0503729    0.0774662    -0.8064454   -0.4686173    -0.8064728   -0.4688264    -0.0763891    0.0657565 
   0.610000000    -0.0484592    0.0772516    -0.8255239   -0.4342414    -0.8264294   -0.4330348    -0.0707893    0.0622475 
   0.620000000    -0.0405916    0.0788986    -0.8430851   -0.3982014    -0.8428965   -0.3966484    -0.0684610    0.0587385 
   0.630000000    -0.0321786    0.0757300    -0.8596281   -0.3612148    -0.8600904   -0.3608009    -0.0676091    0.0614525 
   0.640000000    -0.0282329    0.0717613    -0.8728755   -0.3241741    -0.8750331   -0.3225090    -0.0593573    0.0645829 
   0.650000000    -0.0258349    0.0710610    -0.8865520   -0.2863710    -0.8866461   -0.2861239    -0.0523265    0.0603214 
   0.660000000    -0.0182766    0.0720738    -0.8981187   -0.2488492    -0.8990958   -0.2453392    -0.0508780    0.0571523 
   0.670000000    -0.0107916    0.0664635    -0.9080611   -0.2089664    -0.9073282   -0.2086083    -0.0478489    0.0580582 
   0.680000000    -0.0087319    0.0583785    -0.9147691   -0.1684698    -0.9152160   -0.1690821    -0.0422782    0.0563854 
   0.690000000    -0.0097409    0.0554149    -0.9220610   -0.1307761    -0.9230970   -0.1304207    -0.0378435    0.0496041 
   0.700000000    -0.0026335    0.0548025    -0.9280416   -0.0900254    -0.9265263   -0.0887544    -0.0384624    0.0455062 
   0.710000000     0.0044350    0.0485210    -0.9289058   -0.0502890    -0.9297728   -0.0495829    -0.0378947    0.0454935 
   0.720000000     0.0046246    0.0417843    -0.9308211   -0.0090645    -0.9293920   -0.0091914    -0.0325416    0.0456752 
   0.730000000     0.0061320    0.0404133    -0.9302650    0.0308246    -0.9304133    0.0307491    -0.0260886    0.0411093 
   0.740000000     0.0111925    0.0353701    -0.9280036    0.0725066    -0.9267299    0.0732824    -0.0248813    0.0328916 
   0.750000000     0.0123263    0.0257699    -0.9235545    0.1113962    -0.9223139    0.1117346    -0.0288426    0.0282033 
   0.760000000     0.0106951    0.0199185    -0.9173830    0.1514677    -0.9179068    0.1522688    -0.0282573    0.0289761 
   0.770000000     0.0119583    0.0170782    -0.9090468    0.1922353    -0.9084836    0.1922946    -0.0222547    0.0239792 
   0.780000000     0.0140773    0.0113740    -0.9015711    0.2298666    -0.9005713    0.2291626    -0.0239062    0.0171511 
   0.790000000     0.0131312    0.0050124    -0.8888499    0.2693166    -0.8885109    0.2690076    -0.0263622    0.0150692 
   0.800000000     0.0114478    0.0006144    -0.8768787    0.3048466    -0.8752596    0.3070680    -0.0232852    0.0144340 
   0.810000000     0.0115556   -0.0066053    -0.8617408    0.3441417    -0.8612290    0.3452514    -0.0217574    0.0059225 
   0.820000000     0.0094849   -0.0150750    -0.8447890    0.3800054    -0.8440472    0.3796615    -0.0255153   -0.0023618 
   0.830000000     0.0039499   -0.0190808    -0.8307232    0.4180902    -0.8277579    0.4179087    -0.0331104   -0.0033977 
   0.840000000     0.0023699   -0.0203739    -0.8084125    0.4541262    -0.8076795    0.4541767    -0.0321000   -0.0016770 
   0.850000000     0.0029713   -0.0246842    -0.7878158    0.4854643    -0.7875153    0.4870509    -0.0295268   -0.0056962 
   0.860000000    -0.0014190   -0.0342043    -0.7657611    0.5223110    -0.7652265    0.5225039    -0.0323084   -0.0147074 
   0.870000000    -0.0099108   -0.0364059    -0.7404679    0.5530216    -0.7403718    0.5526172    -0.0397940   -0.0167735 
   0.880000000    -0.0126329   -0.0365096    -0.7177301    0.5842059    -0.7158145    0.5845234    -0.0426032   -0.0161591 
   0.890000000    -0.0131719   -0.0440244    -0.6906313    0.6153270    -0.6879704    0.6157144    -0.0423927   -0.0189977 
   0.900000000    -0.0219698   -0.0509992    -0.6624172    0.6432628    -0.6616724    0.6417056    -0.0483350   -0.0258946 
   0.910000000    -0.0305170   -0.0479402    -0.6344516    0.6718139    -0.6348583    0.6715004    -0.0564312   -0.0251453 
   0.920000000    -0.0310640   -0.0466902    -0.6009922    0.6981130    -0.6026887    0.6984296    -0.0582477   -0.0225726 
   0.930000000    -0.0328373   -0.0537427    -0.5721700    0.7223783    -0.5726982    0.7232835    -0.0566613   -0.0245168 
   0.940000000    -0.0445623   -0.0583856    -0.5393279    0.7480631    -0.5388119    0.7485111    -0.0606028   -0.0312144 
   0.950000000    -0.0522103   -0.0547141    -0.5065380    0.7687457    -0.5049847    0.7675520    -0.0701667   -0.0325714 
   0.960000000    -0.0546411   -0.0533047    -0.4733087    0.7907762    -0.4719584    0.7884092    -0.0779109   -0.0266428 
   0.970000000    -0.0584111   -0.0565248    -0.4375215    0.8091239    -0.4363426    0.8084956    -0.0771693   -0.0232106 
   0.980000000    -0.0678971   -0.0573307    -0.4011497    0.8263334    -0.4033797    0.8251462    -0.0782030   -0.0265234 
   0.990000000    -0.0743807   -0.0520231    -0.3652992    0.8411935    -0.3667524    0.8426747    -0.0868968   -0.0292712 
   1.000000000    -0.0755298   -0.0497177    -0.3293203    0.8557829    -0.3285742    0.8548782    -0.0922449   -0.0234059 
   1.010000000    -0.0809816   -0.0537458    -0.2917131    0.8683331    -0.2923854    0.8690279    -0.0912848   -0.0216218 
   1.020000000    -0.0933464   -0.0508692    -0.2549882    0.8807050    -0.2518127    0.8783584    -0.0958522   -0.0240001 
   1.030000000    -0.0968371   -0.0420938    -0.2151220    0.8896704    -0.2166575    0.8872007    -0.1060390   -0.0204452 
   1.040000000    -0.0966352   -0.0392226    -0.1771552    0.8971152    -0.1776851    0.8975185    -0.1091797   -0.0109917 
   1.050000000    -0.1026231   -0.0406046    -0.1373935    0.9030992    -0.1384383    0.9015494    -0.1075148   -0.0080453 
   1.060000000    -0.1114288   -0.0340205    -0.0979459    0.9062824    -0.1014723    0.9083946    -0.1084208   -0.0100603 
   1.070000000    -0.1122633   -0.0261209    -0.0605499    0.9101570    -0.0585325    0.9106805    -0.1169633   -0.0105241 
   1.080000000    -0.1136157   -0.0255750    -0.0199942    0.9121184    -0.0201762    0.9094958    -0.1227921   -0.0018124 
   1.090000000    -0.1214446   -0.0224632     0.0182820    0.9105263     0.0198501    0.9093714    -0.1204635    0.0068812 
   1.100000000    -0.1263036   -0.0126408     0.0564337    0.9103479     0.0560574    0.9055256    -0.1187498    0.0075078 
   1.110000000    -0.1240145   -0.0047300     0.0984427    0.9038900     0.0943430    0.9041951    -0.1243157    0.0081522 
   1.120000000    -0.1239873   -0.0032284     0.1347509    0.8969330     0.1351975    0.8997073    -0.1300233    0.0171152 
   1.130000000    -0.1296065   -0.0001066     0.1733516    0.8910977     0.1741451    0.8902888    -0.1264473    0.0257974 
   1.140000000    -0.1333123    0.0098039     0.2102001    0.8822342     0.2083239    0.8829776    -0.1228113    0.0248481 
   1.150000000    -0.1300258    0.0186403     0.2479359    0.8727179     0.2470748    0.8719216    -0.1275628    0.0248757 
   1.160000000    -0.1297130    0.0207525     0.2849876    0.8604735     0.2818088    0.8597155    -0.1323845    0.0340639 
   1.170000000    -0.1327496    0.0267195     0.3204097    0.8471108     0.3193602    0.8469834    -0.1288207    0.0445274 
   1.180000000    -0.1307828    0.0360243     0.3569726    0.8319188     0.3529741    0.8331046    -0.1226807    0.0472665 
   1.190000000    -0.1260544    0.0400476     0.3904618    0.8144594     0.3911207    0.8184507    -0.1229319    0.0456743 
   1.200000000    -0.1269759    0.0423872     0.4259439    0.7969787     0.4248678    0.7981597    -0.1267054    0.0513277 
   1.210000000    -0.1275790    0.0515414     0.4592299    0.7770581     0.4593026    0.7773256    -0.1233531    0.0612686 
   1.220000000    -0.1209755    0.0590084     0.4917277    0.7580819     0.4898475    0.7574360    -0.1169433    0.0640664 
   1.230000000    -0.1180270    0.0601879     0.5250058    0.7353685     0.5217541    0.7373820    -0.1161812    0.0645160 
   1.240000000    -0.1186829    0.0660458     0.5540305    0.7108344     0.5531375    0.7126510    -0.1179857    0.0710515 
   1.250000000    -0.1133635    0.0746886     0.5818097    0.6880480     0.5825431    0.6876743    -0.1121353    0.0779537 
   1.260000000    -0.1049673    0.0762703     0.6116058    0.6624147     0.6095548    0.6636291    -0.1051364    0.0777669 
   1.270000000    -0.1033326    0.0753166     0.6379747    0.6350423     0.6382309    0.6366972    -0.1041752    0.0768502 
   1.280000000    -0.1030026    0.0824428     0.6665036    0.6065075     0.6636263    0.6074153    -0.1040283    0.0823954 
   1.290000000    -0.0943006    0.0909570     0.6892260    0.5768301     0.6896508    0.5784934    -0.0974776    0.0898895 
   1.300000000    -0.0835728    0.0909963     0.7126572    0.5488986     0.7111192    0.5491315    -0.0888087    0.0906324 
   1.310000000    -0.0824190    0.0875757     0.7369824    0.5162589     0.7361721    0.5205070    -0.0858347    0.0879019 
   1.320000000    -0.0832065    0.0938316     0.7582718    0.4836146     0.7580374    0.4863852    -0.0879362    0.0895104 
   1.330000000    -0.0729849    0.1008087     0.7769395    0.4508305     0.7773883    0.4527151    -0.0836614    0.0967623 
   1.340000000    -0.0612896    0.0971858     0.7944339    0.4193712     0.7947786    0.4195903    -0.0725104    0.0973900 
   1.350000000    -0.0603157    0.0912103     0.8123910    0.3841817     0.8126115    0.3855342    -0.0663831    0.0914633 
   1.360000000    -0.0596385    0.0976217     0.8288919    0.3489920     0.8289938    0.3494582    -0.0673663    0.0908509 
   1.370000000    -0.0470284    0.1027760     0.8418963    0.3130346     0.8422624    0.3160582    -0.0639203    0.0972106 
   1.380000000    -0.0376882    0.0958922     0.8534749    0.2761623     0.8558916    0.2763978    -0.0543954    0.0984792 
   1.390000000    -0.0387624    0.0911823     0.8657387    0.2415610     0.8657159    0.2412374    -0.0499993    0.0924786 
   1.400000000    -0.0365146    0.0961010     0.8749250    0.2022026     0.8758647    0.2042257    -0.0503284    0.0894608 
   1.410000000    -0.0241304    0.0953543     0.8835426    0.1658857     0.8830402    0.1670116    -0.0471712    0.0905089 
   1.420000000    -0.0180912    0.0861319     0.8888478    0.1265802     0.8905701    0.1276049    -0.0386411    0.0900389 
   1.430000000    -0.0178287    0.0827818     0.8940703    0.0899544     0.8936399    0.0908750    -0.0326787    0.0844427 
   1.440000000    -0.0127540    0.0852125     0.8968778    0.0512373     0.8980554    0.0520870    -0.0326836    0.0812759 
   1.450000000    -0.0033694    0.0809751     0.8973241    0.0114279     0.8991358    0.0122783    -0.0316156    0.0831162 
   1.460000000    -0.0015809    0.0730030     0.8980801   -0.0253476     0.8989757   -0.0255217    -0.0250799    0.0822380 
   1.470000000    -0.0025052    0.0708226     0.8955466   -0.0647589     0.8957654   -0.0647655    -0.0207456    0.0734621 
   1.480000000     0.0036345    0.0701414     0.8933589   -0.1046230     0.8931265   -0.1015432    -0.0234363    0.0681378 
   1.490000000     0.0112229    0.0611431     0.8866965   -0.1408245     0.8878266   -0.1403897    -0.0220107    0.0685506 
   1.500000000     0.0095833    0.0515685     0.8807821   -0.1800943     0.8817146   -0.1794093    -0.0148564    0.0670615 
   1.510000000     0.0079062    0.0521556     0.8707029   -0.2178831     0.8710940   -0.2184518    -0.0109488    0.0587896 
   1.520000000     0.0143478    0.0507680     0.8632248   -0.2538536     0.8620424   -0.2525946    -0.0153457    0.0532421 
