! 2/21/2025 7:00:03 AM
! Z:\OQC\AD5\613\LOT-141-0825\SINGLE\1-L7-8.S2P
! CHANNEL.1
! TR.MEASUREMENT
! CORRECTED.DATA
! RF.CORRECTION: FULL.FOUR.PORT.CAL.PORT.1.2.3.4
! AVERAGING.OFF
! IF.BANDWIDTH: 1KHZ
! SWEEPTYPE:  FREQ.SWEEP(Linear)
! Reference Plane Port Info
! PORT:              PORT1              PORT2             
! DISTANCE:          0  m               0  m              
! TIME:              0  s               0  s              
! PHASE.OFFSET:      0 °                0 °               
! LOSS:              0  dB              0  dB             
! REF.LOSS:          0  dB              0  dB             
! REF.FREQ:          0  Hz              0  Hz             
! Power Info
! POWER:             -10  dBm           -10  dBm          
! EFF.POWER:         -10  dBm           -10  dBm          
! SOURCE.ATTEN:      0  dB              0  dB             
! TEST.ATTEN:        0  dB              0  dB             
# GHZ S RI R 50.0
! FREQ.GHZ         S11RE         S11IM         S21RE         S21IM         S12RE         S12IM         S22RE         S22IM         
!; PortSelection: Port_12
   0.010000000     0.0130855   -0.0170515     0.9805595   -0.0895180     0.9799287   -0.0894486     0.0133826   -0.0168910 
   0.020000000     0.0121578   -0.0390337     0.9654431   -0.1772800     0.9656217   -0.1777375     0.0124446   -0.0386592 
   0.030000000     0.0043161   -0.0607657     0.9412147   -0.2618806     0.9421358   -0.2617863     0.0046220   -0.0603997 
   0.040000000    -0.0067164   -0.0786355     0.9111981   -0.3431349     0.9115630   -0.3430240    -0.0066480   -0.0782896 
   0.050000000    -0.0186393   -0.0956513     0.8737376   -0.4196727     0.8740292   -0.4200448    -0.0187573   -0.0948823 
   0.060000000    -0.0345138   -0.1121177     0.8300346   -0.4926922     0.8297225   -0.4925497    -0.0343656   -0.1112555 
   0.070000000    -0.0542122   -0.1248349     0.7792934   -0.5595967     0.7798998   -0.5602516    -0.0539945   -0.1236990 
   0.080000000    -0.0747645   -0.1328592     0.7252194   -0.6216702     0.7254617   -0.6217623    -0.0747742   -0.1315773 
   0.090000000    -0.0951018   -0.1382382     0.6651683   -0.6772628     0.6661040   -0.6777732    -0.0950256   -0.1363067 
   0.100000000    -0.1166728   -0.1410218     0.6019815   -0.7274713     0.6025450   -0.7277768    -0.1167744   -0.1387693 
   0.110000000    -0.1401789   -0.1400451     0.5355561   -0.7719685     0.5361712   -0.7712533    -0.1399731   -0.1373160 
   0.120000000    -0.1614373   -0.1335264     0.4674279   -0.8097260     0.4673139   -0.8099532    -0.1616931   -0.1303931 
   0.130000000    -0.1804787   -0.1254486     0.3962032   -0.8405188     0.3954197   -0.8412741    -0.1799219   -0.1227023 
   0.140000000    -0.1986816   -0.1155917     0.3233641   -0.8665006     0.3242837   -0.8669059    -0.1984221   -0.1128047 
   0.150000000    -0.2159263   -0.1018109     0.2492769   -0.8859068     0.2504957   -0.8849935    -0.2158372   -0.0987740 
   0.160000000    -0.2296892   -0.0847043     0.1758081   -0.8983625     0.1779054   -0.8986409    -0.2292556   -0.0809696 
   0.170000000    -0.2396988   -0.0662759     0.1043499   -0.9063880     0.1034421   -0.9066315    -0.2391390   -0.0628167 
   0.180000000    -0.2472032   -0.0481337     0.0279966   -0.9088594     0.0301479   -0.9092636    -0.2466072   -0.0442106 
   0.190000000    -0.2535270   -0.0289814    -0.0435393   -0.9045762    -0.0437485   -0.9047230    -0.2521765   -0.0244701 
   0.200000000    -0.2560216   -0.0078528    -0.1161369   -0.8959860    -0.1154375   -0.8961577    -0.2545672   -0.0038190 
   0.210000000    -0.2533955    0.0124227    -0.1863514   -0.8816572    -0.1863292   -0.8819050    -0.2524275    0.0167531 
   0.220000000    -0.2492078    0.0297892    -0.2561778   -0.8630250    -0.2569050   -0.8628431    -0.2473756    0.0356564 
   0.230000000    -0.2438810    0.0488422    -0.3239466   -0.8370259    -0.3250368   -0.8372256    -0.2407264    0.0536457 
   0.240000000    -0.2336153    0.0674222    -0.3895607   -0.8088700    -0.3890661   -0.8084933    -0.2303040    0.0718389 
   0.250000000    -0.2197383    0.0815338    -0.4518550   -0.7752661    -0.4526137   -0.7743934    -0.2168791    0.0864868 
   0.260000000    -0.2064544    0.0931188    -0.5127021   -0.7354107    -0.5139837   -0.7362709    -0.2029416    0.0992677 
   0.270000000    -0.1925303    0.1046401    -0.5716136   -0.6911669    -0.5722550   -0.6916640    -0.1870131    0.1096611 
   0.280000000    -0.1740810    0.1136793    -0.6250938   -0.6437644    -0.6256456   -0.6439736    -0.1697015    0.1175648 
   0.290000000    -0.1547096    0.1178013    -0.6759836   -0.5921234    -0.6772037   -0.5912438    -0.1506610    0.1223224 
   0.300000000    -0.1370222    0.1186648    -0.7240953   -0.5347354    -0.7234612   -0.5341747    -0.1313442    0.1242222 
   0.310000000    -0.1190377    0.1188361    -0.7656004   -0.4752802    -0.7654564   -0.4747703    -0.1123224    0.1221953 
   0.320000000    -0.1001379    0.1150938    -0.8028240   -0.4099675    -0.8032963   -0.4109956    -0.0939098    0.1176446 
   0.330000000    -0.0818871    0.1063537    -0.8349118   -0.3433103    -0.8353336   -0.3432662    -0.0764831    0.1100685 
   0.340000000    -0.0685390    0.0960138    -0.8625016   -0.2721846    -0.8631424   -0.2730667    -0.0612579    0.0992149 
   0.350000000    -0.0548376    0.0859462    -0.8822853   -0.1990568    -0.8827707   -0.1990014    -0.0477821    0.0871186 
   0.360000000    -0.0415924    0.0721612    -0.8972191   -0.1248606    -0.8978443   -0.1257428    -0.0359211    0.0728589 
   0.370000000    -0.0333697    0.0540697    -0.9052088   -0.0479633    -0.9042068   -0.0482226    -0.0270245    0.0560283 
   0.380000000    -0.0287203    0.0373159    -0.9066976    0.0274834    -0.9060621    0.0284816    -0.0211902    0.0381151 
   0.390000000    -0.0253269    0.0191850    -0.9001999    0.1037473    -0.9012066    0.1032174    -0.0183921    0.0183483 
   0.400000000    -0.0263718    0.0002723    -0.8874136    0.1801866    -0.8875475    0.1803112    -0.0208562   -0.0005424 
   0.410000000    -0.0302307   -0.0161127    -0.8686020    0.2546504    -0.8688992    0.2556785    -0.0246852   -0.0165616 
   0.420000000    -0.0352377   -0.0331125    -0.8421750    0.3274578    -0.8414714    0.3277124    -0.0294509   -0.0341457 
   0.430000000    -0.0447581   -0.0491779    -0.8111032    0.3954995    -0.8105168    0.3960864    -0.0394163   -0.0511667 
   0.440000000    -0.0573115   -0.0615019    -0.7725227    0.4619755    -0.7733204    0.4618870    -0.0528382   -0.0640832 
   0.450000000    -0.0706546   -0.0732636    -0.7281295    0.5252138    -0.7286726    0.5251809    -0.0668650   -0.0751047 
   0.460000000    -0.0876760   -0.0837122    -0.6796538    0.5831349    -0.6790961    0.5831829    -0.0838647   -0.0852140 
   0.470000000    -0.1059223   -0.0894270    -0.6270894    0.6364046    -0.6269636    0.6350226    -0.1029973   -0.0914480 
   0.480000000    -0.1230441   -0.0910575    -0.5696923    0.6850028    -0.5697286    0.6840588    -0.1215188   -0.0929489 
   0.490000000    -0.1392542   -0.0911421    -0.5104359    0.7257739    -0.5077197    0.7256512    -0.1388368   -0.0933057 
   0.500000000    -0.1567865   -0.0905753    -0.4442007    0.7630748    -0.4447933    0.7630519    -0.1552432   -0.0910156 
   0.510000000    -0.1763784   -0.0852438    -0.3788624    0.7949694    -0.3786527    0.7931065    -0.1735631   -0.0872803 
   0.520000000    -0.1929140   -0.0746220    -0.3119713    0.8196485    -0.3116773    0.8199383    -0.1921002   -0.0781348 
   0.530000000    -0.2063213   -0.0641219    -0.2433690    0.8406384    -0.2449938    0.8382906    -0.2058602   -0.0643162 
   0.540000000    -0.2188371   -0.0542039    -0.1735680    0.8545229    -0.1726697    0.8543696    -0.2166580   -0.0523965 
   0.550000000    -0.2313442   -0.0381018    -0.1044037    0.8624796    -0.1045424    0.8613008    -0.2278510   -0.0393053 
   0.560000000    -0.2360206   -0.0202456    -0.0341644    0.8645352    -0.0345680    0.8666545    -0.2364813   -0.0218958 
   0.570000000    -0.2397762   -0.0067590     0.0336747    0.8626999     0.0345214    0.8634242    -0.2404850   -0.0045231 
   0.580000000    -0.2482416    0.0103402     0.1028431    0.8544729     0.1032597    0.8563588    -0.2436579    0.0122487 
   0.590000000    -0.2481633    0.0334497     0.1698745    0.8430219     0.1705558    0.8398284    -0.2459711    0.0304332 
   0.600000000    -0.2425527    0.0500384     0.2375948    0.8251207     0.2349025    0.8246363    -0.2440661    0.0511494 
   0.610000000    -0.2383400    0.0637487     0.3013256    0.8035383     0.3023536    0.8023512    -0.2361997    0.0687199 
   0.620000000    -0.2329201    0.0804424     0.3654501    0.7755546     0.3642618    0.7747979    -0.2262618    0.0815112 
   0.630000000    -0.2209389    0.0962327     0.4249539    0.7430854     0.4249879    0.7443597    -0.2186094    0.0935004 
   0.640000000    -0.2069420    0.1073872     0.4827746    0.7062203     0.4839684    0.7077715    -0.2082013    0.1106496 
   0.650000000    -0.1955812    0.1166904     0.5364879    0.6667581     0.5370924    0.6670656    -0.1908409    0.1221098 
   0.660000000    -0.1824926    0.1293496     0.5889952    0.6231844     0.5913327    0.6211488    -0.1751947    0.1286930 
   0.670000000    -0.1635559    0.1360396     0.6390153    0.5725957     0.6376245    0.5726853    -0.1612278    0.1346946 
   0.680000000    -0.1454813    0.1350427     0.6820610    0.5193140     0.6836937    0.5204871    -0.1439249    0.1400077 
   0.690000000    -0.1317397    0.1331039     0.7229043    0.4657330     0.7268538    0.4646759    -0.1235533    0.1386811 
   0.700000000    -0.1151708    0.1351118     0.7610248    0.4043741     0.7611839    0.4046724    -0.1074533    0.1326757 
   0.710000000    -0.0947274    0.1319340     0.7911484    0.3405074     0.7935548    0.3415863    -0.0943387    0.1290479 
   0.720000000    -0.0802312    0.1216003     0.8185267    0.2740963     0.8171858    0.2761874    -0.0788897    0.1253581 
   0.730000000    -0.0687541    0.1138630     0.8406727    0.2060965     0.8404409    0.2074807    -0.0600380    0.1166958 
   0.740000000    -0.0540738    0.1031397     0.8553231    0.1372941     0.8548926    0.1349522    -0.0466702    0.1011188 
   0.750000000    -0.0433230    0.0861684     0.8647351    0.0633445     0.8643180    0.0654818    -0.0413426    0.0843613 
   0.760000000    -0.0383899    0.0697464     0.8681526   -0.0090374     0.8693203   -0.0078158    -0.0362712    0.0719893 
   0.770000000    -0.0334075    0.0556914     0.8641965   -0.0820115     0.8642494   -0.0822952    -0.0273671    0.0559325 
   0.780000000    -0.0298190    0.0388398     0.8554127   -0.1546267     0.8548079   -0.1538960    -0.0261411    0.0353920 
   0.790000000    -0.0310773    0.0214778     0.8387170   -0.2255009     0.8379266   -0.2252063    -0.0293709    0.0199629 
   0.800000000    -0.0359394    0.0054888     0.8162442   -0.2941751     0.8159037   -0.2950374    -0.0304300    0.0058980 
   0.810000000    -0.0413542   -0.0117516     0.7873561   -0.3623923     0.7870963   -0.3640615    -0.0353181   -0.0134262 
   0.820000000    -0.0513504   -0.0288947     0.7526258   -0.4256816     0.7510562   -0.4266583    -0.0486753   -0.0317690 
   0.830000000    -0.0658978   -0.0399075     0.7164471   -0.4887716     0.7130877   -0.4894356    -0.0651441   -0.0414326 
   0.840000000    -0.0776056   -0.0471691     0.6670018   -0.5472139     0.6686257   -0.5458205    -0.0749108   -0.0484842 
   0.850000000    -0.0899100   -0.0561645     0.6177896   -0.5977227     0.6187786   -0.5972686    -0.0867019   -0.0588984 
   0.860000000    -0.1088950   -0.0652975     0.5643158   -0.6466534     0.5637312   -0.6473978    -0.1053682   -0.0683972 
   0.870000000    -0.1291663   -0.0645033     0.5064197   -0.6890747     0.5059732   -0.6879966    -0.1262311   -0.0678347 
   0.880000000    -0.1431312   -0.0630148     0.4479565   -0.7266769     0.4466052   -0.7258090    -0.1417081   -0.0654786 
   0.890000000    -0.1596780   -0.0649077     0.3848395   -0.7593316     0.3824375   -0.7574438    -0.1571944   -0.0646260 
   0.900000000    -0.1805543   -0.0584870     0.3180202   -0.7847869     0.3207579   -0.7827154    -0.1776764   -0.0605292 
   0.910000000    -0.1938811   -0.0453244     0.2526040   -0.8059589     0.2542234   -0.8063129    -0.1946204   -0.0484012 
   0.920000000    -0.2028685   -0.0357518     0.1838890   -0.8207018     0.1865049   -0.8210077    -0.2039576   -0.0373315 
   0.930000000    -0.2174335   -0.0282354     0.1176862   -0.8300769     0.1174185   -0.8314177    -0.2136015   -0.0288235 
   0.940000000    -0.2324602   -0.0113075     0.0490440   -0.8350670     0.0498679   -0.8330141    -0.2278702   -0.0166399 
   0.950000000    -0.2369628    0.0074303    -0.0180812   -0.8333277    -0.0155555   -0.8315294    -0.2381064    0.0035983 
   0.960000000    -0.2396751    0.0223144    -0.0840615   -0.8277123    -0.0814215   -0.8277587    -0.2395634    0.0243175 
   0.970000000    -0.2439713    0.0365743    -0.1503700   -0.8170548    -0.1483785   -0.8160761    -0.2399427    0.0374484 
   0.980000000    -0.2457200    0.0573617    -0.2147029   -0.7985131    -0.2120609   -0.8013422    -0.2421744    0.0511609 
   0.990000000    -0.2397210    0.0754869    -0.2744239   -0.7773513    -0.2740128   -0.7814249    -0.2433774    0.0714528 
   1.000000000    -0.2343126    0.0878936    -0.3357773   -0.7537059    -0.3352447   -0.7539042    -0.2340817    0.0892327 
   1.010000000    -0.2322260    0.1036823    -0.3944175   -0.7235355    -0.3952381   -0.7238157    -0.2263543    0.1005837 
   1.020000000    -0.2213272    0.1233241    -0.4509264   -0.6911995    -0.4479753   -0.6896158    -0.2208481    0.1159053 
   1.030000000    -0.2049202    0.1331676    -0.5046966   -0.6499501    -0.5015878   -0.6545358    -0.2075104    0.1339415 
   1.040000000    -0.1915931    0.1400776    -0.5536845   -0.6100931    -0.5533373   -0.6127965    -0.1898959    0.1431800 
   1.050000000    -0.1817888    0.1503346    -0.6016297   -0.5639942    -0.6016277   -0.5663245    -0.1760291    0.1473619 
   1.060000000    -0.1621328    0.1599482    -0.6434365   -0.5138794    -0.6459324   -0.5166869    -0.1657269    0.1523379 
   1.070000000    -0.1445957    0.1590473    -0.6845084   -0.4622231    -0.6860108   -0.4617431    -0.1493050    0.1618789 
   1.080000000    -0.1316787    0.1604804    -0.7207702   -0.4062386    -0.7203797   -0.4056398    -0.1271313    0.1630629 
   1.090000000    -0.1141380    0.1621876    -0.7533741   -0.3472076    -0.7528724   -0.3462124    -0.1102464    0.1565091 
   1.100000000    -0.0936738    0.1566302    -0.7806715   -0.2841936    -0.7791904   -0.2866745    -0.0971033    0.1521688 
   1.110000000    -0.0791938    0.1451000    -0.8011339   -0.2189116    -0.8046667   -0.2212383    -0.0828951    0.1502104 
   1.120000000    -0.0689930    0.1374906    -0.8167562   -0.1541818    -0.8194671   -0.1536597    -0.0637080    0.1396135 
   1.130000000    -0.0555655    0.1308034    -0.8300457   -0.0859362    -0.8306292   -0.0849173    -0.0524098    0.1228500 
   1.140000000    -0.0412927    0.1152589    -0.8354324   -0.0171370    -0.8360803   -0.0172640    -0.0478126    0.1113707 
   1.150000000    -0.0358171    0.0967215    -0.8352726    0.0525122    -0.8356596    0.0525230    -0.0378813    0.1023375 
   1.160000000    -0.0327368    0.0836828    -0.8284432    0.1218644    -0.8293759    0.1219693    -0.0271802    0.0849754 
   1.170000000    -0.0282116    0.0677938    -0.8167295    0.1912643    -0.8160710    0.1909943    -0.0263942    0.0631492 
   1.180000000    -0.0282345    0.0473153    -0.7974288    0.2601722    -0.7984036    0.2579837    -0.0324819    0.0461326 
   1.190000000    -0.0355478    0.0316484    -0.7724828    0.3257393    -0.7738819    0.3264123    -0.0353979    0.0349451 
   1.200000000    -0.0393303    0.0188983    -0.7413308    0.3903026    -0.7418187    0.3885681    -0.0361657    0.0178001 
   1.210000000    -0.0457914    0.0010351    -0.7056537    0.4516644    -0.7064946    0.4508199    -0.0454116   -0.0014342 
   1.220000000    -0.0606878   -0.0126625    -0.6644272    0.5085120    -0.6642992    0.5067248    -0.0600468   -0.0120374 
   1.230000000    -0.0740731   -0.0198328    -0.6187198    0.5626135    -0.6189511    0.5606611    -0.0711602   -0.0191480 
   1.240000000    -0.0862299   -0.0299405    -0.5670493    0.6106887    -0.5669882    0.6104668    -0.0837799   -0.0302182 
   1.250000000    -0.1053318   -0.0391759    -0.5129864    0.6536899    -0.5122940    0.6541072    -0.1042268   -0.0383749 
   1.260000000    -0.1255886   -0.0388388    -0.4557586    0.6927068    -0.4562034    0.6920285    -0.1232636   -0.0379576 
   1.270000000    -0.1386472   -0.0373184    -0.3952282    0.7260712    -0.3961163    0.7248268    -0.1368322   -0.0374724 
   1.280000000    -0.1540301   -0.0396320    -0.3318057    0.7550116    -0.3325146    0.7533545    -0.1521713   -0.0391495 
   1.290000000    -0.1758489   -0.0355118    -0.2651216    0.7765833    -0.2686931    0.7751078    -0.1724679   -0.0356264 
   1.300000000    -0.1933053   -0.0216446    -0.2031695    0.7915739    -0.2035409    0.7903858    -0.1900069   -0.0233555 
   1.310000000    -0.2017773   -0.0101569    -0.1352226    0.8048652    -0.1389969    0.8038847    -0.2004324   -0.0102581 
   1.320000000    -0.2146918   -0.0041891    -0.0692920    0.8091806    -0.0707990    0.8098806    -0.2111841   -0.0024618 
   1.330000000    -0.2321816    0.0105773    -0.0030903    0.8094288    -0.0052726    0.8093358    -0.2266801    0.0085998 
   1.340000000    -0.2393152    0.0324359     0.0608027    0.8023379     0.0594015    0.8037215    -0.2380519    0.0285507 
   1.350000000    -0.2381686    0.0469241     0.1240162    0.7948639     0.1225337    0.7941672    -0.2390177    0.0479377 
   1.360000000    -0.2445962    0.0586085     0.1868625    0.7807023     0.1868595    0.7798272    -0.2394768    0.0608310 
   1.370000000    -0.2504928    0.0811116     0.2497584    0.7601631     0.2448394    0.7604655    -0.2444690    0.0774650 
   1.380000000    -0.2439852    0.1036142     0.3072000    0.7333919     0.3057681    0.7375450    -0.2455837    0.0998766 
   1.390000000    -0.2365644    0.1162769     0.3627013    0.7093481     0.3625455    0.7094732    -0.2376506    0.1180751 
   1.400000000    -0.2353795    0.1297190     0.4178340    0.6754889     0.4168958    0.6776556    -0.2303372    0.1304372 
   1.410000000    -0.2281843    0.1505685     0.4694639    0.6420402     0.4667991    0.6418794    -0.2237474    0.1444537 
   1.420000000    -0.2112005    0.1640770     0.5179224    0.6000291     0.5174194    0.6044534    -0.2131533    0.1615626 
   1.430000000    -0.1982647    0.1722745     0.5628369    0.5590843     0.5629839    0.5597011    -0.1959018    0.1746162 
   1.440000000    -0.1873882    0.1829602     0.6063917    0.5127192     0.6038989    0.5143213    -0.1813795    0.1824231 
   1.450000000    -0.1697336    0.1954977     0.6447123    0.4614745     0.6438182    0.4649245    -0.1696565    0.1906887 
   1.460000000    -0.1507157    0.1984069     0.6786209    0.4108955     0.6807290    0.4138669    -0.1538115    0.1997110 
   1.470000000    -0.1372705    0.1988519     0.7101970    0.3564310     0.7119191    0.3561791    -0.1322548    0.2016890 
   1.480000000    -0.1218746    0.2027373     0.7401546    0.2981044     0.7381513    0.3001285    -0.1158535    0.1971286 
   1.490000000    -0.0997140    0.2016001     0.7612476    0.2383206     0.7610348    0.2415251    -0.1009769    0.1961299 
   1.500000000    -0.0823921    0.1914102     0.7788947    0.1754278     0.7823176    0.1786772    -0.0823827    0.1954725 
   1.510000000    -0.0718263    0.1853709     0.7912943    0.1128761     0.7940702    0.1125778    -0.0615471    0.1871558 
   1.520000000    -0.0568863    0.1811487     0.8022342    0.0499118     0.8003611    0.0500402    -0.0500901    0.1735671 
