! 2/21/2025 7:12:45 AM
! Z:\OQC\AD5\613\LOT-141-0825\SINGLE\2-L18-4.S2P
! CHANNEL.1
! TR.MEASUREMENT
! CORRECTED.DATA
! RF.CORRECTION: FULL.FOUR.PORT.CAL.PORT.1.2.3.4
! AVERAGING.OFF
! IF.BANDWIDTH: 1KHZ
! SWEEPTYPE:  FREQ.SWEEP(Linear)
! Reference Plane Port Info
! PORT:              PORT1              PORT2             
! DISTANCE:          0  m               0  m              
! TIME:              0  s               0  s              
! PHASE.OFFSET:      0 °                0 °               
! LOSS:              0  dB              0  dB             
! REF.LOSS:          0  dB              0  dB             
! REF.FREQ:          0  Hz              0  Hz             
! Power Info
! POWER:             -10  dBm           -10  dBm          
! EFF.POWER:         -10  dBm           -10  dBm          
! SOURCE.ATTEN:      0  dB              0  dB             
! TEST.ATTEN:        0  dB              0  dB             
# GHZ S RI R 50.0
! FREQ.GHZ         S11RE         S11IM         S21RE         S21IM         S12RE         S12IM         S22RE         S22IM         
!; PortSelection: Port_12
   0.010000000     0.0076974   -0.0076667     0.9906834   -0.0464132     0.9902311   -0.0460907     0.0079860   -0.0075106 
   0.020000000     0.0093985   -0.0190454     0.9860176   -0.0930356     0.9861247   -0.0929461     0.0096397   -0.0186566 
   0.030000000     0.0073097   -0.0310241     0.9781761   -0.1388031     0.9787570   -0.1386293     0.0074649   -0.0306359 
   0.040000000     0.0039714   -0.0405394     0.9694133   -0.1836639     0.9698790   -0.1835870     0.0038928   -0.0401922 
   0.050000000     0.0021459   -0.0498175     0.9573364   -0.2281439     0.9582897   -0.2286810     0.0016307   -0.0491115 
   0.060000000    -0.0010310   -0.0610886     0.9453660   -0.2715968     0.9450377   -0.2717181    -0.0015241   -0.0601644 
   0.070000000    -0.0066927   -0.0723586     0.9298991   -0.3148226     0.9301992   -0.3150402    -0.0073123   -0.0710098 
   0.080000000    -0.0131639   -0.0814106     0.9126595   -0.3559553     0.9130563   -0.3559726    -0.0143742   -0.0798377 
   0.090000000    -0.0192487   -0.0896046     0.8930461   -0.3961261     0.8939056   -0.3962050    -0.0208963   -0.0874804 
   0.100000000    -0.0258042   -0.0986713     0.8723004   -0.4354009     0.8726335   -0.4354130    -0.0278440   -0.0959325 
   0.110000000    -0.0348152   -0.1078423     0.8505163   -0.4745864     0.8505915   -0.4743042    -0.0370626   -0.1046595 
   0.120000000    -0.0450279   -0.1142367     0.8266274   -0.5102514     0.8251662   -0.5108109    -0.0481281   -0.1107790 
   0.130000000    -0.0541289   -0.1195489     0.8004169   -0.5457354     0.8001854   -0.5466087    -0.0573753   -0.1154613 
   0.140000000    -0.0628255   -0.1256132     0.7735713   -0.5808632     0.7734966   -0.5803192    -0.0659869   -0.1215062 
   0.150000000    -0.0738409   -0.1315807     0.7448346   -0.6140507     0.7434140   -0.6134920    -0.0775626   -0.1269279 
   0.160000000    -0.0859353   -0.1347154     0.7136983   -0.6450997     0.7145236   -0.6440973    -0.0897471   -0.1292643 
   0.170000000    -0.0972811   -0.1363149     0.6844276   -0.6733574     0.6829103   -0.6735355    -0.1009535   -0.1300216 
   0.180000000    -0.1074369   -0.1370932     0.6511651   -0.7020536     0.6522876   -0.7015371    -0.1120771   -0.1308041 
   0.190000000    -0.1186045   -0.1394876     0.6178035   -0.7279195     0.6178421   -0.7283749    -0.1239343   -0.1315302 
   0.200000000    -0.1315973   -0.1401481     0.5843000   -0.7529903     0.5847413   -0.7528770    -0.1362742   -0.1313951 
   0.210000000    -0.1436475   -0.1376971     0.5498288   -0.7752575     0.5500993   -0.7758746    -0.1486996   -0.1290455 
   0.220000000    -0.1531876   -0.1354265     0.5142148   -0.7965084     0.5141965   -0.7964728    -0.1594197   -0.1259408 
   0.230000000    -0.1641799   -0.1346917     0.4772243   -0.8161434     0.4762200   -0.8171707    -0.1699398   -0.1231429 
   0.240000000    -0.1771352   -0.1308252     0.4399364   -0.8326758     0.4384785   -0.8347257    -0.1813191   -0.1185011 
   0.250000000    -0.1876859   -0.1239363     0.4034628   -0.8494906     0.4026424   -0.8486180    -0.1919026   -0.1120027 
   0.260000000    -0.1957383   -0.1188582     0.3646414   -0.8647477     0.3640281   -0.8646291    -0.2011653   -0.1052817 
   0.270000000    -0.2058761   -0.1149264     0.3265726   -0.8769076     0.3252445   -0.8784264    -0.2102779   -0.0987788 
   0.280000000    -0.2162403   -0.1078713     0.2881948   -0.8874201     0.2872115   -0.8879747    -0.2194456   -0.0912699 
   0.290000000    -0.2247801   -0.0986200     0.2487614   -0.8979625     0.2477409   -0.8979188    -0.2278932   -0.0826371 
   0.300000000    -0.2315847   -0.0910518     0.2090724   -0.9056836     0.2096890   -0.9053855    -0.2354773   -0.0733502 
   0.310000000    -0.2391330   -0.0833897     0.1705399   -0.9112005     0.1712098   -0.9115816    -0.2419154   -0.0633161 
   0.320000000    -0.2470590   -0.0742487     0.1316797   -0.9163585     0.1304820   -0.9159823    -0.2477902   -0.0528982 
   0.330000000    -0.2526839   -0.0630027     0.0926287   -0.9199706     0.0934061   -0.9182946    -0.2532986   -0.0426343 
   0.340000000    -0.2554197   -0.0540063     0.0537255   -0.9215219     0.0539491   -0.9213811    -0.2569799   -0.0314574 
   0.350000000    -0.2601561   -0.0449804     0.0158208   -0.9209788     0.0142770   -0.9201230    -0.2599466   -0.0208682 
   0.360000000    -0.2658860   -0.0340979    -0.0248969   -0.9183212    -0.0242740   -0.9191051    -0.2628815   -0.0098874 
   0.370000000    -0.2680101   -0.0221053    -0.0615659   -0.9153964    -0.0620103   -0.9146953    -0.2648893    0.0018658 
   0.380000000    -0.2691152   -0.0117321    -0.0998667   -0.9115649    -0.1006364   -0.9109772    -0.2658193    0.0138107 
   0.390000000    -0.2705394   -0.0008238    -0.1385889   -0.9051576    -0.1365288   -0.9052080    -0.2659557    0.0263853 
   0.400000000    -0.2703510    0.0104325    -0.1770211   -0.8974719    -0.1742806   -0.8972315    -0.2632947    0.0379659 
   0.410000000    -0.2692601    0.0199790    -0.2135261   -0.8875858    -0.2133615   -0.8890573    -0.2615026    0.0473518 
   0.420000000    -0.2688539    0.0302793    -0.2506276   -0.8776118    -0.2505831   -0.8771335    -0.2603440    0.0589376 
   0.430000000    -0.2664950    0.0423497    -0.2846435   -0.8655843    -0.2851875   -0.8659787    -0.2566826    0.0712053 
   0.440000000    -0.2633810    0.0522044    -0.3213739   -0.8522196    -0.3209211   -0.8534849    -0.2512514    0.0820760 
   0.450000000    -0.2610314    0.0618440    -0.3562553   -0.8375161    -0.3572532   -0.8369563    -0.2471280    0.0914145 
   0.460000000    -0.2570872    0.0727939    -0.3918453   -0.8213757    -0.3913878   -0.8217272    -0.2421902    0.1023415 
   0.470000000    -0.2503490    0.0825264    -0.4260487   -0.8055785    -0.4233117   -0.8057793    -0.2339076    0.1129474 
   0.480000000    -0.2436699    0.0890193    -0.4583452   -0.7865654    -0.4571341   -0.7882143    -0.2255720    0.1201583 
   0.490000000    -0.2390832    0.0966701    -0.4897998   -0.7667748    -0.4924448   -0.7658764    -0.2185284    0.1273689 
   0.500000000    -0.2333708    0.1063418    -0.5213922   -0.7440804    -0.5237651   -0.7437324    -0.2111771    0.1345288 
   0.510000000    -0.2255846    0.1159813    -0.5534156   -0.7227933    -0.5515877   -0.7224277    -0.2036478    0.1434968 
   0.520000000    -0.2158201    0.1216720    -0.5833456   -0.6989439    -0.5832652   -0.6997594    -0.1926752    0.1513362 
   0.530000000    -0.2085567    0.1256095    -0.6133302   -0.6732826    -0.6121835   -0.6741157    -0.1810536    0.1541858 
   0.540000000    -0.2019200    0.1312107    -0.6408587   -0.6486040    -0.6407886   -0.6479130    -0.1724838    0.1572495 
   0.550000000    -0.1902478    0.1372755    -0.6670126   -0.6203323    -0.6685086   -0.6208911    -0.1632828    0.1614654 
   0.560000000    -0.1790630    0.1378320    -0.6931178   -0.5923974    -0.6949909   -0.5923568    -0.1500726    0.1655606 
   0.570000000    -0.1735988    0.1406029    -0.7182638   -0.5631548    -0.7191995   -0.5629154    -0.1390565    0.1662307 
   0.580000000    -0.1645520    0.1489419    -0.7407609   -0.5336962    -0.7417636   -0.5325265    -0.1297588    0.1686194 
   0.590000000    -0.1491914    0.1503676    -0.7660696   -0.5006223    -0.7642220   -0.5011652    -0.1185232    0.1717786 
   0.600000000    -0.1408445    0.1461969    -0.7858791   -0.4677031    -0.7856637   -0.4683434    -0.1048128    0.1711408 
   0.610000000    -0.1352249    0.1462200    -0.8057982   -0.4341802    -0.8077326   -0.4324299    -0.0945242    0.1665891 
   0.620000000    -0.1236708    0.1486577    -0.8242486   -0.3988676    -0.8238744   -0.3984999    -0.0848084    0.1615432 
   0.630000000    -0.1111573    0.1450540    -0.8410044   -0.3642347    -0.8427278   -0.3644680    -0.0781043    0.1605873 
   0.640000000    -0.1033754    0.1407135    -0.8563358   -0.3272129    -0.8589999   -0.3270387    -0.0639413    0.1605864 
   0.650000000    -0.0962282    0.1394860    -0.8710333   -0.2917578    -0.8719199   -0.2916689    -0.0514255    0.1531605 
   0.660000000    -0.0856027    0.1391808    -0.8827407   -0.2536485    -0.8851215   -0.2517777    -0.0450483    0.1462150 
   0.670000000    -0.0748064    0.1320631    -0.8943526   -0.2153765    -0.8939465   -0.2150816    -0.0378136    0.1425299 
   0.680000000    -0.0691359    0.1227372    -0.9024174   -0.1755403    -0.9038590   -0.1758971    -0.0269303    0.1371224 
   0.690000000    -0.0669791    0.1180724    -0.9112428   -0.1377205    -0.9131938   -0.1362220    -0.0191560    0.1257293 
   0.700000000    -0.0564273    0.1155291    -0.9177865   -0.0969579    -0.9175442   -0.0966808    -0.0156730    0.1152402 
   0.710000000    -0.0458080    0.1068974    -0.9208801   -0.0580052    -0.9217526   -0.0557780    -0.0117523    0.1093383 
   0.720000000    -0.0436518    0.0978810    -0.9242553   -0.0162534    -0.9225366   -0.0166175    -0.0035977    0.1040777 
   0.730000000    -0.0400797    0.0934526    -0.9243459    0.0237027    -0.9245415    0.0250747     0.0048298    0.0937767 
   0.740000000    -0.0324756    0.0856579    -0.9221182    0.0653326    -0.9213401    0.0660352     0.0078955    0.0800644 
   0.750000000    -0.0298732    0.0726797    -0.9189774    0.1051796    -0.9181361    0.1051710     0.0055248    0.0689659 
   0.760000000    -0.0306488    0.0642555    -0.9141123    0.1468681    -0.9148484    0.1477890     0.0061603    0.0636624 
   0.770000000    -0.0279066    0.0572802    -0.9063159    0.1858353    -0.9060611    0.1870363     0.0115980    0.0518329 
   0.780000000    -0.0251472    0.0487503    -0.8995944    0.2267591    -0.8979682    0.2256909     0.0102029    0.0391188 
   0.790000000    -0.0250219    0.0396228    -0.8874512    0.2669152    -0.8865123    0.2645155     0.0073027    0.0310650 
   0.800000000    -0.0264374    0.0315459    -0.8742616    0.3034268    -0.8735120    0.3043559     0.0089845    0.0245978 
   0.810000000    -0.0269274    0.0211359    -0.8595109    0.3438894    -0.8588375    0.3458350     0.0077010    0.0105343 
   0.820000000    -0.0297040    0.0097009    -0.8426921    0.3799234    -0.8423582    0.3811870     0.0020116   -0.0033823 
   0.830000000    -0.0358229    0.0024641    -0.8284543    0.4179898    -0.8259066    0.4199355    -0.0088260   -0.0100153 
   0.840000000    -0.0381492   -0.0017875    -0.8053138    0.4556069    -0.8053925    0.4549441    -0.0111291   -0.0139165 
   0.850000000    -0.0388773   -0.0094722    -0.7836542    0.4886757    -0.7836442    0.4890405    -0.0115331   -0.0226408 
   0.860000000    -0.0447684   -0.0214074    -0.7612964    0.5248386    -0.7608159    0.5256990    -0.0185409   -0.0361525 
   0.870000000    -0.0553136   -0.0260960    -0.7350265    0.5570450    -0.7344562    0.5566074    -0.0304932   -0.0421269 
   0.880000000    -0.0598429   -0.0284753    -0.7114133    0.5885700    -0.7100153    0.5881523    -0.0379144   -0.0446429 
   0.890000000    -0.0629210   -0.0380841    -0.6837924    0.6192359    -0.6830310    0.6189659    -0.0431483   -0.0505572 
   0.900000000    -0.0741331   -0.0467671    -0.6545282    0.6459078    -0.6537963    0.6451079    -0.0543102   -0.0599875 
   0.910000000    -0.0846762   -0.0449068    -0.6257133    0.6749488    -0.6264946    0.6760035    -0.0676516   -0.0618398 
   0.920000000    -0.0872921   -0.0452717    -0.5919101    0.7013460    -0.5938308    0.7007506    -0.0746859   -0.0604851 
   0.930000000    -0.0923675   -0.0535531    -0.5608848    0.7254156    -0.5614924    0.7262434    -0.0786879   -0.0638940 
   0.940000000    -0.1069423   -0.0586191    -0.5266268    0.7497116    -0.5269737    0.7506788    -0.0882916   -0.0708831 
   0.950000000    -0.1176287   -0.0553106    -0.4924748    0.7706033    -0.4926007    0.7680309    -0.1038005   -0.0718675 
   0.960000000    -0.1228205   -0.0541392    -0.4597109    0.7911594    -0.4583223    0.7892725    -0.1169320   -0.0654527 
   0.970000000    -0.1297649   -0.0572554    -0.4239321    0.8091986    -0.4218829    0.8081787    -0.1216602   -0.0619668 
   0.980000000    -0.1419991   -0.0575902    -0.3846560    0.8252420    -0.3877915    0.8241003    -0.1287777   -0.0641835 
   0.990000000    -0.1512370   -0.0517459    -0.3481948    0.8380179    -0.3514933    0.8401110    -0.1420782   -0.0647705 
   1.000000000    -0.1550107   -0.0485669    -0.3125218    0.8514960    -0.3126871    0.8511438    -0.1523408   -0.0567723 
   1.010000000    -0.1635011   -0.0516289    -0.2753591    0.8631299    -0.2747435    0.8638687    -0.1561905   -0.0520752 
   1.020000000    -0.1781872   -0.0472498    -0.2380116    0.8735045    -0.2355338    0.8714358    -0.1653983   -0.0514666 
   1.030000000    -0.1835896   -0.0365597    -0.1969476    0.8814387    -0.2011247    0.8790583    -0.1795509   -0.0438710 
   1.040000000    -0.1860738   -0.0321806    -0.1609973    0.8876721    -0.1634367    0.8883434    -0.1868034   -0.0309173 
   1.050000000    -0.1938447   -0.0317764    -0.1216922    0.8928267    -0.1232829    0.8916542    -0.1883301   -0.0253466 
   1.060000000    -0.2043226   -0.0232733    -0.0825440    0.8929020    -0.0863820    0.8958120    -0.1927245   -0.0222352 
   1.070000000    -0.2068669   -0.0126874    -0.0452706    0.8954281    -0.0428880    0.8968787    -0.2035847   -0.0177473 
   1.080000000    -0.2098171   -0.0104323    -0.0070103    0.8962802    -0.0066262    0.8948566    -0.2118266   -0.0045177 
   1.090000000    -0.2189233   -0.0045721     0.0303275    0.8937811     0.0322636    0.8916680    -0.2110672    0.0087106 
   1.100000000    -0.2246076    0.0077442     0.0699378    0.8929451     0.0677615    0.8884089    -0.2115751    0.0147695 
   1.110000000    -0.2233936    0.0182527     0.1088365    0.8845875     0.1036397    0.8869242    -0.2182712    0.0204949 
   1.120000000    -0.2240851    0.0224600     0.1442780    0.8761633     0.1435931    0.8818639    -0.2239969    0.0345048 
   1.130000000    -0.2299331    0.0282335     0.1806936    0.8704566     0.1814049    0.8703009    -0.2210516    0.0483264 
   1.140000000    -0.2337655    0.0408520     0.2175008    0.8607282     0.2154093    0.8614278    -0.2171241    0.0528319 
   1.150000000    -0.2305388    0.0523853     0.2529129    0.8522785     0.2526761    0.8508980    -0.2210368    0.0583039 
   1.160000000    -0.2299825    0.0568758     0.2894408    0.8384643     0.2852655    0.8386539    -0.2246344    0.0730693 
   1.170000000    -0.2326840    0.0655013     0.3227037    0.8244172     0.3217672    0.8240364    -0.2191892    0.0872236 
   1.180000000    -0.2304964    0.0770230     0.3572321    0.8103185     0.3528123    0.8104084    -0.2121714    0.0949933 
   1.190000000    -0.2251994    0.0838203     0.3905765    0.7920871     0.3891640    0.7971940    -0.2099599    0.0983905 
   1.200000000    -0.2249679    0.0888496     0.4233188    0.7749254     0.4230158    0.7767239    -0.2109590    0.1088109 
   1.210000000    -0.2242791    0.1001026     0.4549873    0.7560329     0.4543403    0.7563044    -0.2041773    0.1224150 
   1.220000000    -0.2165774    0.1098118     0.4866170    0.7367923     0.4821613    0.7381757    -0.1946829    0.1295205 
   1.230000000    -0.2120210    0.1132825     0.5168704    0.7152951     0.5149913    0.7168648    -0.1904185    0.1337025 
   1.240000000    -0.2107830    0.1211382     0.5449824    0.6921631     0.5446156    0.6937980    -0.1876539    0.1434714 
   1.250000000    -0.2039063    0.1314317     0.5722107    0.6688972     0.5722512    0.6688303    -0.1780569    0.1535145 
   1.260000000    -0.1943917    0.1345034     0.6007448    0.6452959     0.5985673    0.6474137    -0.1668411    0.1560584 
   1.270000000    -0.1904289    0.1354970     0.6269987    0.6185384     0.6273910    0.6212689    -0.1609797    0.1577335 
   1.280000000    -0.1879870    0.1440004     0.6535928    0.5908474     0.6512740    0.5934402    -0.1557160    0.1651805 
   1.290000000    -0.1768986    0.1533286     0.6761736    0.5616634     0.6755547    0.5657924    -0.1441317    0.1740096 
   1.300000000    -0.1645665    0.1541908     0.6989413    0.5364855     0.6983148    0.5365485    -0.1305264    0.1762922 
   1.310000000    -0.1611667    0.1520578     0.7230040    0.5047598     0.7229940    0.5089080    -0.1222068    0.1742121 
   1.320000000    -0.1592411    0.1588165     0.7434215    0.4732291     0.7442905    0.4754231    -0.1188167    0.1766742 
   1.330000000    -0.1470088    0.1662279     0.7612026    0.4421142     0.7634593    0.4441099    -0.1091985    0.1834628 
   1.340000000    -0.1330153    0.1626523     0.7792082    0.4105623     0.7806578    0.4123069    -0.0927109    0.1834957 
   1.350000000    -0.1296038    0.1570704     0.7978613    0.3776554     0.7991636    0.3795945    -0.0813060    0.1768382 
   1.360000000    -0.1265224    0.1632896     0.8147030    0.3431409     0.8147993    0.3434074    -0.0767279    0.1753253 
   1.370000000    -0.1118623    0.1679022     0.8275895    0.3079742     0.8280721    0.3113696    -0.0678293    0.1792918 
   1.380000000    -0.1002765    0.1608801     0.8394853    0.2728062     0.8423967    0.2734973    -0.0537095    0.1783774 
   1.390000000    -0.0994188    0.1552853     0.8531449    0.2378642     0.8532962    0.2385177    -0.0443280    0.1696404 
   1.400000000    -0.0950124    0.1597014     0.8629215    0.1996883     0.8642981    0.2020930    -0.0398285    0.1639750 
   1.410000000    -0.0805788    0.1575303     0.8724202    0.1636617     0.8710547    0.1658236    -0.0319635    0.1614631 
   1.420000000    -0.0729323    0.1470628     0.8774306    0.1255120     0.8805724    0.1267267    -0.0192748    0.1572715 
   1.430000000    -0.0709979    0.1427062     0.8839737    0.0884795     0.8831767    0.0896060    -0.0095180    0.1471867 
   1.440000000    -0.0644160    0.1436101     0.8882974    0.0508889     0.8881722    0.0515338    -0.0060666    0.1395783 
   1.450000000    -0.0538720    0.1376447     0.8881959    0.0107293     0.8903989    0.0127816    -0.0016524    0.1368851 
   1.460000000    -0.0509019    0.1277163     0.8893973   -0.0266220     0.8912157   -0.0260719     0.0076212    0.1306557 
   1.470000000    -0.0508405    0.1239309     0.8873176   -0.0645575     0.8882675   -0.0661016     0.0142922    0.1164081 
   1.480000000    -0.0438695    0.1210091     0.8863193   -0.1043975     0.8863994   -0.1029794     0.0137265    0.1057274 
   1.490000000    -0.0354821    0.1098275     0.8800184   -0.1419520     0.8813471   -0.1407700     0.0168251    0.1004527 
   1.500000000    -0.0370093    0.0982573     0.8739654   -0.1812448     0.8760452   -0.1816668     0.0247898    0.0929087 
   1.510000000    -0.0385528    0.0964244     0.8642479   -0.2187779     0.8658048   -0.2194170     0.0292233    0.0786077 
   1.520000000    -0.0321312    0.0931918     0.8566636   -0.2557749     0.8560453   -0.2551796     0.0245314    0.0671313 
