! 2/21/2025 7:14:57 AM
! Z:\OQC\AD5\613\LOT-141-0825\SINGLE\2-L20-4.S2P
! CHANNEL.1
! TR.MEASUREMENT
! CORRECTED.DATA
! RF.CORRECTION: FULL.FOUR.PORT.CAL.PORT.1.2.3.4
! AVERAGING.OFF
! IF.BANDWIDTH: 1KHZ
! SWEEPTYPE:  FREQ.SWEEP(Linear)
! Reference Plane Port Info
! PORT:              PORT1              PORT2             
! DISTANCE:          0  m               0  m              
! TIME:              0  s               0  s              
! PHASE.OFFSET:      0 °                0 °               
! LOSS:              0  dB              0  dB             
! REF.LOSS:          0  dB              0  dB             
! REF.FREQ:          0  Hz              0  Hz             
! Power Info
! POWER:             -10  dBm           -10  dBm          
! EFF.POWER:         -10  dBm           -10  dBm          
! SOURCE.ATTEN:      0  dB              0  dB             
! TEST.ATTEN:        0  dB              0  dB             
# GHZ S RI R 50.0
! FREQ.GHZ         S11RE         S11IM         S21RE         S21IM         S12RE         S12IM         S22RE         S22IM         
!; PortSelection: Port_12
   0.010000000     0.0086349   -0.0054829     0.9895353   -0.0449124     0.9897596   -0.0448697     0.0089671   -0.0053400 
   0.020000000     0.0104186   -0.0142210     0.9856506   -0.0906639     0.9857502   -0.0904749     0.0109431   -0.0139875 
   0.030000000     0.0086973   -0.0237181     0.9780167   -0.1354534     0.9788759   -0.1356581     0.0094190   -0.0234294 
   0.040000000     0.0060073   -0.0306486     0.9702147   -0.1799061     0.9704537   -0.1794905     0.0068357   -0.0306637 
   0.050000000     0.0049304   -0.0377211     0.9591734   -0.2228803     0.9591438   -0.2229460     0.0059081   -0.0374467 
   0.060000000     0.0027911   -0.0465529     0.9471818   -0.2652788     0.9474962   -0.2655138     0.0042925   -0.0463928 
   0.070000000    -0.0018539   -0.0556436     0.9330912   -0.3079213     0.9334766   -0.3081707     0.0002553   -0.0554248 
   0.080000000    -0.0070964   -0.0623988     0.9168986   -0.3481649     0.9169073   -0.3483070    -0.0048014   -0.0625736 
   0.090000000    -0.0117101   -0.0686574     0.8978760   -0.3882614     0.8993332   -0.3885281    -0.0090580   -0.0688139 
   0.100000000    -0.0166187   -0.0756557     0.8794641   -0.4276900     0.8787606   -0.4271933    -0.0135496   -0.0760215 
   0.110000000    -0.0239150   -0.0830434     0.8580611   -0.4662373     0.8579166   -0.4654479    -0.0201701   -0.0838539 
   0.120000000    -0.0323872   -0.0880526     0.8357798   -0.5024694     0.8348682   -0.5022751    -0.0284637   -0.0893303 
   0.130000000    -0.0396515   -0.0917242     0.8107082   -0.5387037     0.8103865   -0.5385053    -0.0346625   -0.0935759 
   0.140000000    -0.0462174   -0.0963220     0.7855660   -0.5724841     0.7844821   -0.5719665    -0.0405784   -0.0994794 
   0.150000000    -0.0552342   -0.1016328     0.7572049   -0.6063382     0.7563403   -0.6060405    -0.0492107   -0.1054701 
   0.160000000    -0.0651456   -0.1037428     0.7276319   -0.6382034     0.7282035   -0.6361814    -0.0586643   -0.1084314 
   0.170000000    -0.0741700   -0.1042359     0.6981425   -0.6666647     0.6984076   -0.6666164    -0.0668931   -0.1101195 
   0.180000000    -0.0824206   -0.1047251     0.6669635   -0.6962051     0.6675396   -0.6952985    -0.0753316   -0.1117610 
   0.190000000    -0.0913552   -0.1061250     0.6358183   -0.7227497     0.6352234   -0.7226308    -0.0842000   -0.1138699 
   0.200000000    -0.1023178   -0.1065038     0.6017651   -0.7494001     0.6021960   -0.7489139    -0.0940485   -0.1156811 
   0.210000000    -0.1122786   -0.1037573     0.5673516   -0.7730143     0.5674971   -0.7725335    -0.1038854   -0.1152171 
   0.220000000    -0.1195219   -0.1015132     0.5332309   -0.7947085     0.5321836   -0.7945375    -0.1126126   -0.1142633 
   0.230000000    -0.1285762   -0.1007214     0.4955581   -0.8159070     0.4957703   -0.8170649    -0.1207660   -0.1140767 
   0.240000000    -0.1396487   -0.0971400     0.4602169   -0.8338697     0.4585413   -0.8345680    -0.1303768   -0.1120687 
   0.250000000    -0.1481787   -0.0904137     0.4223941   -0.8519163     0.4211816   -0.8514735    -0.1391118   -0.1081425 
   0.260000000    -0.1541508   -0.0859104     0.3848505   -0.8678666     0.3843606   -0.8680470    -0.1471295   -0.1046398 
   0.270000000    -0.1626137   -0.0820857     0.3466924   -0.8813257     0.3467468   -0.8825327    -0.1549137   -0.1009453 
   0.280000000    -0.1712531   -0.0761198     0.3086078   -0.8943607     0.3069723   -0.8943546    -0.1632532   -0.0973056 
   0.290000000    -0.1782327   -0.0676013     0.2701323   -0.9052691     0.2679763   -0.9051126    -0.1709862   -0.0919618 
   0.300000000    -0.1833590   -0.0604791     0.2304773   -0.9148626     0.2298335   -0.9138519    -0.1783735   -0.0861260 
   0.310000000    -0.1890431   -0.0537043     0.1907223   -0.9225602     0.1909999   -0.9209884    -0.1843866   -0.0791897 
   0.320000000    -0.1958419   -0.0452376     0.1509835   -0.9274846     0.1513193   -0.9277557    -0.1905890   -0.0726045 
   0.330000000    -0.2002785   -0.0349137     0.1117009   -0.9325947     0.1118129   -0.9311109    -0.1962426   -0.0660109 
   0.340000000    -0.2017113   -0.0264747     0.0710256   -0.9340173     0.0710657   -0.9351773    -0.2006598   -0.0584757 
   0.350000000    -0.2048832   -0.0190389     0.0310056   -0.9357881     0.0314432   -0.9356993    -0.2047511   -0.0516713 
   0.360000000    -0.2093640   -0.0091510    -0.0079251   -0.9341458    -0.0079281   -0.9351874    -0.2087779   -0.0439424 
   0.370000000    -0.2103207    0.0022071    -0.0473295   -0.9321234    -0.0464956   -0.9320189    -0.2122892   -0.0353454 
   0.380000000    -0.2102588    0.0110624    -0.0858041   -0.9283946    -0.0858768   -0.9281014    -0.2148932   -0.0267011 
   0.390000000    -0.2112910    0.0210628    -0.1247864   -0.9231090    -0.1227191   -0.9228565    -0.2168541   -0.0171771 
   0.400000000    -0.2098965    0.0308768    -0.1624089   -0.9158718    -0.1635461   -0.9158769    -0.2165449   -0.0088884 
   0.410000000    -0.2074710    0.0392879    -0.2019382   -0.9071320    -0.2019126   -0.9080837    -0.2167147   -0.0024959 
   0.420000000    -0.2064332    0.0486279    -0.2387107   -0.8968732    -0.2397415   -0.8971906    -0.2184403    0.0063931 
   0.430000000    -0.2032546    0.0593193    -0.2762470   -0.8854009    -0.2747293   -0.8854639    -0.2177188    0.0161000 
   0.440000000    -0.1991211    0.0680193    -0.3127569   -0.8719261    -0.3123357   -0.8735710    -0.2152698    0.0245009 
   0.450000000    -0.1964505    0.0764342    -0.3482513   -0.8586884    -0.3487077   -0.8582817    -0.2144067    0.0317230 
   0.460000000    -0.1918757    0.0864643    -0.3843729   -0.8427935    -0.3847035   -0.8418438    -0.2127924    0.0407817 
   0.470000000    -0.1840346    0.0942266    -0.4199564   -0.8254190    -0.4169697   -0.8262472    -0.2084496    0.0496805 
   0.480000000    -0.1773034    0.1000946    -0.4539838   -0.8050847    -0.4527457   -0.8070978    -0.2040893    0.0553742 
   0.490000000    -0.1721964    0.1060148    -0.4859439   -0.7870401    -0.4885392   -0.7862704    -0.2002779    0.0609275 
   0.500000000    -0.1664138    0.1139964    -0.5197030   -0.7644240    -0.5187576   -0.7646135    -0.1970259    0.0671553 
   0.510000000    -0.1581973    0.1225096    -0.5503374   -0.7425413    -0.5492051   -0.7423359    -0.1932862    0.0750685 
   0.520000000    -0.1482174    0.1266257    -0.5809942   -0.7192531    -0.5818604   -0.7180493    -0.1863810    0.0823811 
   0.530000000    -0.1407246    0.1294658    -0.6126304   -0.6927621    -0.6119868   -0.6942401    -0.1786174    0.0854111 
   0.540000000    -0.1339338    0.1332189    -0.6399602   -0.6672429    -0.6408740   -0.6675453    -0.1741282    0.0878893 
   0.550000000    -0.1221151    0.1386518    -0.6664696   -0.6395162    -0.6675532   -0.6396563    -0.1690816    0.0933917 
   0.560000000    -0.1107037    0.1376808    -0.6915832   -0.6114987    -0.6950992   -0.6115775    -0.1600206    0.0975017 
   0.570000000    -0.1056085    0.1389671    -0.7191820   -0.5816524    -0.7188492   -0.5824337    -0.1530434    0.0994013 
   0.580000000    -0.0967218    0.1460008    -0.7413614   -0.5525560    -0.7432096   -0.5507984    -0.1481746    0.1030070 
   0.590000000    -0.0814621    0.1466693    -0.7664347   -0.5197048    -0.7654953   -0.5189174    -0.1407490    0.1076590 
   0.600000000    -0.0735494    0.1411970    -0.7868578   -0.4856519    -0.7867185   -0.4870263    -0.1311010    0.1086330 
   0.610000000    -0.0674931    0.1396039    -0.8082501   -0.4539738    -0.8094145   -0.4512801    -0.1234805    0.1061932 
   0.620000000    -0.0569937    0.1405135    -0.8261328   -0.4182800    -0.8265739   -0.4174136    -0.1180128    0.1029254 
   0.630000000    -0.0446319    0.1364671    -0.8438359   -0.3819132    -0.8448700   -0.3828680    -0.1144466    0.1052188 
   0.640000000    -0.0374141    0.1307905    -0.8588543   -0.3476052    -0.8604327   -0.3467659    -0.1042679    0.1079854 
   0.650000000    -0.0309105    0.1285897    -0.8745083   -0.3101535    -0.8746330   -0.3099000    -0.0944820    0.1035121 
   0.660000000    -0.0210073    0.1273736    -0.8859825   -0.2720575    -0.8874351   -0.2722646    -0.0906842    0.1003178 
   0.670000000    -0.0104945    0.1190498    -0.8979456   -0.2328069    -0.8975560   -0.2339519    -0.0858089    0.0998473 
   0.680000000    -0.0054086    0.1084932    -0.9069027   -0.1950073    -0.9080966   -0.1941196    -0.0780540    0.0974616 
   0.690000000    -0.0036389    0.1032868    -0.9161892   -0.1571001    -0.9168915   -0.1558991    -0.0711980    0.0900382 
   0.700000000     0.0061669    0.0998179    -0.9227504   -0.1170384    -0.9219167   -0.1162885    -0.0700506    0.0833858 
   0.710000000     0.0157158    0.0903347    -0.9255159   -0.0775708    -0.9268899   -0.0757723    -0.0670954    0.0819872 
   0.720000000     0.0173855    0.0805686    -0.9286744   -0.0366455    -0.9281795   -0.0378777    -0.0604683    0.0805860 
   0.730000000     0.0205093    0.0752099    -0.9309055    0.0032454    -0.9301420    0.0031556    -0.0519474    0.0747997 
   0.740000000     0.0263979    0.0669950    -0.9294028    0.0448319    -0.9280091    0.0451532    -0.0489396    0.0649074 
   0.750000000     0.0292042    0.0537667    -0.9255892    0.0845069    -0.9252238    0.0838229    -0.0518892    0.0577505 
   0.760000000     0.0279233    0.0440526    -0.9217616    0.1246889    -0.9234605    0.1253653    -0.0516568    0.0565824 
   0.770000000     0.0294199    0.0370377    -0.9151533    0.1632493    -0.9154710    0.1660062    -0.0453727    0.0493408 
   0.780000000     0.0319079    0.0277413    -0.9096838    0.2040495    -0.9076348    0.2041476    -0.0453543    0.0403375 
   0.790000000     0.0311132    0.0172640    -0.8971975    0.2451249    -0.8971538    0.2431550    -0.0474873    0.0356799 
   0.800000000     0.0287414    0.0088984    -0.8865143    0.2806233    -0.8858275    0.2820382    -0.0444496    0.0330399 
   0.810000000     0.0276907   -0.0018171    -0.8726448    0.3210190    -0.8732658    0.3216403    -0.0428277    0.0229261 
   0.820000000     0.0242151   -0.0139353    -0.8570840    0.3559203    -0.8570204    0.3569245    -0.0470796    0.0119553 
   0.830000000     0.0172833   -0.0214824    -0.8438115    0.3947777    -0.8415270    0.3964835    -0.0556574    0.0082898 
   0.840000000     0.0135283   -0.0263117    -0.8222111    0.4330608    -0.8220582    0.4313775    -0.0555102    0.0074875 
   0.850000000     0.0123685   -0.0338054    -0.8020307    0.4657331    -0.8021165    0.4657474    -0.0535156    0.0015898 
   0.860000000     0.0060273   -0.0464971    -0.7814334    0.5016066    -0.7809200    0.5032027    -0.0569006   -0.0092548 
   0.870000000    -0.0057366   -0.0518932    -0.7565556    0.5352089    -0.7568703    0.5351115    -0.0662135   -0.0132409 
   0.880000000    -0.0110534   -0.0544484    -0.7344255    0.5657662    -0.7328226    0.5671965    -0.0711262   -0.0135494 
   0.890000000    -0.0148812   -0.0646284    -0.7086425    0.5971313    -0.7064167    0.5969307    -0.0726457   -0.0188054 
   0.900000000    -0.0267121   -0.0733803    -0.6795163    0.6267110    -0.6795741    0.6253709    -0.0796853   -0.0270447 
   0.910000000    -0.0390096   -0.0723703    -0.6529058    0.6564474    -0.6534219    0.6550587    -0.0905723   -0.0276117 
   0.920000000    -0.0425408   -0.0724960    -0.6199879    0.6832209    -0.6224593    0.6832646    -0.0934275   -0.0262666 
   0.930000000    -0.0484382   -0.0807718    -0.5906546    0.7080729    -0.5906773    0.7093230    -0.0947375   -0.0289452 
   0.940000000    -0.0635627   -0.0869165    -0.5590007    0.7342003    -0.5578858    0.7339782    -0.1004103   -0.0361921 
   0.950000000    -0.0758880   -0.0835808    -0.5255203    0.7555490    -0.5241687    0.7539614    -0.1126074   -0.0380415 
   0.960000000    -0.0821873   -0.0821294    -0.4927106    0.7780659    -0.4919078    0.7766702    -0.1234319   -0.0322215 
   0.970000000    -0.0901173   -0.0853761    -0.4569055    0.7971514    -0.4558713    0.7961678    -0.1254510   -0.0291425 
   0.980000000    -0.1033091   -0.0859099    -0.4210882    0.8151667    -0.4227490    0.8138042    -0.1289831   -0.0327427 
   0.990000000    -0.1141485   -0.0803422    -0.3838926    0.8298229    -0.3864454    0.8311846    -0.1399544   -0.0350989 
   1.000000000    -0.1191672   -0.0765962    -0.3495544    0.8444704    -0.3490074    0.8445328    -0.1476585   -0.0285560 
   1.010000000    -0.1279576   -0.0795912    -0.3129724    0.8574343    -0.3137372    0.8579742    -0.1493779   -0.0256486 
   1.020000000    -0.1442192   -0.0749529    -0.2746272    0.8704354    -0.2723828    0.8680526    -0.1561223   -0.0268954 
   1.030000000    -0.1511889   -0.0643350    -0.2348942    0.8800852    -0.2376196    0.8775095    -0.1688129   -0.0220205 
   1.040000000    -0.1549747   -0.0595490    -0.1985660    0.8872320    -0.2002517    0.8877159    -0.1750860   -0.0120918 
   1.050000000    -0.1638771   -0.0584914    -0.1606481    0.8944194    -0.1610083    0.8938607    -0.1750477   -0.0076125 
   1.060000000    -0.1759556   -0.0495242    -0.1207478    0.8975778    -0.1246481    0.8988808    -0.1782597   -0.0073003 
   1.070000000    -0.1798266   -0.0380100    -0.0838308    0.9014010    -0.0818632    0.9021116    -0.1881955   -0.0060012 
   1.080000000    -0.1836293   -0.0346360    -0.0442586    0.9037250    -0.0445660    0.9013823    -0.1964757    0.0047653 
   1.090000000    -0.1938026   -0.0282951    -0.0068606    0.9029343    -0.0058342    0.9012640    -0.1959280    0.0158196 
   1.100000000    -0.2011081   -0.0153210     0.0317685    0.9028655     0.0311231    0.8983376    -0.1956749    0.0189698 
   1.110000000    -0.2012188   -0.0033109     0.0712474    0.8972024     0.0667367    0.8991159    -0.2029043    0.0221741 
   1.120000000    -0.2025135    0.0020031     0.1072639    0.8900861     0.1077252    0.8948588    -0.2098836    0.0331729 
   1.130000000    -0.2091682    0.0088970     0.1441071    0.8855312     0.1452884    0.8853970    -0.2077455    0.0449014 
   1.140000000    -0.2144997    0.0223540     0.1822926    0.8781554     0.1798540    0.8793185    -0.2048280    0.0471809 
   1.150000000    -0.2121641    0.0356818     0.2181968    0.8704282     0.2164132    0.8697625    -0.2098563    0.0501677 
   1.160000000    -0.2120622    0.0414909     0.2546804    0.8575286     0.2511791    0.8577586    -0.2153152    0.0618646 
   1.170000000    -0.2154051    0.0519619     0.2883301    0.8459418     0.2872500    0.8457346    -0.2126359    0.0751751 
   1.180000000    -0.2139923    0.0647933     0.3253227    0.8325434     0.3196189    0.8326113    -0.2068954    0.0813820 
   1.190000000    -0.2091365    0.0735898     0.3576445    0.8164118     0.3576283    0.8206959    -0.2062909    0.0828748 
   1.200000000    -0.2088550    0.0798929     0.3918471    0.8003121     0.3903678    0.8017978    -0.2099181    0.0913435 
   1.210000000    -0.2088408    0.0926700     0.4241543    0.7821653     0.4238685    0.7818294    -0.2063648    0.1042066 
   1.220000000    -0.2014068    0.1047104     0.4563219    0.7645507     0.4533463    0.7638793    -0.1992486    0.1104416 
   1.230000000    -0.1966548    0.1099638     0.4888414    0.7433153     0.4862488    0.7458165    -0.1975773    0.1138963 
   1.240000000    -0.1954892    0.1194268     0.5176741    0.7209119     0.5172123    0.7227734    -0.1981966    0.1231328 
   1.250000000    -0.1885139    0.1316417     0.5454917    0.6993870     0.5455769    0.7002048    -0.1915210    0.1330831 
   1.260000000    -0.1785406    0.1370572     0.5742916    0.6778508     0.5730789    0.6779450    -0.1830219    0.1363071 
   1.270000000    -0.1738400    0.1395209     0.6017635    0.6510276     0.6012595    0.6541407    -0.1798122    0.1379849 
   1.280000000    -0.1711382    0.1495741     0.6295746    0.6254959     0.6272053    0.6260678    -0.1780019    0.1457318 
   1.290000000    -0.1597593    0.1613238     0.6525385    0.5965884     0.6525417    0.5996602    -0.1699474    0.1557078 
   1.300000000    -0.1461898    0.1646149     0.6768585    0.5720260     0.6753722    0.5726713    -0.1591870    0.1595258 
   1.310000000    -0.1412543    0.1638164     0.7011129    0.5422368     0.7013379    0.5461047    -0.1533526    0.1589557 
   1.320000000    -0.1388114    0.1716925     0.7237413    0.5106587     0.7236282    0.5139860    -0.1529078    0.1625845 
   1.330000000    -0.1258042    0.1812911     0.7422451    0.4810313     0.7440339    0.4825436    -0.1466210    0.1715332 
   1.340000000    -0.1098936    0.1801237     0.7619146    0.4508048     0.7625262    0.4528428    -0.1328356    0.1746819 
   1.350000000    -0.1046006    0.1755407     0.7810804    0.4193550     0.7814676    0.4209777    -0.1233952    0.1707828 
   1.360000000    -0.1005398    0.1828334     0.7994741    0.3851535     0.7988326    0.3853479    -0.1211126    0.1712431 
   1.370000000    -0.0845774    0.1893697     0.8135564    0.3501381     0.8140298    0.3542247    -0.1149067    0.1784374 
   1.380000000    -0.0703082    0.1844609     0.8264804    0.3170199     0.8293211    0.3188002    -0.1028734    0.1811523 
   1.390000000    -0.0668866    0.1794062     0.8408535    0.2832334     0.8414991    0.2848216    -0.0947677    0.1760643 
   1.400000000    -0.0612864    0.1844106     0.8525339    0.2460424     0.8533522    0.2488737    -0.0914398    0.1736172 
   1.410000000    -0.0450763    0.1845899     0.8630891    0.2115780     0.8627798    0.2143968    -0.0850656    0.1747276 
   1.420000000    -0.0341017    0.1751950     0.8714570    0.1750555     0.8734502    0.1763492    -0.0736500    0.1752431 
   1.430000000    -0.0299384    0.1707497     0.8790993    0.1388524     0.8793250    0.1389944    -0.0636891    0.1693559 
   1.440000000    -0.0216324    0.1723500     0.8849067    0.1002606     0.8853437    0.1032068    -0.0604417    0.1657385 
   1.450000000    -0.0079336    0.1675608     0.8871959    0.0631259     0.8891968    0.0643294    -0.0563077    0.1668801 
   1.460000000    -0.0018376    0.1579148     0.8902970    0.0260424     0.8928226    0.0276413    -0.0469452    0.1657647 
   1.470000000     0.0008378    0.1535828     0.8904860   -0.0110909     0.8916737   -0.0120052    -0.0390334    0.1561729 
   1.480000000     0.0099688    0.1513070     0.8917275   -0.0513755     0.8921618   -0.0490049    -0.0383340    0.1491503 
   1.490000000     0.0214346    0.1404983     0.8870958   -0.0880078     0.8893382   -0.0859475    -0.0337899    0.1483699 
   1.500000000     0.0237509    0.1282650     0.8845000   -0.1261657     0.8873289   -0.1254397    -0.0242879    0.1454645 
   1.510000000     0.0245940    0.1250774     0.8781481   -0.1627494     0.8796620   -0.1641328    -0.0171712    0.1359644 
   1.520000000     0.0332117    0.1218970     0.8725606   -0.2006214     0.8722625   -0.1992723    -0.0188664    0.1277474 
