! 2/21/2025 7:10:53 AM
! Z:\OQC\AD5\613\LOT-141-0825\SINGLE\2-L5-8.S2P
! CHANNEL.1
! TR.MEASUREMENT
! CORRECTED.DATA
! RF.CORRECTION: FULL.FOUR.PORT.CAL.PORT.1.2.3.4
! AVERAGING.OFF
! IF.BANDWIDTH: 1KHZ
! SWEEPTYPE:  FREQ.SWEEP(Linear)
! Reference Plane Port Info
! PORT:              PORT1              PORT2             
! DISTANCE:          0  m               0  m              
! TIME:              0  s               0  s              
! PHASE.OFFSET:      0 °                0 °               
! LOSS:              0  dB              0  dB             
! REF.LOSS:          0  dB              0  dB             
! REF.FREQ:          0  Hz              0  Hz             
! Power Info
! POWER:             -10  dBm           -10  dBm          
! EFF.POWER:         -10  dBm           -10  dBm          
! SOURCE.ATTEN:      0  dB              0  dB             
! TEST.ATTEN:        0  dB              0  dB             
# GHZ S RI R 50.0
! FREQ.GHZ         S11RE         S11IM         S21RE         S21IM         S12RE         S12IM         S22RE         S22IM         
!; PortSelection: Port_12
   0.010000000     0.0164889   -0.0119011     0.9785048   -0.0882272     0.9779815   -0.0881293     0.0168879   -0.0117264 
   0.020000000     0.0167773   -0.0288103     0.9634488   -0.1746713     0.9636573   -0.1748794     0.0175234   -0.0286619 
   0.030000000     0.0111312   -0.0459076     0.9402077   -0.2578112     0.9405221   -0.2581995     0.0122790   -0.0458895 
   0.040000000     0.0029855   -0.0595493     0.9113480   -0.3385374     0.9116852   -0.3380916     0.0045526   -0.0600297 
   0.050000000    -0.0054783   -0.0729936     0.8754605   -0.4143444     0.8751760   -0.4149744    -0.0033787   -0.0735508 
   0.060000000    -0.0172272   -0.0863396     0.8333229   -0.4868543     0.8330795   -0.4868741    -0.0141833   -0.0876621 
   0.070000000    -0.0326778   -0.0970192     0.7844586   -0.5549036     0.7847502   -0.5552092    -0.0286776   -0.0990275 
   0.080000000    -0.0486281   -0.1035842     0.7312624   -0.6174448     0.7317489   -0.6175190    -0.0441159   -0.1066412 
   0.090000000    -0.0643901   -0.1080521     0.6727958   -0.6742724     0.6735930   -0.6747944    -0.0591915   -0.1120876 
   0.100000000    -0.0814482   -0.1109594     0.6111722   -0.7260410     0.6115267   -0.7263598    -0.0757516   -0.1163119 
   0.110000000    -0.1003591   -0.1104840     0.5445656   -0.7717732     0.5453104   -0.7716070    -0.0942018   -0.1174318 
   0.120000000    -0.1175775   -0.1054605     0.4763443   -0.8116854     0.4769500   -0.8118438    -0.1117523   -0.1141875 
   0.130000000    -0.1327406   -0.0991146     0.4048550   -0.8453762     0.4049222   -0.8447979    -0.1264538   -0.1099550 
   0.140000000    -0.1472045   -0.0914471     0.3328701   -0.8723510     0.3319972   -0.8718101    -0.1416199   -0.1051168 
   0.150000000    -0.1613585   -0.0804492     0.2582681   -0.8924608     0.2582599   -0.8924860    -0.1566771   -0.0959962 
   0.160000000    -0.1724036   -0.0661986     0.1821527   -0.9073731     0.1835470   -0.9068448    -0.1685510   -0.0836801 
   0.170000000    -0.1802371   -0.0509010     0.1078027   -0.9170946     0.1091114   -0.9160310    -0.1775455   -0.0711054 
   0.180000000    -0.1858383   -0.0360511     0.0310198   -0.9199111     0.0334691   -0.9198479    -0.1853451   -0.0579789 
   0.190000000    -0.1909294   -0.0203808    -0.0421625   -0.9163391    -0.0427906   -0.9164490    -0.1917848   -0.0438620 
   0.200000000    -0.1926993   -0.0026461    -0.1165455   -0.9069514    -0.1167286   -0.9078473    -0.1960390   -0.0284289 
   0.210000000    -0.1897429    0.0141022    -0.1890479   -0.8925796    -0.1888812   -0.8934957    -0.1963190   -0.0132992 
   0.220000000    -0.1854321    0.0280955    -0.2608252   -0.8728290    -0.2610423   -0.8727169    -0.1943714    0.0005500 
   0.230000000    -0.1804043    0.0435897    -0.3303673   -0.8465283    -0.3311999   -0.8465730    -0.1914054    0.0146268 
   0.240000000    -0.1708267    0.0592737    -0.3965712   -0.8166345    -0.3975423   -0.8165953    -0.1854207    0.0284593 
   0.250000000    -0.1581045    0.0702183    -0.4616984   -0.7806045    -0.4604111   -0.7801561    -0.1768149    0.0403454 
   0.260000000    -0.1464244    0.0788251    -0.5221588   -0.7411820    -0.5228159   -0.7408834    -0.1677550    0.0500479 
   0.270000000    -0.1342863    0.0878571    -0.5804262   -0.6945611    -0.5809529   -0.6947145    -0.1578846    0.0584513 
   0.280000000    -0.1178335    0.0946774    -0.6345239   -0.6454270    -0.6354825   -0.6441767    -0.1462777    0.0652771 
   0.290000000    -0.1007718    0.0967416    -0.6853613   -0.5910168    -0.6860999   -0.5902810    -0.1335005    0.0697904 
   0.300000000    -0.0855542    0.0958072    -0.7317447   -0.5334979    -0.7322304   -0.5314896    -0.1203433    0.0718887 
   0.310000000    -0.0703128    0.0949196    -0.7731367   -0.4713575    -0.7732503   -0.4709516    -0.1075824    0.0711562 
   0.320000000    -0.0536941    0.0905805    -0.8092393   -0.4050452    -0.8100510   -0.4046997    -0.0948568    0.0690716 
   0.330000000    -0.0382526    0.0814652    -0.8399402   -0.3378979    -0.8396469   -0.3375579    -0.0829699    0.0643185 
   0.340000000    -0.0276984    0.0710243    -0.8652322   -0.2667840    -0.8658184   -0.2674819    -0.0726667    0.0574675 
   0.350000000    -0.0168343    0.0614919    -0.8837447   -0.1948258    -0.8841478   -0.1928614    -0.0637526    0.0499300 
   0.360000000    -0.0054824    0.0486216    -0.8971328   -0.1201255    -0.8974689   -0.1195343    -0.0557042    0.0406289 
   0.370000000     0.0006681    0.0317189    -0.9040273   -0.0429725    -0.9034324   -0.0432290    -0.0494822    0.0295566 
   0.380000000     0.0039251    0.0166057    -0.9042724    0.0302391    -0.9040537    0.0319333    -0.0454744    0.0176357 
   0.390000000     0.0056610    0.0003903    -0.8975916    0.1076825    -0.8978848    0.1076883    -0.0442173    0.0043909 
   0.400000000     0.0041587   -0.0169270    -0.8843791    0.1808998    -0.8846074    0.1815307    -0.0465004   -0.0083620 
   0.410000000    -0.0000416   -0.0317626    -0.8653165    0.2543385    -0.8648984    0.2550965    -0.0493509   -0.0182807 
   0.420000000    -0.0048315   -0.0467487    -0.8400480    0.3253441    -0.8387087    0.3258204    -0.0524388   -0.0297334 
   0.430000000    -0.0141429   -0.0611080    -0.8078993    0.3932304    -0.8078742    0.3943264    -0.0594431   -0.0414239 
   0.440000000    -0.0255301   -0.0722845    -0.7697929    0.4600334    -0.7709825    0.4587159    -0.0693341   -0.0494002 
   0.450000000    -0.0378975   -0.0827975    -0.7275355    0.5210058    -0.7282704    0.5219917    -0.0791404   -0.0565913 
   0.460000000    -0.0532130   -0.0922651    -0.6799134    0.5783381    -0.6797820    0.5798455    -0.0910604   -0.0631209 
   0.470000000    -0.0701809   -0.0978581    -0.6295850    0.6316634    -0.6280628    0.6311271    -0.1052664   -0.0666530 
   0.480000000    -0.0857100   -0.0995767    -0.5723776    0.6804363    -0.5723001    0.6798372    -0.1180907   -0.0671973 
   0.490000000    -0.1004021   -0.1007351    -0.5129234    0.7233688    -0.5111094    0.7231151    -0.1298255   -0.0667575 
   0.500000000    -0.1165492   -0.0998985    -0.4491166    0.7604304    -0.4497737    0.7608429    -0.1409855   -0.0640312 
   0.510000000    -0.1348643   -0.0953940    -0.3838331    0.7933080    -0.3832061    0.7925733    -0.1544566   -0.0605926 
   0.520000000    -0.1499773   -0.0864710    -0.3185747    0.8189810    -0.3173659    0.8184071    -0.1674810   -0.0535750 
   0.530000000    -0.1624279   -0.0775244    -0.2499286    0.8402847    -0.2503875    0.8389633    -0.1775130   -0.0419700 
   0.540000000    -0.1745206   -0.0690404    -0.1807329    0.8562684    -0.1789318    0.8559422    -0.1841784   -0.0327347 
   0.550000000    -0.1856770   -0.0545704    -0.1096025    0.8654494    -0.1103631    0.8644466    -0.1917698   -0.0228812 
   0.560000000    -0.1909316   -0.0386958    -0.0396613    0.8689898    -0.0398586    0.8693627    -0.1968153   -0.0097117 
   0.570000000    -0.1947056   -0.0276087     0.0312821    0.8673486     0.0308456    0.8681319    -0.1992979    0.0040450 
   0.580000000    -0.2033765   -0.0126711     0.1000270    0.8600833     0.0999038    0.8615678    -0.2006291    0.0163077 
   0.590000000    -0.2041983    0.0083802     0.1686366    0.8486856     0.1693516    0.8460742    -0.2020775    0.0303759 
   0.600000000    -0.1996650    0.0231892     0.2368620    0.8310994     0.2339864    0.8310096    -0.1994847    0.0470489 
   0.610000000    -0.1962634    0.0344483     0.3023218    0.8082727     0.3032539    0.8091792    -0.1915600    0.0589149 
   0.620000000    -0.1927643    0.0494729     0.3664421    0.7802079     0.3655300    0.7800477    -0.1831256    0.0687410 
   0.630000000    -0.1824467    0.0635657     0.4273075    0.7472352     0.4264863    0.7504827    -0.1764170    0.0758296 
   0.640000000    -0.1706009    0.0732355     0.4849527    0.7103652     0.4875261    0.7115946    -0.1681104    0.0892840 
   0.650000000    -0.1615794    0.0816356     0.5414003    0.6701403     0.5412295    0.6695446    -0.1533832    0.0982198 
   0.660000000    -0.1510818    0.0932628     0.5935687    0.6245595     0.5939533    0.6239876    -0.1406786    0.1018220 
   0.670000000    -0.1346905    0.0991913     0.6429979    0.5746316     0.6417843    0.5734220    -0.1298388    0.1055768 
   0.680000000    -0.1192664    0.0979851     0.6875070    0.5186635     0.6868504    0.5211372    -0.1162850    0.1086320 
   0.690000000    -0.1084065    0.0954911     0.7266654    0.4645032     0.7296450    0.4644460    -0.1001647    0.1058293 
   0.700000000    -0.0944993    0.0982528     0.7638818    0.4028003     0.7644061    0.4019347    -0.0874812    0.0992654 
   0.710000000    -0.0760710    0.0951294     0.7937879    0.3374431     0.7955647    0.3378448    -0.0780321    0.0955117 
   0.720000000    -0.0648721    0.0860741     0.8208220    0.2713915     0.8187528    0.2730731    -0.0662671    0.0925174 
   0.730000000    -0.0563315    0.0802329     0.8399112    0.2032600     0.8397140    0.2030126    -0.0514959    0.0843745 
   0.740000000    -0.0443643    0.0714841     0.8546337    0.1325410     0.8539623    0.1318278    -0.0417992    0.0706330 
   0.750000000    -0.0352864    0.0556198     0.8618253    0.0616017     0.8614040    0.0625645    -0.0388116    0.0557545 
   0.760000000    -0.0326469    0.0419087     0.8650703   -0.0096152     0.8657281   -0.0103605    -0.0364237    0.0461361 
   0.770000000    -0.0290638    0.0301480     0.8602475   -0.0826091     0.8606119   -0.0839900    -0.0290862    0.0327577 
   0.780000000    -0.0270853    0.0164136     0.8518257   -0.1526304     0.8510824   -0.1528077    -0.0293344    0.0159507 
   0.790000000    -0.0283807    0.0018757     0.8346009   -0.2248934     0.8338359   -0.2238759    -0.0336947    0.0029708 
   0.800000000    -0.0340513   -0.0110044     0.8122281   -0.2914023     0.8102883   -0.2931764    -0.0350677   -0.0072026 
   0.810000000    -0.0397672   -0.0253545     0.7831407   -0.3598244     0.7827615   -0.3601128    -0.0400837   -0.0244166 
   0.820000000    -0.0489198   -0.0398436     0.7494383   -0.4208672     0.7475149   -0.4223658    -0.0518223   -0.0395449 
   0.830000000    -0.0626923   -0.0484302     0.7132410   -0.4839243     0.7109590   -0.4832579    -0.0674744   -0.0464721 
   0.840000000    -0.0729793   -0.0537696     0.6653561   -0.5408866     0.6660197   -0.5401019    -0.0754995   -0.0507837 
   0.850000000    -0.0837606   -0.0604634     0.6171905   -0.5915264     0.6185219   -0.5915762    -0.0848983   -0.0600851 
   0.860000000    -0.1014097   -0.0676936     0.5638047   -0.6407521     0.5648208   -0.6410941    -0.1014234   -0.0687042 
   0.870000000    -0.1198585   -0.0654532     0.5080178   -0.6817626     0.5075808   -0.6824464    -0.1198317   -0.0674848 
   0.880000000    -0.1320375   -0.0627368     0.4507297   -0.7211838     0.4491071   -0.7202910    -0.1329042   -0.0644684 
   0.890000000    -0.1467244   -0.0638411     0.3878228   -0.7538049     0.3863536   -0.7514672    -0.1461876   -0.0640653 
   0.900000000    -0.1660055   -0.0569742     0.3227676   -0.7793963     0.3252110   -0.7773087    -0.1643936   -0.0607030 
   0.910000000    -0.1773688   -0.0429506     0.2578735   -0.8014138     0.2603764   -0.8011720    -0.1791358   -0.0505347 
   0.920000000    -0.1851123   -0.0339165     0.1899068   -0.8160104     0.1910046   -0.8176786    -0.1878763   -0.0404492 
   0.930000000    -0.1982601   -0.0268282     0.1233703   -0.8275531     0.1234511   -0.8288034    -0.1959414   -0.0339341 
   0.940000000    -0.2119788   -0.0100596     0.0564111   -0.8328276     0.0550801   -0.8316324    -0.2094781   -0.0235374 
   0.950000000    -0.2153072    0.0078981    -0.0112470   -0.8318369    -0.0092164   -0.8298467    -0.2196632   -0.0054797 
   0.960000000    -0.2172264    0.0223066    -0.0777988   -0.8267429    -0.0750199   -0.8265674    -0.2216169    0.0129034 
   0.970000000    -0.2206022    0.0363841    -0.1433794   -0.8171545    -0.1423994   -0.8163244    -0.2218518    0.0241717 
   0.980000000    -0.2220801    0.0561290    -0.2096040   -0.7985419    -0.2059018   -0.8016170    -0.2259722    0.0359170 
   0.990000000    -0.2158626    0.0736317    -0.2698923   -0.7776933    -0.2698243   -0.7814301    -0.2278923    0.0544312 
   1.000000000    -0.2100630    0.0856575    -0.3295147   -0.7548400    -0.3303236   -0.7543655    -0.2206244    0.0698902 
   1.010000000    -0.2079967    0.1006192    -0.3883350   -0.7245975    -0.3886120   -0.7256613    -0.2149912    0.0803534 
   1.020000000    -0.1968356    0.1200701    -0.4465505   -0.6917554    -0.4443448   -0.6905562    -0.2113395    0.0949671 
   1.030000000    -0.1805852    0.1301089    -0.5000191   -0.6513901    -0.4971648   -0.6555915    -0.2016981    0.1120985 
   1.040000000    -0.1687062    0.1364113    -0.5477111   -0.6118121    -0.5495163   -0.6132740    -0.1863286    0.1213879 
   1.050000000    -0.1586035    0.1472813    -0.5967987   -0.5654381    -0.5968535   -0.5670432    -0.1758469    0.1254069 
   1.060000000    -0.1394782    0.1569229    -0.6383429   -0.5148583    -0.6406437   -0.5184216    -0.1680340    0.1316484 
   1.070000000    -0.1218652    0.1564960    -0.6789417   -0.4639904    -0.6808220   -0.4622676    -0.1544762    0.1426400 
   1.080000000    -0.1094730    0.1583730    -0.7143988   -0.4080873    -0.7152069   -0.4070375    -0.1351706    0.1456657 
   1.090000000    -0.0920327    0.1611010    -0.7468955   -0.3499473    -0.7461033   -0.3489265    -0.1208979    0.1420174 
   1.100000000    -0.0718370    0.1565576    -0.7734548   -0.2867269    -0.7715064   -0.2892521    -0.1104681    0.1406758 
   1.110000000    -0.0574768    0.1460543    -0.7935253   -0.2238003    -0.7973047   -0.2259188    -0.0976742    0.1415616 
   1.120000000    -0.0471780    0.1399252    -0.8099784   -0.1593930    -0.8119256   -0.1584473    -0.0802194    0.1350686 
   1.130000000    -0.0331724    0.1343963    -0.8223429   -0.0928241    -0.8233175   -0.0910803    -0.0692328    0.1225045 
   1.140000000    -0.0182660    0.1207200    -0.8279904   -0.0247520    -0.8286673   -0.0256196    -0.0647371    0.1152321 
   1.150000000    -0.0115276    0.1035424    -0.8284389    0.0439972    -0.8286543    0.0426967    -0.0544168    0.1107209 
   1.160000000    -0.0068666    0.0918019    -0.8231139    0.1111893    -0.8228256    0.1109699    -0.0420412    0.0978874 
   1.170000000    -0.0009577    0.0776222    -0.8117439    0.1795436    -0.8109868    0.1796673    -0.0392288    0.0803590 
   1.180000000     0.0011548    0.0583189    -0.7934920    0.2470136    -0.7952586    0.2461350    -0.0426981    0.0674463 
   1.190000000    -0.0036269    0.0432426    -0.7699711    0.3119471    -0.7718599    0.3134540    -0.0420075    0.0596858 
   1.200000000    -0.0050300    0.0311991    -0.7418302    0.3751406    -0.7416997    0.3739555    -0.0390030    0.0461067 
   1.210000000    -0.0087961    0.0136897    -0.7075303    0.4365920    -0.7082952    0.4367266    -0.0433942    0.0291428 
   1.220000000    -0.0207106   -0.0002707    -0.6684474    0.4942322    -0.6685951    0.4918194    -0.0529739    0.0202505 
   1.230000000    -0.0312662   -0.0080253    -0.6250361    0.5475309    -0.6249288    0.5469762    -0.0589685    0.0141905 
   1.240000000    -0.0405377   -0.0191154    -0.5766181    0.5960365    -0.5759737    0.5958989    -0.0659824    0.0035121 
   1.250000000    -0.0565702   -0.0297767    -0.5234508    0.6413461    -0.5230098    0.6414899    -0.0808518   -0.0055068 
   1.260000000    -0.0742733   -0.0315741    -0.4678003    0.6815670    -0.4677052    0.6809329    -0.0946695   -0.0067574 
   1.270000000    -0.0851448   -0.0322322    -0.4083602    0.7164355    -0.4102787    0.7153150    -0.1033385   -0.0084002 
   1.280000000    -0.0982696   -0.0368861    -0.3471493    0.7471141    -0.3482716    0.7453035    -0.1138143   -0.0131146 
   1.290000000    -0.1185160   -0.0357089    -0.2822526    0.7708658    -0.2845689    0.7697499    -0.1298832   -0.0133409 
   1.300000000    -0.1346411   -0.0247989    -0.2198277    0.7885177    -0.2191298    0.7872543    -0.1441902   -0.0055101 
   1.310000000    -0.1426672   -0.0162142    -0.1516080    0.8037212    -0.1552014    0.8028165    -0.1519380    0.0032189 
   1.320000000    -0.1546015   -0.0130959    -0.0850068    0.8102696    -0.0877331    0.8110613    -0.1603147    0.0060259 
   1.330000000    -0.1719570   -0.0017081    -0.0189521    0.8128443    -0.0202288    0.8122032    -0.1743329    0.0117127 
   1.340000000    -0.1797065    0.0173106     0.0460847    0.8079271     0.0444966    0.8090183    -0.1855757    0.0259413 
   1.350000000    -0.1794160    0.0292144     0.1105223    0.8012899     0.1088762    0.8010544    -0.1869614    0.0402171 
   1.360000000    -0.1862103    0.0379462     0.1748834    0.7879725     0.1755331    0.7876782    -0.1878884    0.0482429 
   1.370000000    -0.1937868    0.0578544     0.2387676    0.7694294     0.2351892    0.7689485    -0.1944585    0.0595084 
   1.380000000    -0.1888473    0.0785951     0.2989078    0.7434419     0.2971672    0.7473756    -0.1979921    0.0771880 
   1.390000000    -0.1828755    0.0893701     0.3555398    0.7192484     0.3543630    0.7189175    -0.1930527    0.0913012 
   1.400000000    -0.1836203    0.1007489     0.4125279    0.6855630     0.4105494    0.6883035    -0.1890072    0.0998469 
   1.410000000    -0.1783133    0.1203428     0.4657936    0.6513592     0.4627319    0.6513792    -0.1866250    0.1105035 
   1.420000000    -0.1631117    0.1327612     0.5153956    0.6098550     0.5146387    0.6130797    -0.1805463    0.1248746 
   1.430000000    -0.1521109    0.1401333     0.5613280    0.5677074     0.5602738    0.5690998    -0.1681193    0.1360420 
   1.440000000    -0.1435975    0.1504941     0.6048706    0.5202277     0.6030227    0.5224994    -0.1584735    0.1421668 
   1.450000000    -0.1280122    0.1627079     0.6436892    0.4688793     0.6429615    0.4715888    -0.1520756    0.1497186 
   1.460000000    -0.1109303    0.1657533     0.6777614    0.4169489     0.6800470    0.4196987    -0.1417668    0.1591631 
   1.470000000    -0.0992051    0.1665697     0.7098712    0.3617475     0.7111020    0.3622987    -0.1253398    0.1619967 
   1.480000000    -0.0854827    0.1710746     0.7386386    0.3041004     0.7375054    0.3049991    -0.1141289    0.1593835 
   1.490000000    -0.0649979    0.1709831     0.7598800    0.2426401     0.7598390    0.2454118    -0.1043792    0.1604535 
   1.500000000    -0.0487958    0.1618890     0.7777217    0.1810441     0.7795725    0.1840869    -0.0902706    0.1632207 
   1.510000000    -0.0392022    0.1568785     0.7893057    0.1178456     0.7915337    0.1182217    -0.0737709    0.1591158 
   1.520000000    -0.0252096    0.1542816     0.7990112    0.0555252     0.7982005    0.0560019    -0.0656246    0.1500898 
