! 2/21/2025 7:20:53 AM
! Z:\OQC\AD5\613\LOT-141-0825\SINGLE\2-L7-4.S2P
! CHANNEL.1
! TR.MEASUREMENT
! CORRECTED.DATA
! RF.CORRECTION: FULL.FOUR.PORT.CAL.PORT.1.2.3.4
! AVERAGING.OFF
! IF.BANDWIDTH: 1KHZ
! SWEEPTYPE:  FREQ.SWEEP(Linear)
! Reference Plane Port Info
! PORT:              PORT1              PORT2             
! DISTANCE:          0  m               0  m              
! TIME:              0  s               0  s              
! PHASE.OFFSET:      0 °                0 °               
! LOSS:              0  dB              0  dB             
! REF.LOSS:          0  dB              0  dB             
! REF.FREQ:          0  Hz              0  Hz             
! Power Info
! POWER:             -10  dBm           -10  dBm          
! EFF.POWER:         -10  dBm           -10  dBm          
! SOURCE.ATTEN:      0  dB              0  dB             
! TEST.ATTEN:        0  dB              0  dB             
# GHZ S RI R 50.0
! FREQ.GHZ         S11RE         S11IM         S21RE         S21IM         S12RE         S12IM         S22RE         S22IM         
!; PortSelection: Port_12
   0.010000000     0.0070350   -0.0074600     0.9918455   -0.0465724     0.9910699   -0.0461193     0.0072871   -0.0074222 
   0.020000000     0.0087697   -0.0188197     0.9867470   -0.0932954     0.9864511   -0.0933451     0.0091264   -0.0184453 
   0.030000000     0.0066474   -0.0306942     0.9783487   -0.1392132     0.9792227   -0.1387959     0.0070103   -0.0303003 
   0.040000000     0.0032641   -0.0400201     0.9697839   -0.1840855     0.9703743   -0.1844942     0.0035491   -0.0397614 
   0.050000000     0.0012513   -0.0493269     0.9580850   -0.2283317     0.9583595   -0.2286445     0.0014149   -0.0487334 
   0.060000000    -0.0018384   -0.0603086     0.9459845   -0.2719321     0.9458895   -0.2718940    -0.0015774   -0.0597029 
   0.070000000    -0.0076833   -0.0714946     0.9306129   -0.3154719     0.9308839   -0.3154394    -0.0072493   -0.0705828 
   0.080000000    -0.0143043   -0.0801928     0.9137749   -0.3564988     0.9133302   -0.3565759    -0.0142114   -0.0793999 
   0.090000000    -0.0206128   -0.0882768     0.8933076   -0.3965017     0.8943603   -0.3968196    -0.0204985   -0.0870892 
   0.100000000    -0.0271494   -0.0970515     0.8727218   -0.4363130     0.8739494   -0.4365341    -0.0272122   -0.0955872 
   0.110000000    -0.0362712   -0.1059600     0.8512053   -0.4754027     0.8514500   -0.4749017    -0.0362993   -0.1043152 
   0.120000000    -0.0465976   -0.1122010     0.8272118   -0.5121320     0.8256632   -0.5117627    -0.0470269   -0.1105979 
   0.130000000    -0.0560953   -0.1169677     0.8005847   -0.5471981     0.8009160   -0.5478779    -0.0559491   -0.1154536 
   0.140000000    -0.0647236   -0.1229068     0.7739180   -0.5826370     0.7744060   -0.5814249    -0.0643294   -0.1216628 
   0.150000000    -0.0758395   -0.1284777     0.7445786   -0.6149182     0.7446254   -0.6140143    -0.0757641   -0.1271158 
   0.160000000    -0.0880532   -0.1314352     0.7146112   -0.6452310     0.7150134   -0.6457174    -0.0878665   -0.1297181 
   0.170000000    -0.0993537   -0.1325286     0.6845062   -0.6743582     0.6845323   -0.6742286    -0.0986972   -0.1307910 
   0.180000000    -0.1096417   -0.1330889     0.6514991   -0.7036299     0.6522872   -0.7022972    -0.1097316   -0.1317495 
   0.190000000    -0.1206538   -0.1346674     0.6182593   -0.7297747     0.6182671   -0.7305674    -0.1210531   -0.1327208 
   0.200000000    -0.1336254   -0.1347008     0.5851762   -0.7548142     0.5853435   -0.7546420    -0.1332466   -0.1330250 
   0.210000000    -0.1457596   -0.1316926     0.5501404   -0.7769166     0.5498439   -0.7772569    -0.1455625   -0.1309727 
   0.220000000    -0.1548607   -0.1292210     0.5140336   -0.7987487     0.5132554   -0.7985424    -0.1561520   -0.1279007 
   0.230000000    -0.1657956   -0.1277912     0.4771129   -0.8181525     0.4754062   -0.8193209    -0.1666219   -0.1255178 
   0.240000000    -0.1787624   -0.1231277     0.4390953   -0.8364090     0.4381990   -0.8369560    -0.1778639   -0.1214346 
   0.250000000    -0.1887969   -0.1159216     0.4018156   -0.8525636     0.4015232   -0.8511096    -0.1880920   -0.1151489 
   0.260000000    -0.1965225   -0.1100830     0.3642645   -0.8674508     0.3640580   -0.8664483    -0.1970744   -0.1088820 
   0.270000000    -0.2065728   -0.1055124     0.3260861   -0.8794926     0.3244859   -0.8797978    -0.2066169   -0.1027531 
   0.280000000    -0.2164698   -0.0983874     0.2872623   -0.8905060     0.2865515   -0.8909388    -0.2154965   -0.0959690 
   0.290000000    -0.2248392   -0.0886164     0.2481331   -0.9010094     0.2466137   -0.9002966    -0.2238348   -0.0879836 
   0.300000000    -0.2309659   -0.0802778     0.2082340   -0.9085385     0.2066353   -0.9084192    -0.2315332   -0.0790392 
   0.310000000    -0.2381121   -0.0723014     0.1693653   -0.9151031     0.1694633   -0.9145215    -0.2379243   -0.0693791 
   0.320000000    -0.2455355   -0.0624284     0.1295888   -0.9194961     0.1287125   -0.9191422    -0.2440908   -0.0601013 
   0.330000000    -0.2507101   -0.0510703     0.0892138   -0.9229456     0.0909790   -0.9211776    -0.2495409   -0.0500460 
   0.340000000    -0.2531365   -0.0414304     0.0506465   -0.9242085     0.0522899   -0.9238789    -0.2535144   -0.0395065 
   0.350000000    -0.2570585   -0.0321684     0.0113972   -0.9239939     0.0107892   -0.9232575    -0.2567053   -0.0295306 
   0.360000000    -0.2617594   -0.0211299    -0.0266999   -0.9214924    -0.0265408   -0.9218361    -0.2597583   -0.0189755 
   0.370000000    -0.2632672   -0.0086643    -0.0647117   -0.9182789    -0.0650962   -0.9177540    -0.2620613   -0.0077676 
   0.380000000    -0.2637684    0.0020442    -0.1031584   -0.9143232    -0.1037285   -0.9133181    -0.2633515    0.0037035 
   0.390000000    -0.2644131    0.0133046    -0.1422319   -0.9079956    -0.1416907   -0.9084191    -0.2634562    0.0158821 
   0.400000000    -0.2631201    0.0247013    -0.1789977   -0.9009311    -0.1784046   -0.9002835    -0.2614287    0.0272989 
   0.410000000    -0.2613003    0.0337788    -0.2180577   -0.8909532    -0.2178491   -0.8915235    -0.2599985    0.0355275 
   0.420000000    -0.2599870    0.0448544    -0.2550896   -0.8807690    -0.2540655   -0.8792958    -0.2592066    0.0468638 
   0.430000000    -0.2568433    0.0566133    -0.2910589   -0.8678557    -0.2895278   -0.8686264    -0.2560273    0.0588982 
   0.440000000    -0.2526464    0.0665369    -0.3268442   -0.8541989    -0.3258548   -0.8556863    -0.2511447    0.0691957 
   0.450000000    -0.2496953    0.0762550    -0.3617430   -0.8408256    -0.3623118   -0.8401867    -0.2474796    0.0784125 
   0.460000000    -0.2449768    0.0871891    -0.3974588   -0.8231543    -0.3973756   -0.8232692    -0.2428508    0.0889224 
   0.470000000    -0.2366145    0.0964340    -0.4314500   -0.8069111    -0.4293231   -0.8076729    -0.2355306    0.0986500 
   0.480000000    -0.2299715    0.1026077    -0.4657411   -0.7871740    -0.4654614   -0.7880514    -0.2283194    0.1055445 
   0.490000000    -0.2239217    0.1099845    -0.4974900   -0.7670648    -0.4990788   -0.7662752    -0.2210159    0.1128595 
   0.500000000    -0.2173427    0.1191322    -0.5296755   -0.7451145    -0.5305734   -0.7445195    -0.2144008    0.1196400 
   0.510000000    -0.2083868    0.1280494    -0.5615606   -0.7216979    -0.5590014   -0.7229885    -0.2073182    0.1283850 
   0.520000000    -0.1979076    0.1331682    -0.5904680   -0.6986989    -0.5915017   -0.6985309    -0.1969695    0.1356112 
   0.530000000    -0.1896890    0.1365189    -0.6210188   -0.6726584    -0.6197669   -0.6747088    -0.1858435    0.1385098 
   0.540000000    -0.1817276    0.1415130    -0.6491500   -0.6476328    -0.6489693   -0.6468315    -0.1778056    0.1409175 
   0.550000000    -0.1694471    0.1463815    -0.6757357   -0.6183711    -0.6757392   -0.6206751    -0.1692197    0.1457095 
   0.560000000    -0.1574690    0.1460809    -0.6996145   -0.5913720    -0.7029680   -0.5908738    -0.1569399    0.1489882 
   0.570000000    -0.1517572    0.1480971    -0.7267825   -0.5603377    -0.7275097   -0.5606049    -0.1464570    0.1501595 
   0.580000000    -0.1418807    0.1555473    -0.7497500   -0.5293968    -0.7493119   -0.5303374    -0.1381595    0.1523772 
   0.590000000    -0.1262619    0.1558726    -0.7736005   -0.4970406    -0.7719114   -0.4971541    -0.1275551    0.1554436 
   0.600000000    -0.1178095    0.1505518    -0.7940109   -0.4636546    -0.7939789   -0.4636184    -0.1148303    0.1552508 
   0.610000000    -0.1108083    0.1496713    -0.8147313   -0.4299581    -0.8152089   -0.4285944    -0.1042671    0.1504895 
   0.620000000    -0.0994105    0.1501139    -0.8324448   -0.3942657    -0.8322421   -0.3938073    -0.0959820    0.1449490 
   0.630000000    -0.0864730    0.1459705    -0.8494503   -0.3578279    -0.8507861   -0.3578923    -0.0897385    0.1449073 
   0.640000000    -0.0781801    0.1401800    -0.8651179   -0.3208643    -0.8671535   -0.3204388    -0.0765508    0.1450539 
   0.650000000    -0.0713183    0.1376143    -0.8794621   -0.2847422    -0.8798281   -0.2842771    -0.0649276    0.1374751 
   0.660000000    -0.0606198    0.1361672    -0.8914976   -0.2468041    -0.8922980   -0.2448820    -0.0589375    0.1310024 
   0.670000000    -0.0496713    0.1273940    -0.9023309   -0.2067799    -0.9025525   -0.2061923    -0.0517144    0.1275093 
   0.680000000    -0.0450190    0.1165650    -0.9095433   -0.1665877    -0.9106624   -0.1672579    -0.0425310    0.1217435 
   0.690000000    -0.0429864    0.1103246    -0.9180984   -0.1294554    -0.9203787   -0.1265082    -0.0349911    0.1106939 
   0.700000000    -0.0324794    0.1071104    -0.9238920   -0.0860266    -0.9239389   -0.0860886    -0.0323848    0.1009891 
   0.710000000    -0.0234706    0.0968885    -0.9266971   -0.0471466    -0.9283603   -0.0467832    -0.0292037    0.0961722 
   0.720000000    -0.0214457    0.0865111    -0.9286447   -0.0050434    -0.9281326   -0.0060851    -0.0216176    0.0905461 
   0.730000000    -0.0180551    0.0810705    -0.9291803    0.0358602    -0.9291216    0.0361089    -0.0130892    0.0806231 
   0.740000000    -0.0123596    0.0715616    -0.9271703    0.0765882    -0.9259768    0.0780754    -0.0108489    0.0667586 
   0.750000000    -0.0101044    0.0576778    -0.9218347    0.1181688    -0.9217513    0.1179785    -0.0143207    0.0564334 
   0.760000000    -0.0118992    0.0480447    -0.9168622    0.1606539    -0.9174961    0.1589927    -0.0140053    0.0518613 
   0.770000000    -0.0106472    0.0407066    -0.9080085    0.2010228    -0.9078917    0.2005571    -0.0086908    0.0404913 
   0.780000000    -0.0087493    0.0306667    -0.8998460    0.2402497    -0.8993871    0.2397871    -0.0102811    0.0283459 
   0.790000000    -0.0098211    0.0203182    -0.8873754    0.2815556    -0.8868029    0.2812669    -0.0141760    0.0201048 
   0.800000000    -0.0132886    0.0117087    -0.8742189    0.3176458    -0.8724374    0.3198347    -0.0126588    0.0144630 
   0.810000000    -0.0152575    0.0006464    -0.8578519    0.3587680    -0.8573412    0.3605314    -0.0141529    0.0006119 
   0.820000000    -0.0192704   -0.0115846    -0.8408030    0.3933114    -0.8395218    0.3948787    -0.0207648   -0.0125516 
   0.830000000    -0.0270593   -0.0186425    -0.8246639    0.4334435    -0.8229233    0.4338398    -0.0315709   -0.0178825 
   0.840000000    -0.0309665   -0.0231328    -0.8000453    0.4702172    -0.8013198    0.4693537    -0.0337903   -0.0214248 
   0.850000000    -0.0335750   -0.0310439    -0.7782707    0.5030378    -0.7795534    0.5037680    -0.0344838   -0.0296827 
   0.860000000    -0.0410939   -0.0431691    -0.7548438    0.5393585    -0.7558373    0.5388136    -0.0420075   -0.0422774 
   0.870000000    -0.0532823   -0.0475148    -0.7291505    0.5702707    -0.7277552    0.5705124    -0.0542432   -0.0472077 
   0.880000000    -0.0594227   -0.0496260    -0.7040300    0.6013061    -0.7020808    0.6021526    -0.0623096   -0.0491365 
   0.890000000    -0.0640745   -0.0590641    -0.6755847    0.6320004    -0.6725553    0.6329157    -0.0670423   -0.0549907 
   0.900000000    -0.0775314   -0.0672403    -0.6451188    0.6587256    -0.6451012    0.6577573    -0.0785274   -0.0636591 
   0.910000000    -0.0891175   -0.0650651    -0.6149533    0.6885867    -0.6157254    0.6862810    -0.0918124   -0.0644171 
   0.920000000    -0.0939664   -0.0639919    -0.5809330    0.7129470    -0.5826366    0.7119662    -0.0990476   -0.0629406 
   0.930000000    -0.1003177   -0.0716889    -0.5492789    0.7363763    -0.5497929    0.7373148    -0.1028141   -0.0660168 
   0.940000000    -0.1166314   -0.0758064    -0.5144517    0.7608299    -0.5137936    0.7611699    -0.1127797   -0.0723472 
   0.950000000    -0.1280984   -0.0714701    -0.4797163    0.7789352    -0.4798277    0.7772798    -0.1280616   -0.0730645 
   0.960000000    -0.1349093   -0.0688155    -0.4464085    0.8002391    -0.4454263    0.7980815    -0.1411451   -0.0657125 
   0.970000000    -0.1429431   -0.0707685    -0.4096764    0.8170952    -0.4082025    0.8159847    -0.1457733   -0.0622327 
   0.980000000    -0.1562631   -0.0696970    -0.3702348    0.8335259    -0.3737845    0.8317235    -0.1524644   -0.0638110 
   0.990000000    -0.1664675   -0.0621148    -0.3336239    0.8442233    -0.3362384    0.8455561    -0.1663104   -0.0636720 
   1.000000000    -0.1710137   -0.0577178    -0.2977742    0.8573591    -0.2976420    0.8567080    -0.1757087   -0.0549895 
   1.010000000    -0.1804056   -0.0592436    -0.2604712    0.8676491    -0.2586263    0.8690141    -0.1798238   -0.0504284 
   1.020000000    -0.1959398   -0.0530633    -0.2223026    0.8779498    -0.2207117    0.8751527    -0.1889679   -0.0494448 
   1.030000000    -0.2018088   -0.0409211    -0.1822057    0.8842854    -0.1849655    0.8827204    -0.2032310   -0.0411533 
   1.040000000    -0.2047002   -0.0353079    -0.1447682    0.8894715    -0.1476342    0.8901394    -0.2098040   -0.0283664 
   1.050000000    -0.2124901   -0.0324381    -0.1047785    0.8945385    -0.1071476    0.8930652    -0.2109768   -0.0215191 
   1.060000000    -0.2233530   -0.0219172    -0.0669027    0.8939135    -0.0703591    0.8962014    -0.2155559   -0.0184847 
   1.070000000    -0.2259829   -0.0098800    -0.0292275    0.8958306    -0.0272126    0.8965877    -0.2266967   -0.0141858 
   1.080000000    -0.2290227   -0.0059346     0.0090549    0.8943862     0.0090145    0.8943439    -0.2346138   -0.0002565 
   1.090000000    -0.2378634    0.0020208     0.0461615    0.8923146     0.0483222    0.8902504    -0.2337002    0.0128755 
   1.100000000    -0.2430632    0.0162683     0.0852354    0.8907797     0.0833728    0.8856830    -0.2338222    0.0193698 
   1.110000000    -0.2414240    0.0280529     0.1253541    0.8821429     0.1198771    0.8829705    -0.2409183    0.0256674 
   1.120000000    -0.2417102    0.0343208     0.1587209    0.8731384     0.1580110    0.8772377    -0.2467192    0.0390112 
   1.130000000    -0.2469181    0.0418175     0.1954842    0.8658890     0.1956915    0.8661942    -0.2432943    0.0529596 
   1.140000000    -0.2502991    0.0558419     0.2327309    0.8562723     0.2297809    0.8576535    -0.2398705    0.0576170 
   1.150000000    -0.2460405    0.0689635     0.2675081    0.8462126     0.2664344    0.8453245    -0.2440524    0.0635874 
   1.160000000    -0.2446672    0.0751658     0.3024414    0.8320619     0.2989180    0.8326885    -0.2474767    0.0783661 
   1.170000000    -0.2462339    0.0854476     0.3363329    0.8179097     0.3348490    0.8169141    -0.2419280    0.0926805 
   1.180000000    -0.2426547    0.0979349     0.3715731    0.8024721     0.3655262    0.8038245    -0.2352026    0.1005059 
   1.190000000    -0.2362109    0.1061361     0.4028492    0.7839488     0.4031103    0.7893318    -0.2331414    0.1040891 
   1.200000000    -0.2346704    0.1123399     0.4352265    0.7659128     0.4344006    0.7687786    -0.2340083    0.1150583 
   1.210000000    -0.2325578    0.1247572     0.4659803    0.7463065     0.4654719    0.7469967    -0.2273435    0.1287488 
   1.220000000    -0.2232037    0.1354592     0.4976032    0.7283385     0.4937336    0.7275032    -0.2182679    0.1362138 
   1.230000000    -0.2172563    0.1400699     0.5280982    0.7053927     0.5260684    0.7073513    -0.2142931    0.1407417 
   1.240000000    -0.2143364    0.1487826     0.5561430    0.6811377     0.5554664    0.6836476    -0.2117271    0.1510298 
   1.250000000    -0.2057853    0.1594004     0.5825966    0.6586660     0.5820165    0.6590182    -0.2018783    0.1613278 
   1.260000000    -0.1944550    0.1632912     0.6101794    0.6354879     0.6083881    0.6369839    -0.1910205    0.1642735 
   1.270000000    -0.1891167    0.1648813     0.6363394    0.6073198     0.6366636    0.6103594    -0.1855428    0.1661980 
   1.280000000    -0.1847458    0.1739336     0.6630437    0.5793191     0.6600051    0.5817656    -0.1802782    0.1743669 
   1.290000000    -0.1717306    0.1836104     0.6838611    0.5507907     0.6837497    0.5540482    -0.1689155    0.1835035 
   1.300000000    -0.1576153    0.1845033     0.7069300    0.5243085     0.7051439    0.5254422    -0.1554945    0.1860508 
   1.310000000    -0.1526257    0.1825481     0.7302005    0.4926594     0.7312338    0.4971711    -0.1475569    0.1846229 
   1.320000000    -0.1488180    0.1894682     0.7510385    0.4610426     0.7509710    0.4636894    -0.1442607    0.1876874 
   1.330000000    -0.1344215    0.1964639     0.7683874    0.4290931     0.7690998    0.4317259    -0.1344642    0.1951395 
   1.340000000    -0.1185549    0.1924534     0.7853554    0.3988293     0.7870540    0.3999188    -0.1181618    0.1956150 
   1.350000000    -0.1139167    0.1865340     0.8041054    0.3656543     0.8045620    0.3676200    -0.1069246    0.1897636 
   1.360000000    -0.1087120    0.1925516     0.8201353    0.3307979     0.8204821    0.3301271    -0.1025022    0.1889597 
   1.370000000    -0.0922295    0.1962670     0.8326010    0.2945245     0.8336204    0.2980635    -0.0936871    0.1936106 
   1.380000000    -0.0789360    0.1884783     0.8439822    0.2596146     0.8477319    0.2602741    -0.0793340    0.1932933 
   1.390000000    -0.0766484    0.1822251     0.8572518    0.2249950     0.8578469    0.2252443    -0.0702055    0.1855317 
   1.400000000    -0.0706421    0.1858290     0.8665003    0.1862514     0.8682889    0.1882742    -0.0655634    0.1804358 
   1.410000000    -0.0545491    0.1825540     0.8748562    0.1503252     0.8745248    0.1527482    -0.0574113    0.1787216 
   1.420000000    -0.0455572    0.1706010     0.8806708    0.1115990     0.8838010    0.1126709    -0.0445973    0.1754176 
   1.430000000    -0.0423366    0.1648989     0.8864470    0.0745928     0.8864120    0.0755876    -0.0346261    0.1659981 
   1.440000000    -0.0343226    0.1647196     0.8897899    0.0363316     0.8910389    0.0380160    -0.0308305    0.1593224 
   1.450000000    -0.0225760    0.1574306     0.8902034   -0.0027689     0.8926485   -0.0019374    -0.0260613    0.1571488 
   1.460000000    -0.0185897    0.1459139     0.8901868   -0.0404507     0.8927834   -0.0405832    -0.0165270    0.1517472 
   1.470000000    -0.0172216    0.1405556     0.8891175   -0.0785935     0.8894923   -0.0811444    -0.0095548    0.1384336 
   1.480000000    -0.0095507    0.1358638     0.8871565   -0.1193610     0.8875766   -0.1177987    -0.0097700    0.1286057 
   1.490000000    -0.0005490    0.1229648     0.8798560   -0.1581532     0.8818207   -0.1561956    -0.0059843    0.1242036 
   1.500000000    -0.0016540    0.1097957     0.8735640   -0.1968855     0.8761036   -0.1972850     0.0026250    0.1172915 
   1.510000000    -0.0022838    0.1062971     0.8636672   -0.2339704     0.8649672   -0.2349096     0.0073019    0.1034505 
   1.520000000     0.0044889    0.1011260     0.8552206   -0.2723203     0.8550515   -0.2706584     0.0032607    0.0928948 
