! 2/21/2025 7:22:00 AM
! Z:\OQC\AD5\613\LOT-141-0825\SINGLE\3-L18-4.S2P
! CHANNEL.1
! TR.MEASUREMENT
! CORRECTED.DATA
! RF.CORRECTION: FULL.FOUR.PORT.CAL.PORT.1.2.3.4
! AVERAGING.OFF
! IF.BANDWIDTH: 1KHZ
! SWEEPTYPE:  FREQ.SWEEP(Linear)
! Reference Plane Port Info
! PORT:              PORT1              PORT2             
! DISTANCE:          0  m               0  m              
! TIME:              0  s               0  s              
! PHASE.OFFSET:      0 °                0 °               
! LOSS:              0  dB              0  dB             
! REF.LOSS:          0  dB              0  dB             
! REF.FREQ:          0  Hz              0  Hz             
! Power Info
! POWER:             -10  dBm           -10  dBm          
! EFF.POWER:         -10  dBm           -10  dBm          
! SOURCE.ATTEN:      0  dB              0  dB             
! TEST.ATTEN:        0  dB              0  dB             
# GHZ S RI R 50.0
! FREQ.GHZ         S11RE         S11IM         S21RE         S21IM         S12RE         S12IM         S22RE         S22IM         
!; PortSelection: Port_12
   0.010000000     0.0074739   -0.0073601     0.9910714   -0.0463342     0.9900767   -0.0462801     0.0077829   -0.0071410 
   0.020000000     0.0092959   -0.0183631     0.9865193   -0.0931680     0.9862525   -0.0932287     0.0096066   -0.0179819 
   0.030000000     0.0071907   -0.0299563     0.9778457   -0.1390331     0.9787342   -0.1389010     0.0076730   -0.0296379 
   0.040000000     0.0040020   -0.0391270     0.9694688   -0.1843050     0.9698634   -0.1836933     0.0042355   -0.0389083 
   0.050000000     0.0021143   -0.0482403     0.9576052   -0.2280772     0.9583902   -0.2283948     0.0022391   -0.0476863 
   0.060000000    -0.0008578   -0.0591551     0.9455574   -0.2716784     0.9452447   -0.2717230    -0.0005823   -0.0585714 
   0.070000000    -0.0066137   -0.0701223     0.9294247   -0.3146182     0.9298105   -0.3146629    -0.0061190   -0.0692396 
   0.080000000    -0.0129936   -0.0787572     0.9128807   -0.3559863     0.9133108   -0.3559948    -0.0127171   -0.0780081 
   0.090000000    -0.0190538   -0.0867683     0.8928902   -0.3960055     0.8944309   -0.3968251    -0.0189145   -0.0856058 
   0.100000000    -0.0254448   -0.0954838     0.8726157   -0.4350463     0.8735741   -0.4356604    -0.0254185   -0.0940783 
   0.110000000    -0.0343659   -0.1043123     0.8504287   -0.4745725     0.8506974   -0.4738691    -0.0342000   -0.1027953 
   0.120000000    -0.0443887   -0.1105020     0.8262328   -0.5108652     0.8263453   -0.5109123    -0.0447679   -0.1089607 
   0.130000000    -0.0537127   -0.1154867     0.8009470   -0.5459993     0.8002219   -0.5467955    -0.0534539   -0.1139954 
   0.140000000    -0.0622587   -0.1214004     0.7741400   -0.5817431     0.7734448   -0.5805610    -0.0618075   -0.1201882 
   0.150000000    -0.0731496   -0.1268410     0.7438648   -0.6141736     0.7437670   -0.6137202    -0.0729791   -0.1256548 
   0.160000000    -0.0849570   -0.1297862     0.7145945   -0.6443807     0.7157748   -0.6428682    -0.0846769   -0.1285203 
   0.170000000    -0.0961612   -0.1308668     0.6850860   -0.6735300     0.6845059   -0.6730893    -0.0954886   -0.1296190 
   0.180000000    -0.1064940   -0.1314185     0.6519138   -0.7024264     0.6528201   -0.7012108    -0.1063107   -0.1306327 
   0.190000000    -0.1171999   -0.1332760     0.6187155   -0.7287461     0.6193548   -0.7286289    -0.1174854   -0.1317490 
   0.200000000    -0.1300607   -0.1334367     0.5846278   -0.7533833     0.5855530   -0.7535158    -0.1295479   -0.1319212 
   0.210000000    -0.1420317   -0.1305063     0.5506472   -0.7764833     0.5502006   -0.7753039    -0.1414225   -0.1303848 
   0.220000000    -0.1509828   -0.1279833     0.5133176   -0.7981255     0.5139102   -0.7972636    -0.1517704   -0.1275496 
   0.230000000    -0.1618477   -0.1267423     0.4776857   -0.8166578     0.4765662   -0.8179402    -0.1620764   -0.1254259 
   0.240000000    -0.1745584   -0.1225790     0.4403718   -0.8347475     0.4405261   -0.8349451    -0.1733501   -0.1214251 
   0.250000000    -0.1844410   -0.1152438     0.4032888   -0.8512321     0.4025086   -0.8497944    -0.1834888   -0.1153756 
   0.260000000    -0.1922816   -0.1100255     0.3651056   -0.8662516     0.3651845   -0.8661787    -0.1923579   -0.1094646 
   0.270000000    -0.2022027   -0.1055547     0.3260223   -0.8792757     0.3252833   -0.8793147    -0.2016454   -0.1038813 
   0.280000000    -0.2120979   -0.0982840     0.2872309   -0.8891594     0.2875369   -0.8898122    -0.2106283   -0.0969495 
   0.290000000    -0.2199557   -0.0887502     0.2489488   -0.9000085     0.2475516   -0.8991463    -0.2189613   -0.0889433 
   0.300000000    -0.2260935   -0.0807160     0.2092315   -0.9081521     0.2099570   -0.9070517    -0.2266457   -0.0805884 
   0.310000000    -0.2330845   -0.0728236     0.1709307   -0.9144685     0.1713281   -0.9127075    -0.2330904   -0.0712243 
   0.320000000    -0.2404534   -0.0634239     0.1305614   -0.9188774     0.1319657   -0.9181619    -0.2390756   -0.0617344 
   0.330000000    -0.2459350   -0.0520138     0.0912645   -0.9217453     0.0926974   -0.9208391    -0.2444905   -0.0520688 
   0.340000000    -0.2477459   -0.0422798     0.0532905   -0.9222270     0.0526537   -0.9240984    -0.2485299   -0.0417524 
   0.350000000    -0.2518546   -0.0334278     0.0128644   -0.9234809     0.0128781   -0.9235012    -0.2521742   -0.0321757 
   0.360000000    -0.2569616   -0.0226437    -0.0255483   -0.9210262    -0.0249124   -0.9218861    -0.2551971   -0.0219857 
   0.370000000    -0.2584051   -0.0101592    -0.0628833   -0.9171472    -0.0634473   -0.9172039    -0.2573103   -0.0108279 
   0.380000000    -0.2585359    0.0000709    -0.1022311   -0.9133630    -0.1028715   -0.9123580    -0.2584305    0.0003368 
   0.390000000    -0.2597284    0.0110359    -0.1404017   -0.9073399    -0.1380580   -0.9075748    -0.2595404    0.0121745 
   0.400000000    -0.2581653    0.0224790    -0.1776212   -0.9003925    -0.1769955   -0.8996870    -0.2573253    0.0233916 
   0.410000000    -0.2562233    0.0315993    -0.2148492   -0.8915539    -0.2155171   -0.8913475    -0.2556061    0.0315044 
   0.420000000    -0.2552809    0.0420975    -0.2525268   -0.8800491    -0.2528527   -0.8793838    -0.2553587    0.0425750 
   0.430000000    -0.2522796    0.0540904    -0.2886639   -0.8676367    -0.2876169   -0.8677379    -0.2522579    0.0543326 
   0.440000000    -0.2481218    0.0637602    -0.3246386   -0.8539014    -0.3239876   -0.8555339    -0.2473940    0.0644543 
   0.450000000    -0.2452828    0.0730526    -0.3606251   -0.8397024    -0.3587165   -0.8397234    -0.2441299    0.0732082 
   0.460000000    -0.2401593    0.0842684    -0.3946108   -0.8239664    -0.3944776   -0.8235027    -0.2398989    0.0837413 
   0.470000000    -0.2324401    0.0924440    -0.4292772   -0.8065746    -0.4271318   -0.8085730    -0.2327417    0.0933409 
   0.480000000    -0.2256227    0.0992951    -0.4638478   -0.7863299    -0.4632133   -0.7887865    -0.2254292    0.1002332 
   0.490000000    -0.2198835    0.1065985    -0.4946536   -0.7673247    -0.4963194   -0.7664254    -0.2186297    0.1072215 
   0.500000000    -0.2134506    0.1152006    -0.5260718   -0.7448410    -0.5277674   -0.7442887    -0.2120987    0.1138824 
   0.510000000    -0.2046717    0.1243304    -0.5580317   -0.7235261    -0.5568652   -0.7229410    -0.2053372    0.1224424 
   0.520000000    -0.1944534    0.1293402    -0.5873990   -0.6997080    -0.5873920   -0.6995121    -0.1954616    0.1298143 
   0.530000000    -0.1866024    0.1327027    -0.6173501   -0.6746367    -0.6176648   -0.6748737    -0.1845619    0.1325846 
   0.540000000    -0.1791740    0.1373430    -0.6466627   -0.6480445    -0.6461577   -0.6479273    -0.1770675    0.1349552 
   0.550000000    -0.1669740    0.1420342    -0.6717742   -0.6200632    -0.6736315   -0.6211262    -0.1683558    0.1396814 
   0.560000000    -0.1547676    0.1417380    -0.6965802   -0.5926555    -0.6992629   -0.5928089    -0.1564112    0.1427636 
   0.570000000    -0.1490723    0.1437791    -0.7232568   -0.5615254    -0.7244417   -0.5614760    -0.1464159    0.1441139 
   0.580000000    -0.1396575    0.1509319    -0.7457561   -0.5304850    -0.7466158   -0.5319039    -0.1384721    0.1462931 
   0.590000000    -0.1239795    0.1511480    -0.7709999   -0.4979041    -0.7691754   -0.4983346    -0.1278708    0.1491652 
   0.600000000    -0.1151436    0.1463463    -0.7905919   -0.4654746    -0.7900121   -0.4660689    -0.1153915    0.1488639 
   0.610000000    -0.1085006    0.1447271    -0.8110492   -0.4327015    -0.8120961   -0.4310240    -0.1048648    0.1445578 
   0.620000000    -0.0976900    0.1454619    -0.8288098   -0.3974503    -0.8295131   -0.3953868    -0.0973779    0.1389729 
   0.630000000    -0.0846761    0.1414881    -0.8460698   -0.3593017    -0.8465813   -0.3617307    -0.0913348    0.1390492 
   0.640000000    -0.0772557    0.1355545    -0.8603386   -0.3240050    -0.8626564   -0.3238147    -0.0785703    0.1394133 
   0.650000000    -0.0702295    0.1333837    -0.8756161   -0.2871906    -0.8757165   -0.2872109    -0.0669121    0.1323834 
   0.660000000    -0.0595975    0.1320677    -0.8882207   -0.2492075    -0.8893927   -0.2469894    -0.0612025    0.1261660 
   0.670000000    -0.0489548    0.1237265    -0.8982534   -0.2090040    -0.8991106   -0.2097568    -0.0545821    0.1225489 
   0.680000000    -0.0437825    0.1120056    -0.9065868   -0.1708970    -0.9086946   -0.1701392    -0.0456489    0.1173804 
   0.690000000    -0.0417492    0.1064101    -0.9148065   -0.1336440    -0.9168066   -0.1317545    -0.0378510    0.1057755 
   0.700000000    -0.0322821    0.1031554    -0.9214190   -0.0914219    -0.9208499   -0.0901740    -0.0356341    0.0965527 
   0.710000000    -0.0224443    0.0933211    -0.9230357   -0.0513409    -0.9243452   -0.0487441    -0.0322113    0.0918519 
   0.720000000    -0.0207693    0.0827907    -0.9258416   -0.0076824    -0.9253471   -0.0102946    -0.0246193    0.0868095 
   0.730000000    -0.0178575    0.0775750    -0.9259939    0.0310973    -0.9257735    0.0306733    -0.0166800    0.0777312 
   0.740000000    -0.0118709    0.0687330    -0.9236487    0.0736773    -0.9224525    0.0745652    -0.0147583    0.0645783 
   0.750000000    -0.0099931    0.0545612    -0.9195365    0.1127486    -0.9191161    0.1128684    -0.0176307    0.0539006 
   0.760000000    -0.0113231    0.0450761    -0.9141938    0.1547291    -0.9157104    0.1554812    -0.0175602    0.0494097 
   0.770000000    -0.0101740    0.0379614    -0.9057482    0.1947038    -0.9055908    0.1945539    -0.0124721    0.0385005 
   0.780000000    -0.0080421    0.0282020    -0.8988540    0.2345289    -0.8967921    0.2347588    -0.0138892    0.0265490 
   0.790000000    -0.0098523    0.0181901    -0.8857766    0.2738725    -0.8849741    0.2727795    -0.0180024    0.0193306 
   0.800000000    -0.0126175    0.0093738    -0.8728013    0.3112027    -0.8714359    0.3140949    -0.0159449    0.0134235 
   0.810000000    -0.0149256   -0.0012397    -0.8569260    0.3509232    -0.8569258    0.3541456    -0.0175157    0.0003239 
   0.820000000    -0.0184389   -0.0136956    -0.8395405    0.3869642    -0.8390414    0.3877337    -0.0236760   -0.0128788 
   0.830000000    -0.0262274   -0.0204835    -0.8245350    0.4265907    -0.8223119    0.4263424    -0.0345753   -0.0181582 
   0.840000000    -0.0301355   -0.0253424    -0.8004666    0.4630248    -0.8009272    0.4619965    -0.0369705   -0.0210135 
   0.850000000    -0.0323679   -0.0328380    -0.7789280    0.4962231    -0.7792062    0.4960368    -0.0375418   -0.0296278 
   0.860000000    -0.0398499   -0.0447151    -0.7562847    0.5317434    -0.7555375    0.5323882    -0.0445793   -0.0419239 
   0.870000000    -0.0518593   -0.0492157    -0.7299055    0.5637345    -0.7298598    0.5624530    -0.0565748   -0.0467950 
   0.880000000    -0.0579398   -0.0512949    -0.7055275    0.5938389    -0.7040681    0.5949157    -0.0639660   -0.0484354 
   0.890000000    -0.0622859   -0.0607742    -0.6772882    0.6240685    -0.6744630    0.6247973    -0.0686541   -0.0539397 
   0.900000000    -0.0753885   -0.0686581    -0.6481054    0.6517583    -0.6469211    0.6509553    -0.0799199   -0.0623887 
   0.910000000    -0.0870264   -0.0665922    -0.6174521    0.6808173    -0.6204408    0.6795486    -0.0931569   -0.0633174 
   0.920000000    -0.0909940   -0.0657707    -0.5845353    0.7056347    -0.5863142    0.7057931    -0.0992636   -0.0618758 
   0.930000000    -0.0977776   -0.0735436    -0.5535561    0.7293738    -0.5535163    0.7306526    -0.1032534   -0.0646403 
   0.940000000    -0.1137407   -0.0775794    -0.5190212    0.7541309    -0.5185164    0.7536794    -0.1128853   -0.0709819 
   0.950000000    -0.1254731   -0.0733490    -0.4852558    0.7728381    -0.4842090    0.7709739    -0.1278639   -0.0714736 
   0.960000000    -0.1316915   -0.0710681    -0.4506449    0.7937279    -0.4501091    0.7915838    -0.1401986   -0.0643390 
   0.970000000    -0.1398285   -0.0728707    -0.4156490    0.8111432    -0.4134879    0.8095809    -0.1448714   -0.0604484 
   0.980000000    -0.1529708   -0.0717749    -0.3769507    0.8267851    -0.3793478    0.8253752    -0.1508582   -0.0630246 
   0.990000000    -0.1628270   -0.0646046    -0.3404733    0.8388032    -0.3443756    0.8403582    -0.1640924   -0.0625982 
   1.000000000    -0.1675534   -0.0603147    -0.3049901    0.8513672    -0.3040723    0.8510333    -0.1739807   -0.0543059 
   1.010000000    -0.1765005   -0.0621761    -0.2667608    0.8628675    -0.2680729    0.8626734    -0.1777194   -0.0496628 
   1.020000000    -0.1919881   -0.0561067    -0.2289969    0.8732818    -0.2276828    0.8699304    -0.1864604   -0.0486773 
   1.030000000    -0.1976840   -0.0443616    -0.1884142    0.8801680    -0.1918210    0.8774257    -0.2001536   -0.0405721 
   1.040000000    -0.2007915   -0.0387396    -0.1531063    0.8851568    -0.1546219    0.8857786    -0.2069265   -0.0287493 
   1.050000000    -0.2086107   -0.0357441    -0.1141354    0.8905346    -0.1151045    0.8891330    -0.2087661   -0.0220352 
   1.060000000    -0.2194176   -0.0262678    -0.0743403    0.8913859    -0.0787389    0.8929076    -0.2130544   -0.0194548 
   1.070000000    -0.2221946   -0.0141054    -0.0374616    0.8928719    -0.0354555    0.8942746    -0.2234965   -0.0147113 
   1.080000000    -0.2249651   -0.0102701     0.0002943    0.8918849     0.0010887    0.8912609    -0.2311387   -0.0008802 
   1.090000000    -0.2338941   -0.0026426     0.0381258    0.8906473     0.0395687    0.8882565    -0.2301432    0.0118512 
   1.100000000    -0.2393007    0.0110256     0.0762335    0.8890034     0.0744064    0.8841608    -0.2306213    0.0174818 
   1.110000000    -0.2376929    0.0229079     0.1153779    0.8799962     0.1112831    0.8822679    -0.2372260    0.0238291 
   1.120000000    -0.2380097    0.0285634     0.1500349    0.8719882     0.1496620    0.8771136    -0.2430645    0.0372940 
   1.130000000    -0.2432634    0.0358775     0.1862481    0.8656738     0.1870237    0.8654312    -0.2398042    0.0507493 
   1.140000000    -0.2465528    0.0500491     0.2231392    0.8558233     0.2209655    0.8566996    -0.2361808    0.0550462 
   1.150000000    -0.2424572    0.0628066     0.2587387    0.8461745     0.2574221    0.8446401    -0.2401443    0.0607348 
   1.160000000    -0.2413685    0.0685669     0.2936166    0.8320563     0.2895539    0.8331448    -0.2437392    0.0751299 
   1.170000000    -0.2429774    0.0789525     0.3260360    0.8188865     0.3259656    0.8188109    -0.2384569    0.0892385 
   1.180000000    -0.2397654    0.0909509     0.3619822    0.8040543     0.3560427    0.8047908    -0.2315361    0.0965980 
   1.190000000    -0.2334343    0.0991045     0.3931062    0.7862070     0.3926935    0.7910694    -0.2295152    0.1001425 
   1.200000000    -0.2319761    0.1051959     0.4267755    0.7682068     0.4260511    0.7702448    -0.2307913    0.1109437 
   1.210000000    -0.2302388    0.1172839     0.4563250    0.7495018     0.4562961    0.7506469    -0.2243222    0.1240697 
   1.220000000    -0.2212164    0.1279273     0.4884385    0.7310566     0.4849657    0.7306164    -0.2151951    0.1312961 
   1.230000000    -0.2154797    0.1324435     0.5192049    0.7089792     0.5160717    0.7116728    -0.2113170    0.1358416 
   1.240000000    -0.2128610    0.1407530     0.5464860    0.6851249     0.5470267    0.6872889    -0.2089555    0.1458492 
   1.250000000    -0.2045873    0.1517108     0.5731526    0.6634862     0.5736160    0.6628345    -0.1995700    0.1555794 
   1.260000000    -0.1935032    0.1552666     0.6009378    0.6401113     0.6003390    0.6408843    -0.1888193    0.1584298 
   1.270000000    -0.1883491    0.1566133     0.6273953    0.6132705     0.6269965    0.6159623    -0.1833821    0.1603076 
   1.280000000    -0.1842320    0.1657495     0.6535294    0.5855898     0.6517362    0.5868890    -0.1784879    0.1681671 
   1.290000000    -0.1715210    0.1752557     0.6762302    0.5559137     0.6757214    0.5602082    -0.1673725    0.1772391 
   1.300000000    -0.1577069    0.1764211     0.6990745    0.5304087     0.6976297    0.5307112    -0.1542163    0.1797987 
   1.310000000    -0.1527430    0.1743299     0.7226600    0.5002833     0.7224514    0.5041294    -0.1465024    0.1782418 
   1.320000000    -0.1493240    0.1810687     0.7433826    0.4672520     0.7434443    0.4709239    -0.1433257    0.1812004 
   1.330000000    -0.1353566    0.1881840     0.7607412    0.4365028     0.7615960    0.4393443    -0.1340404    0.1885039 
   1.340000000    -0.1198032    0.1843129     0.7781924    0.4066452     0.7797914    0.4080665    -0.1181902    0.1891419 
   1.350000000    -0.1152031    0.1784669     0.7973140    0.3734929     0.7983525    0.3749942    -0.1069887    0.1831760 
   1.360000000    -0.1103406    0.1843410     0.8131114    0.3385074     0.8135009    0.3392837    -0.1026994    0.1821898 
   1.370000000    -0.0943531    0.1883543     0.8261224    0.3031871     0.8272429    0.3064623    -0.0942294    0.1869232 
   1.380000000    -0.0812182    0.1808127     0.8380157    0.2683778     0.8408386    0.2695029    -0.0802526    0.1866362 
   1.390000000    -0.0789098    0.1744237     0.8513158    0.2343515     0.8519881    0.2347839    -0.0712470    0.1788559 
   1.400000000    -0.0732339    0.1779303     0.8610845    0.1957904     0.8626853    0.1974540    -0.0668278    0.1739500 
   1.410000000    -0.0576365    0.1749396     0.8707209    0.1593987     0.8694542    0.1622913    -0.0590758    0.1723550 
   1.420000000    -0.0484866    0.1634652     0.8764251    0.1226815     0.8791509    0.1227739    -0.0465575    0.1690464 
   1.430000000    -0.0454655    0.1575774     0.8822426    0.0853679     0.8823436    0.0864322    -0.0368313    0.1597039 
   1.440000000    -0.0379141    0.1577206     0.8860861    0.0464772     0.8869938    0.0489056    -0.0330282    0.1529180 
   1.450000000    -0.0261751    0.1502655     0.8864151    0.0073501     0.8889769    0.0087162    -0.0286192    0.1512589 
   1.460000000    -0.0224277    0.1394522     0.8873745   -0.0293597     0.8905421   -0.0297895    -0.0191921    0.1461272 
   1.470000000    -0.0214236    0.1340458     0.8865528   -0.0683824     0.8867505   -0.0698936    -0.0123509    0.1327915 
   1.480000000    -0.0137613    0.1298788     0.8844463   -0.1087552     0.8850859   -0.1056652    -0.0127465    0.1229669 
   1.490000000    -0.0049406    0.1172795     0.8780620   -0.1458517     0.8793385   -0.1447761    -0.0091669    0.1188592 
   1.500000000    -0.0057570    0.1043110     0.8726829   -0.1854873     0.8745755   -0.1847001    -0.0007464    0.1123009 
   1.510000000    -0.0068817    0.1010233     0.8628137   -0.2216828     0.8643004   -0.2238976     0.0039484    0.0989160 
   1.520000000    -0.0001619    0.0961943     0.8553239   -0.2595810     0.8542964   -0.2595672     0.0000100    0.0882017 
