! 2/21/2025 7:24:39 AM
! Z:\OQC\AD5\613\LOT-141-0825\SINGLE\3-L20-4.S2P
! CHANNEL.1
! TR.MEASUREMENT
! CORRECTED.DATA
! RF.CORRECTION: FULL.FOUR.PORT.CAL.PORT.1.2.3.4
! AVERAGING.OFF
! IF.BANDWIDTH: 1KHZ
! SWEEPTYPE:  FREQ.SWEEP(Linear)
! Reference Plane Port Info
! PORT:              PORT1              PORT2             
! DISTANCE:          0  m               0  m              
! TIME:              0  s               0  s              
! PHASE.OFFSET:      0 °                0 °               
! LOSS:              0  dB              0  dB             
! REF.LOSS:          0  dB              0  dB             
! REF.FREQ:          0  Hz              0  Hz             
! Power Info
! POWER:             -10  dBm           -10  dBm          
! EFF.POWER:         -10  dBm           -10  dBm          
! SOURCE.ATTEN:      0  dB              0  dB             
! TEST.ATTEN:        0  dB              0  dB             
# GHZ S RI R 50.0
! FREQ.GHZ         S11RE         S11IM         S21RE         S21IM         S12RE         S12IM         S22RE         S22IM         
!; PortSelection: Port_12
   0.010000000     0.0092596   -0.0055769     0.9888595   -0.0447582     0.9892352   -0.0446832     0.0095296   -0.0054852 
   0.020000000     0.0109794   -0.0145157     0.9852648   -0.0907638     0.9848717   -0.0906907     0.0114132   -0.0141789 
   0.030000000     0.0092468   -0.0241152     0.9776257   -0.1350978     0.9782938   -0.1351101     0.0098979   -0.0238684 
   0.040000000     0.0065441   -0.0313060     0.9695558   -0.1792127     0.9698792   -0.1791462     0.0072569   -0.0312147 
   0.050000000     0.0053579   -0.0384421     0.9580784   -0.2223373     0.9584225   -0.2227802     0.0061684   -0.0381186 
   0.060000000     0.0032520   -0.0472353     0.9471850   -0.2650206     0.9470018   -0.2653474     0.0044367   -0.0470410 
   0.070000000    -0.0014697   -0.0565032     0.9322813   -0.3076864     0.9321756   -0.3078940     0.0002192   -0.0562009 
   0.080000000    -0.0067091   -0.0633783     0.9162958   -0.3483403     0.9161439   -0.3483495    -0.0049081   -0.0634303 
   0.090000000    -0.0114737   -0.0697231     0.8979973   -0.3884198     0.8984779   -0.3883927    -0.0093308   -0.0696838 
   0.100000000    -0.0163345   -0.0768653     0.8789976   -0.4276063     0.8786309   -0.4276599    -0.0139766   -0.0768249 
   0.110000000    -0.0235624   -0.0843995     0.8569539   -0.4657773     0.8572506   -0.4653336    -0.0208058   -0.0846911 
   0.120000000    -0.0320607   -0.0894535     0.8350136   -0.5025865     0.8342093   -0.5020065    -0.0291894   -0.0902211 
   0.130000000    -0.0393659   -0.0932920     0.8102888   -0.5382404     0.8094270   -0.5376821    -0.0355803   -0.0943926 
   0.140000000    -0.0458634   -0.0981554     0.7848767   -0.5721589     0.7845865   -0.5721961    -0.0415612   -0.1002142 
   0.150000000    -0.0551211   -0.1031402     0.7553041   -0.6058998     0.7553246   -0.6050550    -0.0504146   -0.1059591 
   0.160000000    -0.0649801   -0.1057176     0.7272766   -0.6368319     0.7277270   -0.6359451    -0.0598572   -0.1090924 
   0.170000000    -0.0740245   -0.1063991     0.6974192   -0.6670102     0.6972347   -0.6664439    -0.0681985   -0.1104070 
   0.180000000    -0.0824206   -0.1069638     0.6655221   -0.6950634     0.6667363   -0.6951296    -0.0769224   -0.1122033 
   0.190000000    -0.0913722   -0.1085943     0.6343142   -0.7225791     0.6338614   -0.7225849    -0.0858171   -0.1142668 
   0.200000000    -0.1022648   -0.1089961     0.6012470   -0.7487788     0.6015652   -0.7485437    -0.0958587   -0.1157119 
   0.210000000    -0.1124482   -0.1063578     0.5669296   -0.7725726     0.5667072   -0.7712919    -0.1058228   -0.1152991 
   0.220000000    -0.1195801   -0.1042684     0.5311723   -0.7951993     0.5321732   -0.7944070    -0.1143604   -0.1141347 
   0.230000000    -0.1287052   -0.1035777     0.4949199   -0.8147708     0.4949480   -0.8153030    -0.1227812   -0.1136363 
   0.240000000    -0.1399527   -0.1000907     0.4589828   -0.8331645     0.4578481   -0.8342032    -0.1324906   -0.1114138 
   0.250000000    -0.1484285   -0.0935377     0.4229544   -0.8513446     0.4218681   -0.8500866    -0.1413484   -0.1075241 
   0.260000000    -0.1545441   -0.0890302     0.3843460   -0.8673779     0.3838697   -0.8674614    -0.1488878   -0.1034360 
   0.270000000    -0.1630872   -0.0857810     0.3470230   -0.8812363     0.3457978   -0.8816398    -0.1572107   -0.0998702 
   0.280000000    -0.1718310   -0.0795019     0.3073808   -0.8934482     0.3071216   -0.8931979    -0.1654364   -0.0956978 
   0.290000000    -0.1788033   -0.0711378     0.2696464   -0.9043255     0.2673518   -0.9046920    -0.1730705   -0.0904352 
   0.300000000    -0.1838820   -0.0640538     0.2300754   -0.9137486     0.2280562   -0.9127971    -0.1801436   -0.0843178 
   0.310000000    -0.1897929   -0.0574726     0.1905706   -0.9213969     0.1902328   -0.9194825    -0.1862252   -0.0774120 
   0.320000000    -0.1966350   -0.0491545     0.1509078   -0.9261199     0.1497970   -0.9266058    -0.1924790   -0.0704224 
   0.330000000    -0.2011982   -0.0391519     0.1110217   -0.9308336     0.1119253   -0.9298466    -0.1980519   -0.0634937 
   0.340000000    -0.2028522   -0.0310098     0.0709665   -0.9334486     0.0722105   -0.9341908    -0.2022878   -0.0556164 
   0.350000000    -0.2058674   -0.0233494     0.0314871   -0.9348126     0.0321696   -0.9344872    -0.2060163   -0.0486920 
   0.360000000    -0.2107255   -0.0134777    -0.0080563   -0.9331904    -0.0077791   -0.9330302    -0.2102344   -0.0406159 
   0.370000000    -0.2117291   -0.0022152    -0.0468660   -0.9305716    -0.0472976   -0.9304911    -0.2134296   -0.0319721 
   0.380000000    -0.2119789    0.0065298    -0.0851676   -0.9274184    -0.0856695   -0.9270181    -0.2157754   -0.0234303 
   0.390000000    -0.2129018    0.0161697    -0.1245553   -0.9218390    -0.1224109   -0.9217592    -0.2177033   -0.0136756 
   0.400000000    -0.2114713    0.0258722    -0.1635018   -0.9151053    -0.1619776   -0.9152735    -0.2169717   -0.0053352 
   0.410000000    -0.2097059    0.0342113    -0.2006305   -0.9063091    -0.2009614   -0.9067147    -0.2167045    0.0016525 
   0.420000000    -0.2085463    0.0436568    -0.2390994   -0.8961321    -0.2382883   -0.8953286    -0.2184742    0.0103170 
   0.430000000    -0.2057747    0.0542941    -0.2742644   -0.8843314    -0.2745581   -0.8846107    -0.2174862    0.0200345 
   0.440000000    -0.2019106    0.0629651    -0.3117999   -0.8715513    -0.3112643   -0.8722990    -0.2147524    0.0285969 
   0.450000000    -0.1992135    0.0711342    -0.3487791   -0.8571805    -0.3478620   -0.8565701    -0.2135895    0.0357742 
   0.460000000    -0.1949765    0.0813013    -0.3839661   -0.8411251    -0.3838611   -0.8414130    -0.2117360    0.0448546 
   0.470000000    -0.1877261    0.0892101    -0.4189224   -0.8245835    -0.4169089   -0.8250414    -0.2069985    0.0529285 
   0.480000000    -0.1804385    0.0945828    -0.4521420   -0.8060964    -0.4524295   -0.8077824    -0.2022049    0.0588059 
   0.490000000    -0.1758945    0.1011687    -0.4856268   -0.7855291    -0.4872790   -0.7848381    -0.1982226    0.0652781 
   0.500000000    -0.1700390    0.1089542    -0.5177172   -0.7645921    -0.5187345   -0.7634934    -0.1946773    0.0709666 
   0.510000000    -0.1616966    0.1172194    -0.5507500   -0.7414597    -0.5482750   -0.7420353    -0.1906643    0.0789924 
   0.520000000    -0.1520243    0.1218489    -0.5800599   -0.7187020    -0.5807373   -0.7191637    -0.1835184    0.0859277 
   0.530000000    -0.1447041    0.1246412    -0.6099166   -0.6942709    -0.6090629   -0.6938145    -0.1752827    0.0890094 
   0.540000000    -0.1376461    0.1286247    -0.6392325   -0.6676937    -0.6394193   -0.6672872    -0.1705560    0.0913859 
   0.550000000    -0.1264361    0.1331865    -0.6663252   -0.6398311    -0.6672852   -0.6397319    -0.1652253    0.0960031 
   0.560000000    -0.1153670    0.1328313    -0.6916534   -0.6105978    -0.6937103   -0.6127430    -0.1563277    0.1002431 
   0.570000000    -0.1101293    0.1339345    -0.7179724   -0.5816548    -0.7184210   -0.5819832    -0.1489515    0.1019762 
   0.580000000    -0.1013165    0.1405454    -0.7409301   -0.5507236    -0.7412785   -0.5503096    -0.1433444    0.1049444 
   0.590000000    -0.0862161    0.1412025    -0.7660995   -0.5191004    -0.7639928   -0.5183252    -0.1359464    0.1091677 
   0.600000000    -0.0778689    0.1358361    -0.7861864   -0.4857678    -0.7864496   -0.4878176    -0.1264731    0.1106334 
   0.610000000    -0.0727860    0.1344638    -0.8062388   -0.4536515    -0.8088859   -0.4511971    -0.1186018    0.1075630 
   0.620000000    -0.0618692    0.1356235    -0.8258002   -0.4181565    -0.8251526   -0.4174366    -0.1131370    0.1036681 
   0.630000000    -0.0495729    0.1315737    -0.8424780   -0.3824129    -0.8434308   -0.3827023    -0.1093080    0.1051420 
   0.640000000    -0.0420606    0.1256104    -0.8583228   -0.3463261    -0.8592930   -0.3465765    -0.0991367    0.1076370 
   0.650000000    -0.0364291    0.1237600    -0.8731560   -0.3108795    -0.8734586   -0.3097294    -0.0892590    0.1032394 
   0.660000000    -0.0263008    0.1227642    -0.8854445   -0.2737105    -0.8858476   -0.2715017    -0.0849202    0.0994890 
   0.670000000    -0.0158849    0.1143399    -0.8970224   -0.2335848    -0.8964218   -0.2342453    -0.0805476    0.0985619 
   0.680000000    -0.0108025    0.1037029    -0.9056998   -0.1946641    -0.9074067   -0.1959653    -0.0729503    0.0959013 
   0.690000000    -0.0090089    0.0978327    -0.9141288   -0.1581852    -0.9171037   -0.1561076    -0.0663265    0.0876179 
   0.700000000     0.0007289    0.0951439    -0.9220668   -0.1171551    -0.9208647   -0.1157584    -0.0649717    0.0808998 
   0.710000000     0.0101346    0.0856076    -0.9244897   -0.0765623    -0.9259167   -0.0780478    -0.0630018    0.0785871 
   0.720000000     0.0117049    0.0755642    -0.9284608   -0.0353282    -0.9272851   -0.0385719    -0.0558108    0.0769348 
   0.730000000     0.0149749    0.0703142    -0.9289877    0.0030158    -0.9301373    0.0032852    -0.0478917    0.0706248 
   0.740000000     0.0207597    0.0618270    -0.9281324    0.0438937    -0.9265984    0.0460517    -0.0460965    0.0611111 
   0.750000000     0.0231843    0.0484737    -0.9250419    0.0849067    -0.9247812    0.0838689    -0.0487957    0.0527279 
   0.760000000     0.0219294    0.0385846    -0.9206969    0.1252828    -0.9230827    0.1246591    -0.0487743    0.0511954 
   0.770000000     0.0233482    0.0315110    -0.9140365    0.1634815    -0.9148945    0.1655608    -0.0425522    0.0438943 
   0.780000000     0.0253547    0.0221784    -0.9077304    0.2038248    -0.9070144    0.2039119    -0.0433831    0.0340811 
   0.790000000     0.0248269    0.0123810    -0.8960996    0.2429379    -0.8966890    0.2427990    -0.0462200    0.0295067 
   0.800000000     0.0224638    0.0037418    -0.8847551    0.2804014    -0.8847529    0.2819526    -0.0433023    0.0262901 
   0.810000000     0.0207185   -0.0074003    -0.8709996    0.3200673    -0.8714501    0.3231491    -0.0428856    0.0155892 
   0.820000000     0.0175416   -0.0196596    -0.8560187    0.3558254    -0.8547768    0.3572819    -0.0470724    0.0052748 
   0.830000000     0.0109694   -0.0275473    -0.8416607    0.3950336    -0.8395233    0.3959382    -0.0563939    0.0010307 
   0.840000000     0.0071955   -0.0320473    -0.8208832    0.4324706    -0.8208807    0.4322712    -0.0574974    0.0007699 
   0.850000000     0.0053620   -0.0397930    -0.8004996    0.4654978    -0.8014423    0.4655263    -0.0553895   -0.0054483 
   0.860000000    -0.0013102   -0.0526898    -0.7797978    0.5021635    -0.7790695    0.5031739    -0.0599753   -0.0166614 
   0.870000000    -0.0129769   -0.0579584    -0.7551596    0.5334480    -0.7546138    0.5342643    -0.0693175   -0.0202903 
   0.880000000    -0.0189744   -0.0607336    -0.7329897    0.5655042    -0.7304950    0.5665399    -0.0749937   -0.0211406 
   0.890000000    -0.0226562   -0.0704821    -0.7068265    0.5968058    -0.7026779    0.5973604    -0.0774321   -0.0250887 
   0.900000000    -0.0350304   -0.0799182    -0.6784790    0.6248680    -0.6771790    0.6240861    -0.0855975   -0.0339179 
   0.910000000    -0.0474885   -0.0785972    -0.6501381    0.6549806    -0.6513672    0.6557637    -0.0968077   -0.0338763 
   0.920000000    -0.0516831   -0.0789542    -0.6172428    0.6817647    -0.6187328    0.6821430    -0.1008981   -0.0321834 
   0.930000000    -0.0572847   -0.0869528    -0.5885634    0.7060544    -0.5892683    0.7067084    -0.1023599   -0.0342571 
   0.940000000    -0.0730955   -0.0933093    -0.5565001    0.7324004    -0.5552550    0.7334847    -0.1090568   -0.0409800 
   0.950000000    -0.0851589   -0.0901756    -0.5226707    0.7531502    -0.5219971    0.7517303    -0.1215659   -0.0426926 
   0.960000000    -0.0926165   -0.0889699    -0.4906687    0.7752517    -0.4912815    0.7736074    -0.1331704   -0.0367420 
   0.970000000    -0.1002033   -0.0918717    -0.4548559    0.7956128    -0.4538321    0.7941837    -0.1350735   -0.0327022 
   0.980000000    -0.1138128   -0.0926166    -0.4189444    0.8126199    -0.4209439    0.8113984    -0.1394286   -0.0352554 
   0.990000000    -0.1249752   -0.0865838    -0.3825334    0.8271732    -0.3847534    0.8289623    -0.1507892   -0.0376243 
   1.000000000    -0.1304050   -0.0829005    -0.3484170    0.8412268    -0.3472849    0.8416798    -0.1590015   -0.0305513 
   1.010000000    -0.1397210   -0.0858788    -0.3106391    0.8546889    -0.3109976    0.8545324    -0.1610557   -0.0264386 
   1.020000000    -0.1562839   -0.0812563    -0.2730791    0.8673423    -0.2709360    0.8649442    -0.1680813   -0.0272583 
   1.030000000    -0.1638295   -0.0706556    -0.2336224    0.8762864    -0.2370321    0.8733896    -0.1810185   -0.0216488 
   1.040000000    -0.1678888   -0.0653228    -0.1974749    0.8837450    -0.2003976    0.8847723    -0.1875343   -0.0105914 
   1.050000000    -0.1771390   -0.0643413    -0.1581507    0.8904203    -0.1595814    0.8895336    -0.1884697   -0.0047002 
   1.060000000    -0.1893051   -0.0554386    -0.1199094    0.8933169    -0.1237599    0.8955508    -0.1913880   -0.0045606 
   1.070000000    -0.1938055   -0.0435943    -0.0832142    0.8970059    -0.0808342    0.8986590    -0.2012665   -0.0022768 
   1.080000000    -0.1978814   -0.0398564    -0.0439335    0.8992645    -0.0441488    0.8971186    -0.2093994    0.0092454 
   1.090000000    -0.2086556   -0.0332780    -0.0075304    0.8987550    -0.0068861    0.8971604    -0.2091643    0.0211650 
   1.100000000    -0.2161052   -0.0200021     0.0305262    0.8989579     0.0303056    0.8937823    -0.2091995    0.0251208 
   1.110000000    -0.2164952   -0.0079098     0.0714736    0.8926371     0.0655816    0.8938907    -0.2159011    0.0288871 
   1.120000000    -0.2185095   -0.0019876     0.1058639    0.8857341     0.1058373    0.8894354    -0.2225715    0.0412417 
   1.130000000    -0.2253223    0.0049197     0.1428629    0.8806390     0.1440568    0.8811067    -0.2203452    0.0532144 
   1.140000000    -0.2304883    0.0187159     0.1792636    0.8731822     0.1768786    0.8729652    -0.2169404    0.0566080 
   1.150000000    -0.2289665    0.0324189     0.2156388    0.8647872     0.2144132    0.8650752    -0.2218084    0.0600584 
   1.160000000    -0.2292391    0.0390382     0.2517197    0.8539459     0.2485598    0.8532841    -0.2268812    0.0730253 
   1.170000000    -0.2325760    0.0495375     0.2857677    0.8414723     0.2857317    0.8407895    -0.2234768    0.0866034 
   1.180000000    -0.2316436    0.0632552     0.3223339    0.8277179     0.3161880    0.8286915    -0.2180091    0.0934222 
   1.190000000    -0.2271976    0.0723773     0.3553230    0.8114819     0.3534752    0.8162790    -0.2168618    0.0960167 
   1.200000000    -0.2272516    0.0791770     0.3878388    0.7957321     0.3869393    0.7973676    -0.2197442    0.1049504 
   1.210000000    -0.2274308    0.0924531     0.4199997    0.7773035     0.4190505    0.7778619    -0.2156821    0.1182474 
   1.220000000    -0.2202927    0.1050334     0.4527444    0.7607026     0.4486745    0.7601270    -0.2080676    0.1253973 
   1.230000000    -0.2156755    0.1110010     0.4842025    0.7395723     0.4804397    0.7424265    -0.2057466    0.1292461 
   1.240000000    -0.2146558    0.1209324     0.5129002    0.7176617     0.5122851    0.7193778    -0.2057581    0.1388729 
   1.250000000    -0.2083351    0.1336836     0.5402883    0.6963737     0.5409857    0.6966499    -0.1985749    0.1494822 
   1.260000000    -0.1980257    0.1398375     0.5694838    0.6747395     0.5671390    0.6752641    -0.1893913    0.1530435 
   1.270000000    -0.1935202    0.1430346     0.5955372    0.6491789     0.5961086    0.6514803    -0.1854647    0.1552242 
   1.280000000    -0.1908434    0.1537834     0.6238996    0.6225688     0.6208453    0.6246263    -0.1829219    0.1634200 
   1.290000000    -0.1795379    0.1662564     0.6463534    0.5947599     0.6456655    0.5983054    -0.1742090    0.1737861 
   1.300000000    -0.1660119    0.1702535     0.6703120    0.5707939     0.6689811    0.5706816    -0.1627730    0.1779291 
   1.310000000    -0.1608755    0.1702645     0.6949267    0.5406083     0.6945859    0.5454460    -0.1561809    0.1776283 
   1.320000000    -0.1584118    0.1789254     0.7169301    0.5098743     0.7170062    0.5133499    -0.1549941    0.1814179 
   1.330000000    -0.1453363    0.1893031     0.7353671    0.4807862     0.7371135    0.4833345    -0.1479551    0.1903902 
   1.340000000    -0.1292076    0.1888994     0.7542710    0.4518926     0.7554948    0.4525297    -0.1335449    0.1937765 
   1.350000000    -0.1235857    0.1850645     0.7741684    0.4199144     0.7754060    0.4217622    -0.1232492    0.1900461 
   1.360000000    -0.1190889    0.1930480     0.7914367    0.3869412     0.7918085    0.3864971    -0.1200898    0.1909368 
   1.370000000    -0.1029954    0.2004080     0.8066895    0.3517294     0.8062779    0.3562050    -0.1131158    0.1977196 
   1.380000000    -0.0884018    0.1964829     0.8199378    0.3184990     0.8220444    0.3203126    -0.1002928    0.2005323 
   1.390000000    -0.0845184    0.1921271     0.8341264    0.2858056     0.8346428    0.2871426    -0.0916599    0.1955117 
   1.400000000    -0.0784460    0.1981408     0.8461526    0.2490971     0.8475256    0.2517226    -0.0875252    0.1928290 
   1.410000000    -0.0616008    0.1986099     0.8565930    0.2151020     0.8559817    0.2182552    -0.0803568    0.1938766 
   1.420000000    -0.0499121    0.1898823     0.8647615    0.1791561     0.8669913    0.1806275    -0.0683352    0.1940919 
   1.430000000    -0.0451090    0.1859329     0.8727100    0.1428354     0.8733745    0.1434392    -0.0576208    0.1882760 
   1.440000000    -0.0361307    0.1883309     0.8791572    0.1050758     0.8797513    0.1080926    -0.0534633    0.1844626 
   1.450000000    -0.0219107    0.1843920     0.8817694    0.0682186     0.8839649    0.0703387    -0.0487649    0.1852477 
   1.460000000    -0.0146205    0.1753708     0.8846919    0.0318244     0.8876170    0.0329999    -0.0388823    0.1838482 
   1.470000000    -0.0111047    0.1714780     0.8852213   -0.0049906     0.8871343   -0.0069493    -0.0302244    0.1740100 
   1.480000000    -0.0010835    0.1695179     0.8872368   -0.0444676     0.8876481   -0.0425290    -0.0288746    0.1668995 
   1.490000000     0.0112531    0.1594194     0.8832497   -0.0819457     0.8852905   -0.0792591    -0.0240580    0.1654403 
   1.500000000     0.0146084    0.1469979     0.8803356   -0.1200371     0.8839007   -0.1193440    -0.0138157    0.1623903 
   1.510000000     0.0165248    0.1442635     0.8744509   -0.1557428     0.8757092   -0.1574910    -0.0060961    0.1520806 
   1.520000000     0.0259824    0.1411493     0.8706844   -0.1929245     0.8687512   -0.1924508    -0.0073327    0.1435706 
