! 2/21/2025 7:26:36 AM
! Z:\OQC\AD5\613\LOT-141-0825\SINGLE\3-L5-4.S2P
! CHANNEL.1
! TR.MEASUREMENT
! CORRECTED.DATA
! RF.CORRECTION: FULL.FOUR.PORT.CAL.PORT.1.2.3.4
! AVERAGING.OFF
! IF.BANDWIDTH: 1KHZ
! SWEEPTYPE:  FREQ.SWEEP(Linear)
! Reference Plane Port Info
! PORT:              PORT1              PORT2             
! DISTANCE:          0  m               0  m              
! TIME:              0  s               0  s              
! PHASE.OFFSET:      0 °                0 °               
! LOSS:              0  dB              0  dB             
! REF.LOSS:          0  dB              0  dB             
! REF.FREQ:          0  Hz              0  Hz             
! Power Info
! POWER:             -10  dBm           -10  dBm          
! EFF.POWER:         -10  dBm           -10  dBm          
! SOURCE.ATTEN:      0  dB              0  dB             
! TEST.ATTEN:        0  dB              0  dB             
# GHZ S RI R 50.0
! FREQ.GHZ         S11RE         S11IM         S21RE         S21IM         S12RE         S12IM         S22RE         S22IM         
!; PortSelection: Port_12
   0.010000000     0.0078747   -0.0052114     0.9904221   -0.0456353     0.9902547   -0.0459080     0.0082269   -0.0051028 
   0.020000000     0.0100454   -0.0141334     0.9858999   -0.0920327     0.9858661   -0.0921682     0.0104131   -0.0137868 
   0.030000000     0.0084494   -0.0237292     0.9777083   -0.1374945     0.9788103   -0.1373571     0.0090851   -0.0234375 
   0.040000000     0.0059648   -0.0309747     0.9695159   -0.1818280     0.9700142   -0.1815663     0.0065526   -0.0308785 
   0.050000000     0.0049050   -0.0381958     0.9585303   -0.2255492     0.9585007   -0.2257103     0.0055293   -0.0377678 
   0.060000000     0.0029067   -0.0473445     0.9462859   -0.2683706     0.9461903   -0.2685301     0.0039176   -0.0469714 
   0.070000000    -0.0016433   -0.0567242     0.9313375   -0.3111177     0.9316177   -0.3114273    -0.0002296   -0.0562588 
   0.080000000    -0.0068442   -0.0637953     0.9149919   -0.3518272     0.9147565   -0.3520603    -0.0054286   -0.0636145 
   0.090000000    -0.0114908   -0.0704490     0.8952919   -0.3917396     0.8966120   -0.3921503    -0.0099177   -0.0699717 
   0.100000000    -0.0164826   -0.0778215     0.8762296   -0.4310391     0.8761845   -0.4312561    -0.0146568   -0.0773433 
   0.110000000    -0.0238060   -0.0855271     0.8550140   -0.4700623     0.8550450   -0.4697617    -0.0216440   -0.0852850 
   0.120000000    -0.0323852   -0.0908420     0.8319578   -0.5060049     0.8309269   -0.5059941    -0.0302642   -0.0908959 
   0.130000000    -0.0399348   -0.0947454     0.8057824   -0.5421149     0.8061886   -0.5417635    -0.0368883   -0.0951682 
   0.140000000    -0.0465395   -0.0998674     0.7809415   -0.5763780     0.7801461   -0.5759133    -0.0431519   -0.1009532 
   0.150000000    -0.0557353   -0.1051786     0.7523156   -0.6104010     0.7515339   -0.6095756    -0.0521451   -0.1068752 
   0.160000000    -0.0657329   -0.1075610     0.7223410   -0.6407319     0.7221723   -0.6404409    -0.0619674   -0.1095712 
   0.170000000    -0.0753442   -0.1084746     0.6927679   -0.6700054     0.6927206   -0.6699216    -0.0707066   -0.1110642 
   0.180000000    -0.0836099   -0.1088680     0.6606507   -0.6998843     0.6619992   -0.6988097    -0.0795119   -0.1123532 
   0.190000000    -0.0928464   -0.1106656     0.6280925   -0.7265020     0.6280037   -0.7264804    -0.0887603   -0.1142400 
   0.200000000    -0.1038985   -0.1110109     0.5952204   -0.7526190     0.5947767   -0.7524953    -0.0989070   -0.1155837 
   0.210000000    -0.1139126   -0.1084433     0.5600495   -0.7765040     0.5600753   -0.7746499    -0.1091334   -0.1147720 
   0.220000000    -0.1213930   -0.1063757     0.5252348   -0.7978968     0.5237590   -0.7987542    -0.1177897   -0.1132980 
   0.230000000    -0.1306643   -0.1056148     0.4883356   -0.8183351     0.4877750   -0.8195664    -0.1264266   -0.1123032 
   0.240000000    -0.1420121   -0.1020487     0.4506833   -0.8375255     0.4499481   -0.8381687    -0.1362907   -0.1097387 
   0.250000000    -0.1505918   -0.0953895     0.4138222   -0.8543968     0.4135249   -0.8538776    -0.1452460   -0.1054621 
   0.260000000    -0.1567628   -0.0908898     0.3755819   -0.8701243     0.3751671   -0.8699844    -0.1530722   -0.1012666 
   0.270000000    -0.1654692   -0.0876698     0.3372364   -0.8831675     0.3361362   -0.8844325    -0.1610364   -0.0975127 
   0.280000000    -0.1742930   -0.0813623     0.2982853   -0.8947916     0.2967815   -0.8952040    -0.1690886   -0.0926947 
   0.290000000    -0.1813148   -0.0728719     0.2597450   -0.9050532     0.2576081   -0.9060989    -0.1766943   -0.0866856 
   0.300000000    -0.1864592   -0.0659276     0.2199444   -0.9152160     0.2196302   -0.9140298    -0.1839576   -0.0802337 
   0.310000000    -0.1924683   -0.0592136     0.1796811   -0.9213759     0.1796640   -0.9212980    -0.1895919   -0.0730911 
   0.320000000    -0.1992061   -0.0507593     0.1400411   -0.9269454     0.1402229   -0.9268275    -0.1955405   -0.0657318 
   0.330000000    -0.2038040   -0.0410306     0.1004616   -0.9314070     0.1000580   -0.9292016    -0.2009605   -0.0581936 
   0.340000000    -0.2053329   -0.0323738     0.0595854   -0.9327607     0.0605201   -0.9338416    -0.2049894   -0.0500607 
   0.350000000    -0.2083754   -0.0247759     0.0203065   -0.9336160     0.0204005   -0.9330174    -0.2088086   -0.0425358 
   0.360000000    -0.2132584   -0.0153788    -0.0197923   -0.9320602    -0.0191948   -0.9319562    -0.2122159   -0.0342222 
   0.370000000    -0.2142325   -0.0038526    -0.0590387   -0.9288971    -0.0595895   -0.9288946    -0.2150624   -0.0250671 
   0.380000000    -0.2144230    0.0048300    -0.0983547   -0.9251998    -0.0975706   -0.9247433    -0.2171090   -0.0160983 
   0.390000000    -0.2155404    0.0146335    -0.1366579   -0.9187669    -0.1348041   -0.9194735    -0.2186823   -0.0064278 
   0.400000000    -0.2142186    0.0241034    -0.1743197   -0.9120675    -0.1742984   -0.9112558    -0.2175245    0.0031742 
   0.410000000    -0.2121060    0.0324086    -0.2129044   -0.9026335    -0.2140295   -0.9025001    -0.2168644    0.0091267 
   0.420000000    -0.2113159    0.0418562    -0.2508994   -0.8907614    -0.2519004   -0.8910092    -0.2179227    0.0187091 
   0.430000000    -0.2084430    0.0522736    -0.2874529   -0.8792815    -0.2871961   -0.8794713    -0.2164010    0.0287328 
   0.440000000    -0.2044446    0.0609282    -0.3253635   -0.8648695    -0.3247510   -0.8659968    -0.2129551    0.0373020 
   0.450000000    -0.2020485    0.0692586    -0.3601088   -0.8515458    -0.3612263   -0.8506579    -0.2115533    0.0447767 
   0.460000000    -0.1977677    0.0788351    -0.3966731   -0.8336579    -0.3961189   -0.8340691    -0.2093432    0.0535990 
   0.470000000    -0.1901462    0.0864200    -0.4318638   -0.8162994    -0.4291617   -0.8183260    -0.2032468    0.0624365 
   0.480000000    -0.1841208    0.0921994    -0.4651968   -0.7963118    -0.4657180   -0.7978591    -0.1986531    0.0685713 
   0.490000000    -0.1789623    0.0981172    -0.4975793   -0.7772659    -0.4997764   -0.7766557    -0.1935116    0.0741213 
   0.500000000    -0.1733467    0.1060791    -0.5304694   -0.7541520    -0.5300651   -0.7541481    -0.1892897    0.0802526 
   0.510000000    -0.1650142    0.1144123    -0.5626315   -0.7309133    -0.5614925   -0.7307643    -0.1844284    0.0881064 
   0.520000000    -0.1559158    0.1188423    -0.5912242   -0.7074500    -0.5924622   -0.7074471    -0.1768302    0.0950985 
   0.530000000    -0.1487353    0.1212521    -0.6220995   -0.6819651    -0.6218351   -0.6825835    -0.1681599    0.0978308 
   0.540000000    -0.1421109    0.1253766    -0.6495281   -0.6548087    -0.6505364   -0.6546187    -0.1632107    0.1000638 
   0.550000000    -0.1307579    0.1300467    -0.6770564   -0.6262936    -0.6783776   -0.6263396    -0.1569505    0.1047280 
   0.560000000    -0.1200352    0.1292215    -0.7032612   -0.5967563    -0.7033243   -0.5983048    -0.1472634    0.1085869 
   0.570000000    -0.1152541    0.1306981    -0.7284572   -0.5672750    -0.7289162   -0.5668637    -0.1393075    0.1101836 
   0.580000000    -0.1068130    0.1375816    -0.7501933   -0.5371062    -0.7510051   -0.5367832    -0.1336048    0.1128482 
   0.590000000    -0.0925156    0.1377779    -0.7743667   -0.5033855    -0.7727611   -0.5027490    -0.1255433    0.1165822 
   0.600000000    -0.0840628    0.1325633    -0.7954645   -0.4693216    -0.7953019   -0.4701178    -0.1149102    0.1173315 
   0.610000000    -0.0787632    0.1311210    -0.8150603   -0.4367576    -0.8158560   -0.4353500    -0.1058649    0.1137118 
   0.620000000    -0.0689083    0.1323448    -0.8335238   -0.3994682    -0.8326625   -0.3995872    -0.1008848    0.1097244 
   0.630000000    -0.0570689    0.1284400    -0.8502553   -0.3637627    -0.8512833   -0.3638388    -0.0967153    0.1113324 
   0.640000000    -0.0503315    0.1228705    -0.8641012   -0.3275388    -0.8671224   -0.3265684    -0.0855137    0.1130962 
   0.650000000    -0.0445315    0.1212229    -0.8791699   -0.2905785    -0.8797127   -0.2902522    -0.0753421    0.1077810 
   0.660000000    -0.0348902    0.1202054    -0.8903854   -0.2536203    -0.8907006   -0.2510311    -0.0713797    0.1033179 
   0.670000000    -0.0252970    0.1123230    -0.9010690   -0.2125300    -0.9015687   -0.2135552    -0.0663658    0.1021069 
   0.680000000    -0.0206246    0.1021059    -0.9093648   -0.1732865    -0.9096702   -0.1743256    -0.0581510    0.0986157 
   0.690000000    -0.0193128    0.0963278    -0.9178349   -0.1372383    -0.9189316   -0.1358078    -0.0516458    0.0898452 
   0.700000000    -0.0099458    0.0942448    -0.9226636   -0.0944217    -0.9234902   -0.0941216    -0.0496837    0.0829562 
   0.710000000    -0.0011811    0.0849768    -0.9256138   -0.0555892    -0.9270797   -0.0552943    -0.0471594    0.0803244 
   0.720000000     0.0000315    0.0757460    -0.9272681   -0.0136993    -0.9270754   -0.0159347    -0.0402086    0.0781123 
   0.730000000     0.0032898    0.0706011    -0.9283125    0.0259851    -0.9286718    0.0258762    -0.0318765    0.0705873 
   0.740000000     0.0091148    0.0631506    -0.9252020    0.0666944    -0.9250401    0.0693642    -0.0296559    0.0603668 
   0.750000000     0.0102458    0.0503576    -0.9208076    0.1080534    -0.9210296    0.1071400    -0.0327992    0.0527512 
   0.760000000     0.0089630    0.0414774    -0.9162686    0.1480887    -0.9170606    0.1474306    -0.0320616    0.0498211 
   0.770000000     0.0104595    0.0352350    -0.9082134    0.1872549    -0.9086493    0.1890941    -0.0261601    0.0421280 
   0.780000000     0.0121076    0.0271285    -0.9011459    0.2265556    -0.8997732    0.2263321    -0.0268813    0.0320958 
   0.790000000     0.0109813    0.0174450    -0.8884315    0.2672802    -0.8889152    0.2659130    -0.0294472    0.0272790 
   0.800000000     0.0085042    0.0099224    -0.8759372    0.3042480    -0.8758910    0.3051704    -0.0267687    0.0232606 
   0.810000000     0.0075915    0.0001096    -0.8619439    0.3433039    -0.8602992    0.3451450    -0.0258962    0.0121076 
   0.820000000     0.0041193   -0.0108888    -0.8449355    0.3789150    -0.8425792    0.3802350    -0.0309917    0.0013846 
   0.830000000    -0.0029703   -0.0176197    -0.8295853    0.4166321    -0.8283549    0.4185052    -0.0399132   -0.0030366 
   0.840000000    -0.0064005   -0.0210976    -0.8076310    0.4544967    -0.8077687    0.4531921    -0.0404145   -0.0044324 
   0.850000000    -0.0076610   -0.0281276    -0.7861176    0.4872262    -0.7864196    0.4875072    -0.0392723   -0.0109972 
   0.860000000    -0.0140576   -0.0396263    -0.7639580    0.5234137    -0.7638423    0.5240663    -0.0437769   -0.0222370 
   0.870000000    -0.0251276   -0.0437584    -0.7389797    0.5547274    -0.7388318    0.5536221    -0.0528116   -0.0265015 
   0.880000000    -0.0303369   -0.0453203    -0.7148358    0.5863431    -0.7138376    0.5868326    -0.0586933   -0.0270654 
   0.890000000    -0.0336092   -0.0542165    -0.6884710    0.6162873    -0.6855493    0.6183307    -0.0608686   -0.0320687 
   0.900000000    -0.0453513   -0.0621172    -0.6593346    0.6446409    -0.6586520    0.6435723    -0.0691774   -0.0404510 
   0.910000000    -0.0565583   -0.0598938    -0.6303656    0.6743253    -0.6325971    0.6726995    -0.0800648   -0.0413310 
   0.920000000    -0.0598089   -0.0595082    -0.5965146    0.6994064    -0.5994437    0.6996405    -0.0837040   -0.0401923 
   0.930000000    -0.0641624   -0.0667507    -0.5676928    0.7229023    -0.5680764    0.7244681    -0.0852357   -0.0426784 
   0.940000000    -0.0791109   -0.0718305    -0.5343072    0.7489778    -0.5324265    0.7487885    -0.0918365   -0.0502720 
   0.950000000    -0.0902174   -0.0673619    -0.4993020    0.7696479    -0.4994307    0.7673358    -0.1051686   -0.0513210 
   0.960000000    -0.0954454   -0.0656061    -0.4660499    0.7907410    -0.4664727    0.7879279    -0.1156233   -0.0456182 
   0.970000000    -0.1021825   -0.0680545    -0.4311137    0.8091428    -0.4292293    0.8081085    -0.1177159   -0.0426615 
   0.980000000    -0.1145537   -0.0676457    -0.3933294    0.8251347    -0.3961872    0.8232027    -0.1219825   -0.0458961 
   0.990000000    -0.1237919   -0.0609946    -0.3569906    0.8383740    -0.3592973    0.8396227    -0.1332867   -0.0475852 
   1.000000000    -0.1273769   -0.0573869    -0.3217264    0.8522503    -0.3208111    0.8526852    -0.1411789   -0.0409940 
   1.010000000    -0.1358326   -0.0595392    -0.2833204    0.8647600    -0.2824688    0.8658823    -0.1432856   -0.0382140 
   1.020000000    -0.1502951   -0.0546921    -0.2453323    0.8762189    -0.2437238    0.8734062    -0.1505173   -0.0390815 
   1.030000000    -0.1556946   -0.0434652    -0.2059271    0.8846285    -0.2082263    0.8820485    -0.1629733   -0.0338401 
   1.040000000    -0.1580550   -0.0383545    -0.1694757    0.8910768    -0.1715889    0.8913728    -0.1691770   -0.0224665 
   1.050000000    -0.1655633   -0.0374508    -0.1298565    0.8965256    -0.1307558    0.8958008    -0.1689644   -0.0180003 
   1.060000000    -0.1756334   -0.0283399    -0.0910784    0.8983740    -0.0945390    0.8995042    -0.1723779   -0.0183011 
   1.070000000    -0.1780266   -0.0172983    -0.0521499    0.9013553    -0.0511306    0.9019722    -0.1828217   -0.0166630 
   1.080000000    -0.1807850   -0.0142314    -0.0135109    0.9023269    -0.0139117    0.9011530    -0.1905678   -0.0056431 
   1.090000000    -0.1894961   -0.0078023     0.0233591    0.9008757     0.0252723    0.8999096    -0.1896289    0.0057076 
   1.100000000    -0.1949980    0.0047822     0.0622056    0.8988973     0.0619045    0.8944438    -0.1896781    0.0088172 
   1.110000000    -0.1932956    0.0158163     0.1030771    0.8920341     0.0978590    0.8943024    -0.1965254    0.0122715 
   1.120000000    -0.1933256    0.0205842     0.1378969    0.8846909     0.1382376    0.8884920    -0.2028390    0.0235839 
   1.130000000    -0.1987213    0.0268522     0.1744498    0.8787812     0.1763761    0.8782036    -0.2003445    0.0346524 
   1.140000000    -0.2022935    0.0399382     0.2128050    0.8695310     0.2107450    0.8697480    -0.1972245    0.0365909 
   1.150000000    -0.1983828    0.0520398     0.2493013    0.8603922     0.2472426    0.8590622    -0.2022696    0.0399490 
   1.160000000    -0.1974602    0.0567973     0.2846907    0.8466918     0.2806422    0.8468804    -0.2073702    0.0519288 
   1.170000000    -0.1994995    0.0661446     0.3196268    0.8334047     0.3182453    0.8326154    -0.2033685    0.0644992 
   1.180000000    -0.1967550    0.0778987     0.3555799    0.8186139     0.3499072    0.8193312    -0.1976644    0.0700531 
   1.190000000    -0.1904514    0.0851837     0.3879034    0.8005314     0.3874623    0.8051606    -0.1973512    0.0716676 
   1.200000000    -0.1894231    0.0904127     0.4221675    0.7837905     0.4211328    0.7850392    -0.2004575    0.0804784 
   1.210000000    -0.1883199    0.1019389     0.4527508    0.7654906     0.4521060    0.7652825    -0.1961847    0.0924587 
   1.220000000    -0.1797202    0.1120430     0.4853415    0.7458122     0.4826579    0.7456546    -0.1887126    0.0980079 
   1.230000000    -0.1744530    0.1158441     0.5173104    0.7232948     0.5145843    0.7257260    -0.1870241    0.1011998 
   1.240000000    -0.1725800    0.1239141     0.5450348    0.7003976     0.5455397    0.7015860    -0.1871148    0.1099438 
   1.250000000    -0.1647317    0.1341581     0.5723778    0.6772776     0.5737853    0.6772953    -0.1798737    0.1191360 
   1.260000000    -0.1540856    0.1376365     0.6008475    0.6537084     0.6000436    0.6543942    -0.1715150    0.1212876 
   1.270000000    -0.1494212    0.1386421     0.6282423    0.6261624     0.6284873    0.6288488    -0.1685215    0.1223820 
   1.280000000    -0.1461087    0.1470159     0.6545593    0.5992371     0.6534919    0.6000625    -0.1663764    0.1298113 
   1.290000000    -0.1342186    0.1567294     0.6776803    0.5700536     0.6775987    0.5722074    -0.1579260    0.1389440 
   1.300000000    -0.1207255    0.1575112     0.7008553    0.5434692     0.6991958    0.5440977    -0.1470523    0.1414496 
   1.310000000    -0.1163303    0.1553523     0.7249547    0.5113646     0.7253894    0.5159510    -0.1418713    0.1400132 
   1.320000000    -0.1136244    0.1616702     0.7451693    0.4798288     0.7458798    0.4828496    -0.1413733    0.1430942 
   1.330000000    -0.1004492    0.1690960     0.7641047    0.4478565     0.7653446    0.4498405    -0.1348865    0.1513199 
   1.340000000    -0.0853042    0.1653637     0.7814338    0.4177876     0.7825772    0.4179395    -0.1213738    0.1527242 
   1.350000000    -0.0809121    0.1594072     0.8003935    0.3832861     0.8001694    0.3858520    -0.1127897    0.1478177 
   1.360000000    -0.0770875    0.1653111     0.8166820    0.3497127     0.8168995    0.3496961    -0.1107330    0.1477459 
   1.370000000    -0.0615076    0.1696674     0.8293513    0.3128700     0.8300546    0.3171000    -0.1047444    0.1541243 
   1.380000000    -0.0486638    0.1621212     0.8421223    0.2779261     0.8438579    0.2796440    -0.0930425    0.1554966 
   1.390000000    -0.0467507    0.1561767     0.8550609    0.2443594     0.8551859    0.2443505    -0.0860531    0.1495911 
   1.400000000    -0.0414152    0.1598255     0.8646269    0.2053489     0.8656900    0.2074914    -0.0838248    0.1463194 
   1.410000000    -0.0263827    0.1576092     0.8734108    0.1696599     0.8730178    0.1726240    -0.0778999    0.1469380 
   1.420000000    -0.0173339    0.1461755     0.8803525    0.1320915     0.8822302    0.1324933    -0.0671378    0.1460387 
   1.430000000    -0.0148395    0.1410682     0.8857454    0.0946849     0.8861622    0.0953756    -0.0587920    0.1392694 
   1.440000000    -0.0073235    0.1412559     0.8900986    0.0560094     0.8906013    0.0589312    -0.0565708    0.1349039 
   1.450000000     0.0042952    0.1347007     0.8903311    0.0180459     0.8918748    0.0194572    -0.0534942    0.1357398 
   1.460000000     0.0083346    0.1240881     0.8912792   -0.0187572     0.8931847   -0.0192539    -0.0450181    0.1334884 
   1.470000000     0.0093746    0.1191697     0.8902577   -0.0572449     0.8902967   -0.0586081    -0.0387565    0.1231908 
   1.480000000     0.0169200    0.1156090     0.8888798   -0.0971637     0.8886396   -0.0959636    -0.0395414    0.1162570 
   1.490000000     0.0261100    0.1036057     0.8815379   -0.1350212     0.8830514   -0.1342550    -0.0363858    0.1153368 
   1.500000000     0.0256916    0.0910613     0.8763666   -0.1743401     0.8792384   -0.1733324    -0.0280090    0.1116322 
   1.510000000     0.0250205    0.0882524     0.8679854   -0.2109300     0.8684689   -0.2117260    -0.0229233    0.1013199 
   1.520000000     0.0320823    0.0838816     0.8603237   -0.2486220     0.8598578   -0.2466596    -0.0263801    0.0936777 
