! 2/21/2025 7:28:30 AM
! Z:\OQC\AD5\613\LOT-141-0825\SINGLE\3-L7-4.S2P
! CHANNEL.1
! TR.MEASUREMENT
! CORRECTED.DATA
! RF.CORRECTION: FULL.FOUR.PORT.CAL.PORT.1.2.3.4
! AVERAGING.OFF
! IF.BANDWIDTH: 1KHZ
! SWEEPTYPE:  FREQ.SWEEP(Linear)
! Reference Plane Port Info
! PORT:              PORT1              PORT2             
! DISTANCE:          0  m               0  m              
! TIME:              0  s               0  s              
! PHASE.OFFSET:      0 °                0 °               
! LOSS:              0  dB              0  dB             
! REF.LOSS:          0  dB              0  dB             
! REF.FREQ:          0  Hz              0  Hz             
! Power Info
! POWER:             -10  dBm           -10  dBm          
! EFF.POWER:         -10  dBm           -10  dBm          
! SOURCE.ATTEN:      0  dB              0  dB             
! TEST.ATTEN:        0  dB              0  dB             
# GHZ S RI R 50.0
! FREQ.GHZ         S11RE         S11IM         S21RE         S21IM         S12RE         S12IM         S22RE         S22IM         
!; PortSelection: Port_12
   0.010000000     0.0069403   -0.0075765     0.9905797   -0.0462928     0.9911154   -0.0462882     0.0072214   -0.0073947 
   0.020000000     0.0087089   -0.0188837     0.9867610   -0.0929574     0.9864239   -0.0935181     0.0090467   -0.0185350 
   0.030000000     0.0065457   -0.0307845     0.9786184   -0.1391172     0.9791533   -0.1394854     0.0070004   -0.0304580 
   0.040000000     0.0032418   -0.0401466     0.9698227   -0.1844366     0.9702069   -0.1841840     0.0035605   -0.0400069 
   0.050000000     0.0012511   -0.0494465     0.9580436   -0.2286419     0.9588328   -0.2289068     0.0013758   -0.0489274 
   0.060000000    -0.0019072   -0.0606398     0.9454498   -0.2721728     0.9452150   -0.2721653    -0.0016253   -0.0600989 
   0.070000000    -0.0078892   -0.0717526     0.9296812   -0.3151414     0.9300389   -0.3152018    -0.0072302   -0.0708726 
   0.080000000    -0.0144715   -0.0805658     0.9129242   -0.3565165     0.9137262   -0.3565485    -0.0141866   -0.0798806 
   0.090000000    -0.0207561   -0.0886901     0.8935138   -0.3969550     0.8941072   -0.3971843    -0.0204619   -0.0875617 
   0.100000000    -0.0274492   -0.0975054     0.8727426   -0.4365339     0.8736655   -0.4362517    -0.0272589   -0.0961896 
   0.110000000    -0.0366602   -0.1063907     0.8505716   -0.4754188     0.8510549   -0.4749796    -0.0363452   -0.1050334 
   0.120000000    -0.0469636   -0.1126536     0.8261184   -0.5118365     0.8258521   -0.5119028    -0.0469610   -0.1113978 
   0.130000000    -0.0564617   -0.1176357     0.8010280   -0.5481356     0.8000419   -0.5475492    -0.0557431   -0.1162221 
   0.140000000    -0.0651493   -0.1233922     0.7739522   -0.5814445     0.7735595   -0.5814433    -0.0646665   -0.1221715 
   0.150000000    -0.0764211   -0.1290389     0.7446414   -0.6149865     0.7446194   -0.6144031    -0.0757317   -0.1282759 
   0.160000000    -0.0887379   -0.1316835     0.7141842   -0.6461681     0.7142782   -0.6458733    -0.0880041   -0.1306117 
   0.170000000    -0.1000563   -0.1326282     0.6836278   -0.6745477     0.6842629   -0.6743106    -0.0991729   -0.1320540 
   0.180000000    -0.1107114   -0.1332344     0.6513566   -0.7036337     0.6521756   -0.7024375    -0.1101307   -0.1328728 
   0.190000000    -0.1216693   -0.1348307     0.6179534   -0.7292573     0.6179004   -0.7302251    -0.1216103   -0.1339097 
   0.200000000    -0.1347346   -0.1349186     0.5841603   -0.7547336     0.5835627   -0.7539455    -0.1338059   -0.1339554 
   0.210000000    -0.1468569   -0.1318058     0.5496933   -0.7770553     0.5494188   -0.7771091    -0.1460068   -0.1323626 
   0.220000000    -0.1562618   -0.1290683     0.5131794   -0.7985550     0.5123968   -0.7990327    -0.1564184   -0.1294682 
   0.230000000    -0.1672126   -0.1275233     0.4766929   -0.8180997     0.4752954   -0.8189512    -0.1669721   -0.1270453 
   0.240000000    -0.1799098   -0.1229523     0.4385782   -0.8360108     0.4379521   -0.8367054    -0.1783716   -0.1228707 
   0.250000000    -0.1901132   -0.1153084     0.4014858   -0.8523744     0.4009202   -0.8514637    -0.1886327   -0.1167931 
   0.260000000    -0.1979190   -0.1097513     0.3633730   -0.8671690     0.3631190   -0.8667850    -0.1978734   -0.1104467 
   0.270000000    -0.2078824   -0.1050562     0.3256215   -0.8788356     0.3234106   -0.8805042    -0.2072788   -0.1045766 
   0.280000000    -0.2180472   -0.0975983     0.2864738   -0.8898081     0.2861730   -0.8903621    -0.2163594   -0.0976868 
   0.290000000    -0.2259925   -0.0878931     0.2483553   -0.8998193     0.2460738   -0.9004655    -0.2247426   -0.0896404 
   0.300000000    -0.2323728   -0.0794449     0.2076235   -0.9084947     0.2074091   -0.9077104    -0.2326473   -0.0808596 
   0.310000000    -0.2392099   -0.0712846     0.1687263   -0.9138020     0.1693922   -0.9140068    -0.2388955   -0.0712704 
   0.320000000    -0.2468142   -0.0614603     0.1289582   -0.9189743     0.1296185   -0.9185342    -0.2450282   -0.0619143 
   0.330000000    -0.2517205   -0.0498317     0.0907239   -0.9223819     0.0910968   -0.9206291    -0.2506630   -0.0518972 
   0.340000000    -0.2541419   -0.0401134     0.0508643   -0.9229013     0.0515986   -0.9240003    -0.2547657   -0.0413187 
   0.350000000    -0.2578699   -0.0307935     0.0132400   -0.9230352     0.0122430   -0.9233105    -0.2581962   -0.0314101 
   0.360000000    -0.2629605   -0.0194001    -0.0276117   -0.9210259    -0.0263519   -0.9216524    -0.2612961   -0.0211341 
   0.370000000    -0.2641286   -0.0067895    -0.0651350   -0.9179353    -0.0652155   -0.9173216    -0.2635404   -0.0097079 
   0.380000000    -0.2642675    0.0037360    -0.1038862   -0.9132899    -0.1045817   -0.9125178    -0.2646977    0.0015741 
   0.390000000    -0.2653688    0.0150613    -0.1423079   -0.9072092    -0.1410701   -0.9079938    -0.2650068    0.0135944 
   0.400000000    -0.2636650    0.0263321    -0.1804635   -0.8999251    -0.1782711   -0.9001568    -0.2632062    0.0248146 
   0.410000000    -0.2617795    0.0363353    -0.2175023   -0.8906698    -0.2179198   -0.8907873    -0.2614023    0.0335011 
   0.420000000    -0.2605322    0.0471056    -0.2548922   -0.8796510    -0.2549998   -0.8792367    -0.2612594    0.0449620 
   0.430000000    -0.2569222    0.0591807    -0.2894075   -0.8672016    -0.2896214   -0.8678694    -0.2581724    0.0564674 
   0.440000000    -0.2527074    0.0690251    -0.3264213   -0.8538235    -0.3261759   -0.8548257    -0.2532884    0.0669394 
   0.450000000    -0.2497130    0.0786932    -0.3613574   -0.8400120    -0.3616775   -0.8396845    -0.2498644    0.0759743 
   0.460000000    -0.2445128    0.0900431    -0.3969594   -0.8233090    -0.3964123   -0.8238748    -0.2454983    0.0862299 
   0.470000000    -0.2367099    0.0987494    -0.4315790   -0.8059309    -0.4288977   -0.8064993    -0.2378467    0.0961908 
   0.480000000    -0.2287159    0.1056587    -0.4648611   -0.7854015    -0.4637073   -0.7893900    -0.2305869    0.1036741 
   0.490000000    -0.2230490    0.1123793    -0.4962375   -0.7673860    -0.4985250   -0.7666656    -0.2237060    0.1104973 
   0.500000000    -0.2163390    0.1215536    -0.5285155   -0.7452582    -0.5297565   -0.7443521    -0.2173865    0.1173574 
   0.510000000    -0.2070495    0.1307986    -0.5600209   -0.7228599    -0.5591860   -0.7218482    -0.2102064    0.1260265 
   0.520000000    -0.1962844    0.1360188    -0.5894716   -0.6992792    -0.5895073   -0.6994575    -0.2000336    0.1334486 
   0.530000000    -0.1877411    0.1392368    -0.6201935   -0.6727653    -0.6184156   -0.6748220    -0.1893878    0.1364468 
   0.540000000    -0.1799651    0.1438466    -0.6489310   -0.6472229    -0.6484999   -0.6471134    -0.1816071    0.1390785 
   0.550000000    -0.1669548    0.1489603    -0.6740519   -0.6184894    -0.6740433   -0.6199860    -0.1724339    0.1440573 
   0.560000000    -0.1550871    0.1486218    -0.6997592   -0.5895482    -0.7010747   -0.5912223    -0.1605732    0.1470763 
   0.570000000    -0.1493199    0.1502891    -0.7258969   -0.5596222    -0.7264906   -0.5611939    -0.1501829    0.1481378 
   0.580000000    -0.1391291    0.1572354    -0.7491219   -0.5297084    -0.7482882   -0.5297115    -0.1418309    0.1502260 
   0.590000000    -0.1232794    0.1574789    -0.7732676   -0.4973297    -0.7716464   -0.4971619    -0.1312986    0.1537547 
   0.600000000    -0.1138294    0.1525167    -0.7937126   -0.4631560    -0.7937580   -0.4646734    -0.1186503    0.1528141 
   0.610000000    -0.1073269    0.1510115    -0.8142408   -0.4294362    -0.8148180   -0.4286436    -0.1081521    0.1484590 
   0.620000000    -0.0954596    0.1517125    -0.8321975   -0.3941459    -0.8318781   -0.3937795    -0.1002293    0.1430544 
   0.630000000    -0.0828194    0.1469101    -0.8490842   -0.3579213    -0.8502644   -0.3595497    -0.0942082    0.1430083 
   0.640000000    -0.0744928    0.1409827    -0.8636432   -0.3212564    -0.8654440   -0.3220493    -0.0809790    0.1429358 
   0.650000000    -0.0675853    0.1385625    -0.8785819   -0.2846424    -0.8796591   -0.2842075    -0.0692356    0.1358345 
   0.660000000    -0.0566773    0.1366984    -0.8915151   -0.2459974    -0.8917996   -0.2458766    -0.0631933    0.1293973 
   0.670000000    -0.0459348    0.1277492    -0.9014024   -0.2061981    -0.9019329   -0.2072527    -0.0568234    0.1257695 
   0.680000000    -0.0405777    0.1164292    -0.9091701   -0.1676154    -0.9115166   -0.1671116    -0.0479862    0.1202299 
   0.690000000    -0.0383506    0.1097073    -0.9173880   -0.1295804    -0.9198110   -0.1280426    -0.0398369    0.1088543 
   0.700000000    -0.0281606    0.1060845    -0.9240649   -0.0864141    -0.9233194   -0.0862603    -0.0373636    0.0997013 
   0.710000000    -0.0184808    0.0958218    -0.9258202   -0.0475445    -0.9278359   -0.0455322    -0.0340649    0.0945210 
   0.720000000    -0.0167749    0.0852146    -0.9282632   -0.0052887    -0.9278675   -0.0064890    -0.0267234    0.0897083 
   0.730000000    -0.0137251    0.0788459    -0.9290637    0.0359793    -0.9297488    0.0361681    -0.0180790    0.0795522 
   0.740000000    -0.0077591    0.0696848    -0.9263320    0.0769963    -0.9260326    0.0788643    -0.0162939    0.0659909 
   0.750000000    -0.0062567    0.0552937    -0.9211512    0.1192884    -0.9210477    0.1176717    -0.0192722    0.0557451 
   0.760000000    -0.0077786    0.0451796    -0.9159032    0.1590238    -0.9179022    0.1606128    -0.0192324    0.0507577 
   0.770000000    -0.0062372    0.0374197    -0.9071190    0.2000708    -0.9073304    0.2003450    -0.0142980    0.0396915 
   0.780000000    -0.0050109    0.0275087    -0.8996587    0.2413836    -0.8991383    0.2399944    -0.0156883    0.0274459 
   0.790000000    -0.0068241    0.0167478    -0.8864002    0.2798278    -0.8855590    0.2795422    -0.0196932    0.0198813 
   0.800000000    -0.0097595    0.0080404    -0.8734639    0.3175396    -0.8725080    0.3183794    -0.0182573    0.0139337 
   0.810000000    -0.0116736   -0.0031530    -0.8574997    0.3580243    -0.8566777    0.3591109    -0.0201174    0.0002843 
   0.820000000    -0.0164415   -0.0157469    -0.8396038    0.3940929    -0.8393756    0.3948251    -0.0263067   -0.0126533 
   0.830000000    -0.0245834   -0.0234247    -0.8240381    0.4331388    -0.8231601    0.4331287    -0.0375147   -0.0181704 
   0.840000000    -0.0285985   -0.0283074    -0.8006275    0.4699909    -0.8002930    0.4703822    -0.0396293   -0.0214242 
   0.850000000    -0.0313516   -0.0357941    -0.7784491    0.5019071    -0.7789458    0.5030175    -0.0408423   -0.0294457 
   0.860000000    -0.0392868   -0.0483311    -0.7547048    0.5381563    -0.7554455    0.5385466    -0.0480019   -0.0420151 
   0.870000000    -0.0521162   -0.0531148    -0.7282740    0.5694020    -0.7271361    0.5707272    -0.0604739   -0.0474094 
   0.880000000    -0.0585043   -0.0553187    -0.7034886    0.6017889    -0.7010301    0.6024632    -0.0681545   -0.0486672 
   0.890000000    -0.0635041   -0.0651433    -0.6746427    0.6310885    -0.6729745    0.6306458    -0.0735358   -0.0545539 
   0.900000000    -0.0772741   -0.0729397    -0.6443337    0.6582661    -0.6444746    0.6574990    -0.0849425   -0.0635985 
   0.910000000    -0.0897444   -0.0703063    -0.6142903    0.6882644    -0.6156891    0.6872886    -0.0980046   -0.0636373 
   0.920000000    -0.0944190   -0.0704003    -0.5790581    0.7129509    -0.5817533    0.7116255    -0.1049089   -0.0626385 
   0.930000000    -0.1013433   -0.0775614    -0.5494279    0.7354218    -0.5487465    0.7369145    -0.1092953   -0.0649658 
   0.940000000    -0.1178738   -0.0818012    -0.5148165    0.7598839    -0.5129824    0.7597361    -0.1189492   -0.0714067 
   0.950000000    -0.1299598   -0.0772513    -0.4796709    0.7784382    -0.4786361    0.7767997    -0.1347566   -0.0716099 
   0.960000000    -0.1373246   -0.0746392    -0.4450446    0.7987972    -0.4461106    0.7971660    -0.1477046   -0.0643811 
   0.970000000    -0.1459266   -0.0762976    -0.4094509    0.8167494    -0.4086958    0.8145736    -0.1523900   -0.0603985 
   0.980000000    -0.1595908   -0.0748113    -0.3693720    0.8319591    -0.3729937    0.8306898    -0.1588705   -0.0621430 
   0.990000000    -0.1700017   -0.0672353    -0.3325716    0.8433293    -0.3361422    0.8459224    -0.1730267   -0.0621320 
   1.000000000    -0.1749541   -0.0626044    -0.2980925    0.8556860    -0.2968285    0.8558985    -0.1826931   -0.0533462 
   1.010000000    -0.1845609   -0.0639088    -0.2600416    0.8665665    -0.2595372    0.8671209    -0.1864380   -0.0486357 
   1.020000000    -0.2004300   -0.0573026    -0.2216623    0.8766584    -0.2199715    0.8735573    -0.1955146   -0.0473096 
   1.030000000    -0.2063909   -0.0447296    -0.1805141    0.8835305    -0.1835143    0.8807390    -0.2095489   -0.0391138 
   1.040000000    -0.2096069   -0.0388394    -0.1448667    0.8877741    -0.1455468    0.8896351    -0.2164151   -0.0258043 
   1.050000000    -0.2182985   -0.0362753    -0.1042559    0.8930672    -0.1058029    0.8920739    -0.2184653   -0.0191296 
   1.060000000    -0.2293240   -0.0248302    -0.0664518    0.8921429    -0.0689531    0.8945551    -0.2230929   -0.0163096 
   1.070000000    -0.2320658   -0.0124676    -0.0286849    0.8942270    -0.0285731    0.8950092    -0.2333492   -0.0118900 
   1.080000000    -0.2351840   -0.0077948     0.0089311    0.8936149     0.0096980    0.8920295    -0.2416884    0.0025299 
   1.090000000    -0.2443368    0.0005490     0.0457559    0.8913918     0.0480641    0.8899710    -0.2407663    0.0157929 
   1.100000000    -0.2498981    0.0147302     0.0853444    0.8891445     0.0834922    0.8838636    -0.2413772    0.0213671 
   1.110000000    -0.2480484    0.0272238     0.1238444    0.8801442     0.1193675    0.8810678    -0.2479413    0.0284187 
   1.120000000    -0.2484821    0.0334765     0.1587499    0.8702690     0.1587750    0.8760667    -0.2540399    0.0420264 
   1.130000000    -0.2537801    0.0420135     0.1940295    0.8646393     0.1951238    0.8637269    -0.2506308    0.0563083 
   1.140000000    -0.2570915    0.0569693     0.2318593    0.8541301     0.2299672    0.8545763    -0.2470365    0.0607604 
   1.150000000    -0.2529077    0.0702718     0.2671066    0.8442647     0.2648425    0.8437039    -0.2512960    0.0667356 
   1.160000000    -0.2515324    0.0766779     0.3017069    0.8292807     0.2981072    0.8312878    -0.2545014    0.0820039 
   1.170000000    -0.2527750    0.0879126     0.3341263    0.8163489     0.3340359    0.8160229    -0.2491974    0.0964500 
   1.180000000    -0.2493199    0.1009001     0.3692067    0.8002015     0.3638333    0.8020126    -0.2428753    0.1042512 
   1.190000000    -0.2427360    0.1094035     0.4019072    0.7822570     0.4002863    0.7880698    -0.2405780    0.1078347 
   1.200000000    -0.2409492    0.1160631     0.4335117    0.7644615     0.4336219    0.7661537    -0.2416649    0.1189874 
   1.210000000    -0.2387016    0.1290186     0.4649085    0.7454051     0.4639272    0.7452745    -0.2350628    0.1328193 
   1.220000000    -0.2290337    0.1401277     0.4961218    0.7264184     0.4921965    0.7262340    -0.2259406    0.1400763 
   1.230000000    -0.2230207    0.1452253     0.5263628    0.7046574     0.5232371    0.7065363    -0.2220189    0.1448387 
   1.240000000    -0.2195609    0.1543752     0.5530841    0.6801893     0.5530494    0.6819261    -0.2196736    0.1552002 
   1.250000000    -0.2109188    0.1657131     0.5798832    0.6571209     0.5794674    0.6575937    -0.2100672    0.1657442 
   1.260000000    -0.1990261    0.1698294     0.6077528    0.6345871     0.6059867    0.6350309    -0.1993004    0.1688099 
   1.270000000    -0.1931574    0.1718613     0.6332809    0.6068780     0.6336479    0.6093318    -0.1938148    0.1710892 
   1.280000000    -0.1884219    0.1813932     0.6591368    0.5794673     0.6574901    0.5805765    -0.1888208    0.1793949 
   1.290000000    -0.1749935    0.1913321     0.6811748    0.5502721     0.6810530    0.5530637    -0.1774552    0.1887240 
   1.300000000    -0.1603091    0.1928502     0.7043802    0.5240873     0.7023348    0.5255913    -0.1642543    0.1915617 
   1.310000000    -0.1547094    0.1910638     0.7274780    0.4934793     0.7278731    0.4970728    -0.1562648    0.1902659 
   1.320000000    -0.1503171    0.1981346     0.7476450    0.4613657     0.7480233    0.4642811    -0.1532317    0.1937305 
   1.330000000    -0.1354055    0.2054869     0.7650368    0.4295502     0.7663821    0.4329143    -0.1435953    0.2014276 
   1.340000000    -0.1189567    0.2017405     0.7825639    0.3998438     0.7832924    0.4014571    -0.1273753    0.2022248 
   1.350000000    -0.1134908    0.1959661     0.8010074    0.3658668     0.8014100    0.3687124    -0.1163433    0.1966679 
   1.360000000    -0.1077850    0.2021841     0.8173480    0.3310233     0.8169032    0.3312885    -0.1120467    0.1958929 
   1.370000000    -0.0904736    0.2061366     0.8294215    0.2960424     0.8298668    0.2998866    -0.1030030    0.2011955 
   1.380000000    -0.0764953    0.1980898     0.8412744    0.2605596     0.8438864    0.2626714    -0.0888437    0.2010573 
   1.390000000    -0.0734106    0.1917319     0.8536056    0.2271577     0.8547436    0.2274192    -0.0798415    0.1937717 
   1.400000000    -0.0666334    0.1954487     0.8637726    0.1879618     0.8653520    0.1912192    -0.0751643    0.1890151 
   1.410000000    -0.0498952    0.1922061     0.8721802    0.1527456     0.8722727    0.1553698    -0.0670517    0.1875906 
   1.420000000    -0.0398658    0.1801761     0.8786087    0.1153952     0.8809639    0.1158775    -0.0543549    0.1847118 
   1.430000000    -0.0358592    0.1743030     0.8844222    0.0771473     0.8843602    0.0790404    -0.0443557    0.1756516 
   1.440000000    -0.0273299    0.1736654     0.8880259    0.0392014     0.8887952    0.0413213    -0.0404381    0.1694336 
   1.450000000    -0.0146898    0.1660247     0.8881878    0.0002952     0.8904833    0.0012052    -0.0358059    0.1677969 
   1.460000000    -0.0098175    0.1543216     0.8890609   -0.0374722     0.8911386   -0.0372899    -0.0260041    0.1627760 
   1.470000000    -0.0079948    0.1484847     0.8874384   -0.0760701     0.8880615   -0.0776124    -0.0189848    0.1497456 
   1.480000000     0.0007699    0.1431689     0.8854038   -0.1167159     0.8861395   -0.1135154    -0.0191846    0.1404315 
   1.490000000     0.0102180    0.1297875     0.8783385   -0.1534536     0.8800424   -0.1530576    -0.0151449    0.1365513 
   1.500000000     0.0101904    0.1160929     0.8726742   -0.1928430     0.8751595   -0.1924811    -0.0066208    0.1300282 
   1.510000000     0.0098987    0.1119649     0.8630680   -0.2305655     0.8649408   -0.2317439    -0.0015990    0.1168629 
   1.520000000     0.0174147    0.1060682     0.8551704   -0.2681951     0.8547388   -0.2672565    -0.0055384    0.1066188 
