! 2/21/2025 7:05:06 AM
! Z:\OQC\AD5\613\LOT-141-0825\SINGLE\1-L18-8.S2P
! CHANNEL.1
! TR.MEASUREMENT
! CORRECTED.DATA
! RF.CORRECTION: FULL.FOUR.PORT.CAL.PORT.1.2.3.4
! AVERAGING.OFF
! IF.BANDWIDTH: 1KHZ
! SWEEPTYPE:  FREQ.SWEEP(Linear)
! Reference Plane Port Info
! PORT:              PORT1              PORT2             
! DISTANCE:          0  m               0  m              
! TIME:              0  s               0  s              
! PHASE.OFFSET:      0 °                0 °               
! LOSS:              0  dB              0  dB             
! REF.LOSS:          0  dB              0  dB             
! REF.FREQ:          0  Hz              0  Hz             
! Power Info
! POWER:             -10  dBm           -10  dBm          
! EFF.POWER:         -10  dBm           -10  dBm          
! SOURCE.ATTEN:      0  dB              0  dB             
! TEST.ATTEN:        0  dB              0  dB             
# GHZ S RI R 50.0
! FREQ.GHZ         S11RE         S11IM         S21RE         S21IM         S12RE         S12IM         S22RE         S22IM         
!; PortSelection: Port_12
   0.010000000     0.0175909   -0.0110586     0.9766949   -0.0880468     0.9766744   -0.0875734     0.0178490   -0.0108236 
   0.020000000     0.0182966   -0.0270998     0.9626599   -0.1742932     0.9627624   -0.1746791     0.0184293   -0.0267280 
   0.030000000     0.0134373   -0.0434885     0.9395416   -0.2571432     0.9404219   -0.2571537     0.0134101   -0.0430229 
   0.040000000     0.0063333   -0.0567741     0.9109269   -0.3373520     0.9112095   -0.3371576     0.0056609   -0.0561483 
   0.050000000    -0.0009543   -0.0699242     0.8744920   -0.4132790     0.8751794   -0.4138200    -0.0020264   -0.0686461 
   0.060000000    -0.0112662   -0.0833480     0.8333218   -0.4858774     0.8331391   -0.4861015    -0.0125611   -0.0815669 
   0.070000000    -0.0252861   -0.0944563     0.7853331   -0.5544192     0.7849762   -0.5544999    -0.0267447   -0.0919119 
   0.080000000    -0.0396455   -0.1015741     0.7325630   -0.6168212     0.7319981   -0.6164367    -0.0417637   -0.0983506 
   0.090000000    -0.0540063   -0.1070080     0.6738595   -0.6737534     0.6751285   -0.6744003    -0.0562850   -0.1025488 
   0.100000000    -0.0695312   -0.1113252     0.6119630   -0.7259018     0.6128550   -0.7253925    -0.0722084   -0.1056617 
   0.110000000    -0.0872212   -0.1124475     0.5463758   -0.7722023     0.5468770   -0.7722153    -0.0898393   -0.1055792 
   0.120000000    -0.1034809   -0.1094320     0.4777469   -0.8115828     0.4783972   -0.8108624    -0.1065370   -0.1012499 
   0.130000000    -0.1176328   -0.1053029     0.4057677   -0.8455091     0.4060401   -0.8453232    -0.1199529   -0.0956623 
   0.140000000    -0.1315868   -0.1000642     0.3341725   -0.8732365     0.3344876   -0.8722097    -0.1339947   -0.0898506 
   0.150000000    -0.1455638   -0.0914910     0.2584745   -0.8938358     0.2592761   -0.8932851    -0.1476866   -0.0797802 
   0.160000000    -0.1569517   -0.0797309     0.1835838   -0.9087180     0.1843246   -0.9091343    -0.1580162   -0.0666044 
   0.170000000    -0.1652894   -0.0674259     0.1085443   -0.9183871     0.1086718   -0.9181119    -0.1654737   -0.0530145 
   0.180000000    -0.1717082   -0.0553334     0.0332642   -0.9215105     0.0334472   -0.9215669    -0.1711492   -0.0390935 
   0.190000000    -0.1780734   -0.0425115    -0.0423744   -0.9178101    -0.0429512   -0.9177247    -0.1758094   -0.0243799 
   0.200000000    -0.1814999   -0.0273188    -0.1176935   -0.9096378    -0.1165524   -0.9098701    -0.1777791   -0.0090329 
   0.210000000    -0.1803440   -0.0130965    -0.1906132   -0.8943917    -0.1898836   -0.8946228    -0.1757837    0.0062390 
   0.220000000    -0.1784955   -0.0013652    -0.2613294   -0.8747047    -0.2612725   -0.8746606    -0.1715802    0.0202240 
   0.230000000    -0.1763039    0.0119129    -0.3307889   -0.8485458    -0.3321533   -0.8489565    -0.1660202    0.0336248 
   0.240000000    -0.1696813    0.0258418    -0.3984165   -0.8176323    -0.3996944   -0.8178661    -0.1576116    0.0471627 
   0.250000000    -0.1600440    0.0354647    -0.4642155   -0.7816098    -0.4638185   -0.7816138    -0.1465468    0.0576334 
   0.260000000    -0.1518065    0.0425619    -0.5247564   -0.7406397    -0.5253617   -0.7411984    -0.1353716    0.0663247 
   0.270000000    -0.1434104    0.0513267    -0.5826830   -0.6946850    -0.5851349   -0.6941803    -0.1230464    0.0731725 
   0.280000000    -0.1309160    0.0576207    -0.6375698   -0.6443385    -0.6386966   -0.6442699    -0.1091631    0.0781569 
   0.290000000    -0.1177011    0.0598571    -0.6878385   -0.5905535    -0.6893352   -0.5891743    -0.0942107    0.0804653 
   0.300000000    -0.1063432    0.0597192    -0.7338450   -0.5321929    -0.7345974   -0.5312356    -0.0791309    0.0802423 
   0.310000000    -0.0947066    0.0595821    -0.7762318   -0.4693168    -0.7759022   -0.4692634    -0.0643309    0.0767824 
   0.320000000    -0.0823027    0.0567498    -0.8115106   -0.4028181    -0.8116857   -0.4025554    -0.0507131    0.0715782 
   0.330000000    -0.0704824    0.0497025    -0.8424267   -0.3335919    -0.8413735   -0.3337668    -0.0377769    0.0638683 
   0.340000000    -0.0629856    0.0419735    -0.8668714   -0.2630212    -0.8683367   -0.2630959    -0.0268188    0.0536308 
   0.350000000    -0.0548238    0.0354519    -0.8855327   -0.1899006    -0.8854867   -0.1877484    -0.0174822    0.0428515 
   0.360000000    -0.0466514    0.0254195    -0.8980275   -0.1162074    -0.8981994   -0.1163816    -0.0094436    0.0301103 
   0.370000000    -0.0427047    0.0124777    -0.9036463   -0.0401053    -0.9034696   -0.0409574    -0.0038346    0.0156929 
   0.380000000    -0.0418446    0.0005900    -0.9036756    0.0343863    -0.9034206    0.0364104    -0.0007317    0.0000975 
   0.390000000    -0.0413020   -0.0113512    -0.8963000    0.1112206    -0.8966966    0.1112391    -0.0005216   -0.0165609 
   0.400000000    -0.0439233   -0.0245104    -0.8834812    0.1843481    -0.8832484    0.1844077    -0.0047987   -0.0325273 
   0.410000000    -0.0484035   -0.0349617    -0.8630832    0.2583399    -0.8628497    0.2578624    -0.0093805   -0.0453380 
   0.420000000    -0.0531982   -0.0457865    -0.8368965    0.3287789    -0.8361523    0.3283016    -0.0146214   -0.0593481 
   0.430000000    -0.0616757   -0.0561196    -0.8052084    0.3962117    -0.8049217    0.3960457    -0.0242247   -0.0736212 
   0.440000000    -0.0723964   -0.0630905    -0.7663459    0.4617426    -0.7672838    0.4607248    -0.0369424   -0.0837814 
   0.450000000    -0.0829057   -0.0698510    -0.7242250    0.5222272    -0.7246236    0.5236513    -0.0495815   -0.0926436 
   0.460000000    -0.0964641   -0.0758588    -0.6756121    0.5796369    -0.6758905    0.5803344    -0.0649605   -0.1008023 
   0.470000000    -0.1114961   -0.0783769    -0.6246305    0.6318618    -0.6253505    0.6307792    -0.0823950   -0.1055587 
   0.480000000    -0.1242782   -0.0768989    -0.5678870    0.6803598    -0.5680627    0.6796346    -0.0985640   -0.1066112 
   0.490000000    -0.1362144   -0.0754485    -0.5087195    0.7226921    -0.5064445    0.7235995    -0.1136950   -0.1066053 
   0.500000000    -0.1487030   -0.0726888    -0.4468094    0.7590832    -0.4458986    0.7593921    -0.1283101   -0.1037931 
   0.510000000    -0.1637699   -0.0666428    -0.3807879    0.7909567    -0.3806288    0.7911513    -0.1449912   -0.1004139 
   0.520000000    -0.1758121   -0.0561218    -0.3151968    0.8174698    -0.3130050    0.8169572    -0.1613321   -0.0921913 
   0.530000000    -0.1849485   -0.0465337    -0.2468779    0.8378228    -0.2475448    0.8367786    -0.1741358   -0.0796829 
   0.540000000    -0.1939518   -0.0374175    -0.1783410    0.8527606    -0.1766661    0.8527030    -0.1838478   -0.0692966 
   0.550000000    -0.2024163   -0.0230133    -0.1074094    0.8620759    -0.1079895    0.8615654    -0.1939768   -0.0583944 
   0.560000000    -0.2040406   -0.0074526    -0.0376299    0.8650167    -0.0387238    0.8675873    -0.2019445   -0.0433653 
   0.570000000    -0.2052803    0.0033454     0.0323250    0.8631010     0.0314710    0.8646960    -0.2061775   -0.0272456 
   0.580000000    -0.2111672    0.0172357     0.1004062    0.8566071     0.1007230    0.8581273    -0.2095120   -0.0129158 
   0.590000000    -0.2094313    0.0375244     0.1689057    0.8445819     0.1696793    0.8425817    -0.2124448    0.0033590 
   0.600000000    -0.2029825    0.0506797     0.2363391    0.8274589     0.2350813    0.8263982    -0.2117460    0.0220018 
   0.610000000    -0.1978875    0.0612910     0.3015566    0.8048353     0.3021281    0.8058210    -0.2050084    0.0372169 
   0.620000000    -0.1926493    0.0747484     0.3663470    0.7772968     0.3645936    0.7768768    -0.1973708    0.0485706 
   0.630000000    -0.1803414    0.0873233     0.4264948    0.7440401     0.4256073    0.7462596    -0.1919779    0.0589172 
   0.640000000    -0.1675574    0.0953939     0.4831886    0.7084543     0.4852878    0.7089007    -0.1838104    0.0745625 
   0.650000000    -0.1576338    0.1022316     0.5389829    0.6673475     0.5396335    0.6667428    -0.1693747    0.0858441 
   0.660000000    -0.1468766    0.1124319     0.5907500    0.6228169     0.5917633    0.6214199    -0.1567347    0.0919617 
   0.670000000    -0.1287929    0.1173331     0.6408622    0.5726132     0.6395064    0.5716722    -0.1455399    0.0981504 
   0.680000000    -0.1142739    0.1146176     0.6833239    0.5172822     0.6847719    0.5181748    -0.1315959    0.1037364 
   0.690000000    -0.1026084    0.1114966     0.7241018    0.4622718     0.7272599    0.4623573    -0.1147016    0.1034004 
   0.700000000    -0.0889120    0.1129797     0.7607744    0.4017330     0.7604663    0.4005004    -0.1011534    0.0989392 
   0.710000000    -0.0710370    0.1092755     0.7909259    0.3370281     0.7916491    0.3386949    -0.0910134    0.0963269 
   0.720000000    -0.0586674    0.0992946     0.8173456    0.2711615     0.8161566    0.2715045    -0.0775248    0.0948714 
   0.730000000    -0.0499248    0.0926043     0.8371830    0.2031808     0.8375764    0.2037305    -0.0622077    0.0892862 
   0.740000000    -0.0376951    0.0836277     0.8508035    0.1348612     0.8504962    0.1328930    -0.0502583    0.0774741 
   0.750000000    -0.0290529    0.0678182     0.8596039    0.0627950     0.8598813    0.0636363    -0.0465022    0.0638707 
   0.760000000    -0.0254139    0.0536492     0.8625640   -0.0083372     0.8635128   -0.0086675    -0.0422893    0.0558802 
   0.770000000    -0.0217118    0.0421322     0.8582128   -0.0802739     0.8591303   -0.0810572    -0.0339629    0.0433478 
   0.780000000    -0.0183157    0.0277444     0.8498904   -0.1522945     0.8492234   -0.1503365    -0.0320482    0.0272593 
   0.790000000    -0.0195898    0.0129557     0.8325948   -0.2228257     0.8329403   -0.2214713    -0.0344627    0.0156378 
   0.800000000    -0.0240589   -0.0002260     0.8111225   -0.2892349     0.8109910   -0.2901888    -0.0337903    0.0057078 
   0.810000000    -0.0290662   -0.0144425     0.7829086   -0.3569364     0.7820197   -0.3584266    -0.0372925   -0.0103196 
   0.820000000    -0.0371034   -0.0299247     0.7493718   -0.4179974     0.7489763   -0.4178627    -0.0472500   -0.0255728 
   0.830000000    -0.0494296   -0.0386890     0.7140108   -0.4803736     0.7120415   -0.4801503    -0.0610221   -0.0319437 
   0.840000000    -0.0583249   -0.0444421     0.6668944   -0.5381367     0.6675675   -0.5368438    -0.0675665   -0.0366555 
   0.850000000    -0.0678061   -0.0522592     0.6187733   -0.5891045     0.6205005   -0.5890008    -0.0747561   -0.0450967 
   0.860000000    -0.0839879   -0.0608784     0.5665174   -0.6389070     0.5657702   -0.6390071    -0.0893619   -0.0538268 
   0.870000000    -0.1008799   -0.0602321     0.5102749   -0.6804866     0.5110523   -0.6798249    -0.1057099   -0.0530606 
   0.880000000    -0.1120777   -0.0589136     0.4538470   -0.7197841     0.4517367   -0.7197835    -0.1175593   -0.0501679 
   0.890000000    -0.1255055   -0.0621309     0.3906272   -0.7533026     0.3903698   -0.7510433    -0.1285439   -0.0501999 
   0.900000000    -0.1432903   -0.0575342     0.3256707   -0.7794137     0.3271345   -0.7779484    -0.1448339   -0.0477689 
   0.910000000    -0.1549448   -0.0457665     0.2613483   -0.8017539     0.2639975   -0.8027298    -0.1583120   -0.0377008 
   0.920000000    -0.1609913   -0.0393180     0.1934483   -0.8181988     0.1944971   -0.8182799    -0.1642337   -0.0290888 
   0.930000000    -0.1737438   -0.0349800     0.1268990   -0.8293763     0.1262577   -0.8307244    -0.1709230   -0.0232753 
   0.940000000    -0.1873726   -0.0209260     0.0580490   -0.8350872     0.0571861   -0.8347335    -0.1829307   -0.0140688 
   0.950000000    -0.1911076   -0.0055143    -0.0101429   -0.8357053    -0.0076400   -0.8332604    -0.1913758    0.0027799 
   0.960000000    -0.1930676    0.0059908    -0.0775335   -0.8312178    -0.0738692   -0.8308724    -0.1914633    0.0203393 
   0.970000000    -0.1977225    0.0169141    -0.1437109   -0.8205324    -0.1428628   -0.8198922    -0.1904070    0.0290528 
   0.980000000    -0.2003775    0.0337693    -0.2101810   -0.8027984    -0.2072749   -0.8052453    -0.1923215    0.0397455 
   0.990000000    -0.1953696    0.0483644    -0.2705860   -0.7813109    -0.2719293   -0.7854226    -0.1935972    0.0564719 
   1.000000000    -0.1914267    0.0575887    -0.3316232   -0.7589393    -0.3326727   -0.7578449    -0.1850002    0.0699218 
   1.010000000    -0.1912252    0.0697897    -0.3916978   -0.7282279    -0.3917933   -0.7282734    -0.1779649    0.0780739 
   1.020000000    -0.1826973    0.0867594    -0.4494465   -0.6951663    -0.4478158   -0.6940857    -0.1738940    0.0904098 
   1.030000000    -0.1688250    0.0943657    -0.5046602   -0.6538269    -0.5014472   -0.6580787    -0.1626407    0.1048968 
   1.040000000    -0.1595496    0.0987082    -0.5529813   -0.6139249    -0.5540305   -0.6154559    -0.1467281    0.1117515 
   1.050000000    -0.1528206    0.1077626    -0.6027914   -0.5659353    -0.6018382   -0.5684846    -0.1355460    0.1131756 
   1.060000000    -0.1369793    0.1158753    -0.6440873   -0.5154358    -0.6465163   -0.5193130    -0.1279133    0.1161683 
   1.070000000    -0.1227701    0.1145805    -0.6862755   -0.4629886    -0.6869349   -0.4621970    -0.1142910    0.1244850 
   1.080000000    -0.1142495    0.1152240    -0.7207660   -0.4063708    -0.7210756   -0.4049838    -0.0951457    0.1242212 
   1.090000000    -0.1006802    0.1174765    -0.7529140   -0.3469584    -0.7524593   -0.3463291    -0.0815408    0.1172512 
   1.100000000    -0.0844355    0.1127602    -0.7791649   -0.2836296    -0.7783564   -0.2850134    -0.0719813    0.1122222 
   1.110000000    -0.0738530    0.1026236    -0.7992887   -0.2186756    -0.8027530   -0.2195619    -0.0609908    0.1108591 
   1.120000000    -0.0673114    0.0975773    -0.8145416   -0.1528999    -0.8163998   -0.1524351    -0.0449027    0.1011595 
   1.130000000    -0.0572179    0.0928476    -0.8258170   -0.0858421    -0.8270996   -0.0859318    -0.0367410    0.0856577 
   1.140000000    -0.0458689    0.0806811    -0.8302805   -0.0162749    -0.8311821   -0.0176562    -0.0345426    0.0758607 
   1.150000000    -0.0425262    0.0657081    -0.8303280    0.0522551    -0.8301779    0.0511007    -0.0270020    0.0690663 
   1.160000000    -0.0418567    0.0567735    -0.8226472    0.1204794    -0.8221978    0.1202639    -0.0180025    0.0542367 
   1.170000000    -0.0381865    0.0450141    -0.8098776    0.1888181    -0.8098361    0.1871945    -0.0184612    0.0349345 
   1.180000000    -0.0389167    0.0287624    -0.7911564    0.2549778    -0.7922295    0.2534594    -0.0254457    0.0207270 
   1.190000000    -0.0459805    0.0171036    -0.7660389    0.3200736    -0.7676449    0.3209115    -0.0282992    0.0123441 
   1.200000000    -0.0489929    0.0087518    -0.7361613    0.3823534    -0.7368770    0.3816812    -0.0291499   -0.0018050 
   1.210000000    -0.0540917   -0.0049694    -0.7011806    0.4434206    -0.7014642    0.4427598    -0.0375985   -0.0184535 
   1.220000000    -0.0665439   -0.0150852    -0.6609381    0.4989677    -0.6610300    0.4979374    -0.0508368   -0.0267625 
   1.230000000    -0.0774666   -0.0189165    -0.6167571    0.5526749    -0.6172057    0.5499030    -0.0601679   -0.0318786 
   1.240000000    -0.0865153   -0.0262366    -0.5680013    0.5994569    -0.5669365    0.5993401    -0.0708502   -0.0412180 
   1.250000000    -0.1022027   -0.0333877    -0.5149221    0.6423440    -0.5138565    0.6428448    -0.0887633   -0.0482084 
   1.260000000    -0.1184369   -0.0316909    -0.4591973    0.6814363    -0.4594291    0.6807509    -0.1055517   -0.0473244 
   1.270000000    -0.1278013   -0.0292566    -0.4001398    0.7154754    -0.4009260    0.7148169    -0.1165861   -0.0464966 
   1.280000000    -0.1392726   -0.0311613    -0.3390037    0.7449566    -0.3391960    0.7432453    -0.1293170   -0.0483170 
   1.290000000    -0.1572370   -0.0274589    -0.2741174    0.7669279    -0.2766511    0.7663438    -0.1472087   -0.0456869 
   1.300000000    -0.1709914   -0.0144987    -0.2127707    0.7841095    -0.2127148    0.7830030    -0.1628742   -0.0348880 
   1.310000000    -0.1765428   -0.0041976    -0.1462165    0.7984856    -0.1484665    0.7976414    -0.1715551   -0.0230640 
   1.320000000    -0.1862091   -0.0000137    -0.0793495    0.8042564    -0.0816987    0.8049404    -0.1806404   -0.0170629 
   1.330000000    -0.2008298    0.0121803    -0.0144765    0.8064099    -0.0153013    0.8061410    -0.1947092   -0.0082612 
   1.340000000    -0.2062774    0.0313776     0.0489623    0.8008340     0.0477871    0.8019574    -0.2053743    0.0090955 
   1.350000000    -0.2031822    0.0430668     0.1125851    0.7946752     0.1109738    0.7941274    -0.2063361    0.0261548 
   1.360000000    -0.2078840    0.0516430     0.1762478    0.7811818     0.1768196    0.7809592    -0.2063535    0.0368431 
   1.370000000    -0.2134109    0.0709517     0.2392590    0.7624950     0.2360255    0.7629547    -0.2120262    0.0507651 
   1.380000000    -0.2066029    0.0907650     0.2979918    0.7369637     0.2965582    0.7407870    -0.2136143    0.0705667 
   1.390000000    -0.1993629    0.1002498     0.3549355    0.7131709     0.3541804    0.7129564    -0.2069267    0.0869289 
   1.400000000    -0.1988132    0.1106429     0.4108643    0.6802359     0.4095923    0.6821978    -0.2008846    0.0971261 
   1.410000000    -0.1925922    0.1285388     0.4636888    0.6463158     0.4596473    0.6467772    -0.1963286    0.1093965 
   1.420000000    -0.1768616    0.1395116     0.5118032    0.6056366     0.5120466    0.6083480    -0.1879480    0.1247462 
   1.430000000    -0.1654732    0.1452523     0.5589772    0.5640432     0.5574091    0.5650153    -0.1729525    0.1367199 
   1.440000000    -0.1568864    0.1543541     0.6018113    0.5169842     0.5998384    0.5189722    -0.1609180    0.1432530 
   1.450000000    -0.1415128    0.1650026     0.6402184    0.4661937     0.6403217    0.4690147    -0.1519054    0.1509327 
   1.460000000    -0.1251517    0.1667401     0.6750570    0.4146195     0.6767500    0.4175186    -0.1390856    0.1601295 
   1.470000000    -0.1142686    0.1665078     0.7070485    0.3598420     0.7079112    0.3599334    -0.1202165    0.1621815 
   1.480000000    -0.1013813    0.1698347     0.7360919    0.3014452     0.7344038    0.3037216    -0.1067123    0.1585471 
   1.490000000    -0.0821727    0.1687558     0.7570682    0.2421256     0.7561883    0.2440147    -0.0947818    0.1587003 
   1.500000000    -0.0673293    0.1593483     0.7745641    0.1793761     0.7774259    0.1818358    -0.0787958    0.1595235 
   1.510000000    -0.0593105    0.1540194     0.7870976    0.1173444     0.7898045    0.1160607    -0.0607147    0.1534875 
   1.520000000    -0.0466931    0.1513955     0.7965283    0.0542087     0.7959267    0.0542584    -0.0511322    0.1421983 
