! 2/21/2025 7:04:07 AM
! Z:\OQC\AD5\613\LOT-141-0825\SINGLE\1-L18-4.S2P
! CHANNEL.1
! TR.MEASUREMENT
! CORRECTED.DATA
! RF.CORRECTION: FULL.FOUR.PORT.CAL.PORT.1.2.3.4
! AVERAGING.OFF
! IF.BANDWIDTH: 1KHZ
! SWEEPTYPE:  FREQ.SWEEP(Linear)
! Reference Plane Port Info
! PORT:              PORT1              PORT2             
! DISTANCE:          0  m               0  m              
! TIME:              0  s               0  s              
! PHASE.OFFSET:      0 °                0 °               
! LOSS:              0  dB              0  dB             
! REF.LOSS:          0  dB              0  dB             
! REF.FREQ:          0  Hz              0  Hz             
! Power Info
! POWER:             -10  dBm           -10  dBm          
! EFF.POWER:         -10  dBm           -10  dBm          
! SOURCE.ATTEN:      0  dB              0  dB             
! TEST.ATTEN:        0  dB              0  dB             
# GHZ S RI R 50.0
! FREQ.GHZ         S11RE         S11IM         S21RE         S21IM         S12RE         S12IM         S22RE         S22IM         
!; PortSelection: Port_12
   0.010000000     0.0088683   -0.0054845     0.9901367   -0.0459502     0.9885096   -0.0456959     0.0091355   -0.0052340 
   0.020000000     0.0109594   -0.0145309     0.9849415   -0.0922237     0.9850764   -0.0925538     0.0111887   -0.0141422 
   0.030000000     0.0094686   -0.0243762     0.9770223   -0.1373308     0.9780131   -0.1377347     0.0096614   -0.0239427 
   0.040000000     0.0069989   -0.0317404     0.9686235   -0.1824892     0.9689277   -0.1819714     0.0068994   -0.0314038 
   0.050000000     0.0060803   -0.0391486     0.9570503   -0.2259088     0.9577305   -0.2263792     0.0055367   -0.0383742 
   0.060000000     0.0040513   -0.0484369     0.9449793   -0.2690339     0.9451749   -0.2692704     0.0035312   -0.0475441 
   0.070000000    -0.0002990   -0.0579982     0.9302252   -0.3120957     0.9307278   -0.3122292    -0.0009576   -0.0566970 
   0.080000000    -0.0053438   -0.0653171     0.9136487   -0.3526627     0.9135277   -0.3528257    -0.0064139   -0.0638346 
   0.090000000    -0.0098336   -0.0721737     0.8948291   -0.3933550     0.8962448   -0.3938684    -0.0114207   -0.0700949 
   0.100000000    -0.0145001   -0.0798742     0.8749220   -0.4324773     0.8746622   -0.4320417    -0.0164629   -0.0772918 
   0.110000000    -0.0215110   -0.0878690     0.8524420   -0.4711714     0.8530768   -0.4708236    -0.0238689   -0.0847934 
   0.120000000    -0.0299040   -0.0934041     0.8297173   -0.5076616     0.8295617   -0.5079807    -0.0329150   -0.0900618 
   0.130000000    -0.0369588   -0.0979838     0.8047201   -0.5439562     0.8042812   -0.5439989    -0.0399192   -0.0938068 
   0.140000000    -0.0435279   -0.1034112     0.7784997   -0.5779213     0.7781405   -0.5780094    -0.0465887   -0.0992072 
   0.150000000    -0.0525871   -0.1092413     0.7494420   -0.6121043     0.7490973   -0.6113021    -0.0560138   -0.1045816 
   0.160000000    -0.0623769   -0.1121740     0.7193474   -0.6434414     0.7195849   -0.6418306    -0.0661530   -0.1066435 
   0.170000000    -0.0716832   -0.1137826     0.6902651   -0.6719421     0.6895897   -0.6713778    -0.0753092   -0.1075600 
   0.180000000    -0.0798554   -0.1147253     0.6571260   -0.7012963     0.6586314   -0.7002836    -0.0842669   -0.1082463 
   0.190000000    -0.0886288   -0.1171897     0.6258393   -0.7270321     0.6244689   -0.7277560    -0.0938066   -0.1091491 
   0.200000000    -0.0996418   -0.1186390     0.5912228   -0.7540228     0.5915179   -0.7536992    -0.1042135   -0.1097843 
   0.210000000    -0.1098001   -0.1165475     0.5567925   -0.7762583     0.5559278   -0.7771282    -0.1145970   -0.1081806 
   0.220000000    -0.1170903   -0.1153682     0.5199065   -0.7999676     0.5211967   -0.7989443    -0.1234953   -0.1057046 
   0.230000000    -0.1263378   -0.1156454     0.4833820   -0.8190414     0.4828455   -0.8203735    -0.1321698   -0.1038790 
   0.240000000    -0.1377527   -0.1129477     0.4464861   -0.8382509     0.4459490   -0.8384721    -0.1418115   -0.1004667 
   0.250000000    -0.1463093   -0.1071659     0.4088773   -0.8552390     0.4093949   -0.8535196    -0.1506067   -0.0949307 
   0.260000000    -0.1529574   -0.1034987     0.3711181   -0.8704723     0.3706409   -0.8693555    -0.1585452   -0.0899209 
   0.270000000    -0.1615669   -0.1013217     0.3328136   -0.8840656     0.3307298   -0.8843251    -0.1661648   -0.0848867 
   0.280000000    -0.1708986   -0.0958516     0.2926783   -0.8951153     0.2927108   -0.8957638    -0.1740260   -0.0790561 
   0.290000000    -0.1781248   -0.0885854     0.2547141   -0.9050665     0.2536411   -0.9054162    -0.1810960   -0.0719949 
   0.300000000    -0.1837743   -0.0823296     0.2136410   -0.9145996     0.2126828   -0.9135291    -0.1876642   -0.0642317 
   0.310000000    -0.1903477   -0.0766719     0.1746389   -0.9216216     0.1750164   -0.9201708    -0.1929975   -0.0557479 
   0.320000000    -0.1975998   -0.0691459     0.1350492   -0.9259349     0.1333196   -0.9262746    -0.1982876   -0.0475944 
   0.330000000    -0.2025699   -0.0601839     0.0946896   -0.9299520     0.0944392   -0.9280926    -0.2030517   -0.0389001 
   0.340000000    -0.2051754   -0.0528375     0.0542497   -0.9313104     0.0555428   -0.9318137    -0.2058947   -0.0299018 
   0.350000000    -0.2091708   -0.0461745     0.0163610   -0.9321895     0.0129613   -0.9310722    -0.2087121   -0.0211949 
   0.360000000    -0.2145377   -0.0373002    -0.0253553   -0.9291178    -0.0244555   -0.9304895    -0.2113455   -0.0118767 
   0.370000000    -0.2163648   -0.0268187    -0.0643565   -0.9270204    -0.0652498   -0.9262624    -0.2130512   -0.0019062 
   0.380000000    -0.2175076   -0.0190560    -0.1038370   -0.9228708    -0.1041161   -0.9219533    -0.2137453    0.0079628 
   0.390000000    -0.2198583   -0.0100336    -0.1426415   -0.9160127    -0.1401498   -0.9162458    -0.2141482    0.0186745 
   0.400000000    -0.2195526   -0.0009606    -0.1812107   -0.9088169    -0.1802437   -0.9088623    -0.2113557    0.0281801 
   0.410000000    -0.2186383    0.0063146    -0.2188944   -0.8994443    -0.2195034   -0.8992715    -0.2096492    0.0353378 
   0.420000000    -0.2186027    0.0152680    -0.2564675   -0.8873621    -0.2569253   -0.8872038    -0.2089170    0.0454728 
   0.430000000    -0.2170824    0.0252012    -0.2919343   -0.8759891    -0.2939419   -0.8748800    -0.2060971    0.0558678 
   0.440000000    -0.2145923    0.0332527    -0.3304275   -0.8611810    -0.3298836   -0.8625844    -0.2010869    0.0649795 
   0.450000000    -0.2134123    0.0408609    -0.3654360   -0.8467227    -0.3675751   -0.8457135    -0.1976502    0.0725356 
   0.460000000    -0.2106259    0.0505871    -0.4015845   -0.8299463    -0.4015892   -0.8296878    -0.1934338    0.0819783 
   0.470000000    -0.2042987    0.0575950    -0.4369411   -0.8116484    -0.4349939   -0.8134667    -0.1857339    0.0904953 
   0.480000000    -0.1991976    0.0629969    -0.4699362   -0.7925090    -0.4713676   -0.7934279    -0.1792548    0.0960788 
   0.490000000    -0.1959684    0.0692693    -0.5027415   -0.7713575    -0.5048631   -0.7707585    -0.1728382    0.1021379 
   0.500000000    -0.1918888    0.0770220    -0.5355372   -0.7487754    -0.5354109   -0.7484567    -0.1668518    0.1078535 
   0.510000000    -0.1854039    0.0853345    -0.5678180   -0.7244899    -0.5658153   -0.7255854    -0.1602697    0.1153876 
   0.520000000    -0.1775542    0.0893732    -0.5967638   -0.7005675    -0.5978838   -0.7004309    -0.1508010    0.1215344 
   0.530000000    -0.1724925    0.0925638    -0.6277196   -0.6743655    -0.6258415   -0.6758777    -0.1404909    0.1235068 
   0.540000000    -0.1669024    0.0966939    -0.6543227   -0.6484031    -0.6554744   -0.6483405    -0.1330350    0.1250342 
   0.550000000    -0.1574014    0.1021395    -0.6806757   -0.6188775    -0.6819769   -0.6190262    -0.1252755    0.1291394 
   0.560000000    -0.1480006    0.1016443    -0.7066708   -0.5905399    -0.7084394   -0.5894197    -0.1143070    0.1316902 
   0.570000000    -0.1447408    0.1038700    -0.7320146   -0.5589091    -0.7332488   -0.5594251    -0.1047253    0.1318694 
   0.580000000    -0.1376184    0.1111062    -0.7542177   -0.5278258    -0.7542070   -0.5280664    -0.0972727    0.1336511 
   0.590000000    -0.1249407    0.1124550    -0.7776899   -0.4950487    -0.7765673   -0.4947407    -0.0880200    0.1361754 
   0.600000000    -0.1189658    0.1076121    -0.7984989   -0.4607655    -0.7978820   -0.4608064    -0.0759285    0.1349849 
   0.610000000    -0.1148862    0.1079086    -0.8173321   -0.4273089    -0.8195668   -0.4249399    -0.0660975    0.1302837 
   0.620000000    -0.1053564    0.1099633    -0.8352757   -0.3918926    -0.8352790   -0.3903807    -0.0592082    0.1242006 
   0.630000000    -0.0948918    0.1069777    -0.8520867   -0.3539732    -0.8527461   -0.3545664    -0.0538184    0.1241446 
   0.640000000    -0.0894377    0.1028586    -0.8669448   -0.3167184    -0.8677481   -0.3167123    -0.0415067    0.1239940 
   0.650000000    -0.0849865    0.1020634    -0.8789824   -0.2803554    -0.8811089   -0.2805104    -0.0309423    0.1166298 
   0.660000000    -0.0763745    0.1025817    -0.8921480   -0.2430834    -0.8924556   -0.2416861    -0.0261685    0.1102001 
   0.670000000    -0.0672083    0.0958463    -0.9015990   -0.2022896    -0.9020574   -0.2029355    -0.0203546    0.1066986 
   0.680000000    -0.0641790    0.0875725    -0.9091151   -0.1631018    -0.9094517   -0.1637394    -0.0117916    0.1014143 
   0.690000000    -0.0635782    0.0831349    -0.9165197   -0.1266726    -0.9182252   -0.1249665    -0.0047431    0.0904130 
   0.700000000    -0.0549678    0.0824318    -0.9221865   -0.0844999    -0.9219273   -0.0833684    -0.0029586    0.0813956 
   0.710000000    -0.0465693    0.0747986    -0.9240845   -0.0445242    -0.9238574   -0.0436114    -0.0005154    0.0764343 
   0.720000000    -0.0460882    0.0678349    -0.9256302   -0.0033315    -0.9250474   -0.0033488     0.0063216    0.0722016 
   0.730000000    -0.0434902    0.0649585    -0.9259496    0.0370685    -0.9252176    0.0371551     0.0141007    0.0632306 
   0.740000000    -0.0381647    0.0588234    -0.9228334    0.0793753    -0.9218917    0.0807290     0.0158810    0.0498796 
   0.750000000    -0.0369343    0.0474581    -0.9188065    0.1182625    -0.9178782    0.1183984     0.0119255    0.0401098 
   0.760000000    -0.0383706    0.0409355    -0.9119396    0.1591921    -0.9138116    0.1602938     0.0121969    0.0359859 
   0.770000000    -0.0367174    0.0362832    -0.9033153    0.1994391    -0.9037201    0.1998793     0.0171190    0.0258652 
   0.780000000    -0.0350459    0.0296263    -0.8962226    0.2390125    -0.8947234    0.2374826     0.0157010    0.0140818 
   0.790000000    -0.0354784    0.0219116    -0.8829609    0.2784557    -0.8825895    0.2785752     0.0117101    0.0066228 
   0.800000000    -0.0380194    0.0159446    -0.8696427    0.3152704    -0.8687712    0.3171602     0.0134187    0.0012069 
   0.810000000    -0.0383550    0.0081872    -0.8539053    0.3546011    -0.8544577    0.3548474     0.0127825   -0.0113064 
   0.820000000    -0.0412824   -0.0011645    -0.8370444    0.3897523    -0.8362644    0.3897897     0.0059950   -0.0237681 
   0.830000000    -0.0478996   -0.0060780    -0.8218766    0.4266847    -0.8204798    0.4283752    -0.0045443   -0.0291415 
   0.840000000    -0.0494422   -0.0081068    -0.7976308    0.4647728    -0.7981244    0.4647633    -0.0057327   -0.0317851 
   0.850000000    -0.0503044   -0.0133155    -0.7770382    0.4957643    -0.7769035    0.4969372    -0.0069299   -0.0392016 
   0.860000000    -0.0559533   -0.0234815    -0.7536612    0.5323433    -0.7538072    0.5333900    -0.0134339   -0.0518485 
   0.870000000    -0.0658895   -0.0259362    -0.7283497    0.5638694    -0.7271712    0.5639647    -0.0253716   -0.0566345 
   0.880000000    -0.0695547   -0.0264590    -0.7041292    0.5945975    -0.7020255    0.5949871    -0.0316427   -0.0585727 
   0.890000000    -0.0714394   -0.0343068    -0.6759430    0.6242690    -0.6735540    0.6245004    -0.0361243   -0.0639060 
   0.900000000    -0.0823496   -0.0411567    -0.6471319    0.6513649    -0.6467299    0.6505417    -0.0468028   -0.0725235 
   0.910000000    -0.0915529   -0.0380410    -0.6181505    0.6811623    -0.6184120    0.6798807    -0.0596240   -0.0736950 
   0.920000000    -0.0933856   -0.0364758    -0.5831506    0.7060002    -0.5856788    0.7062408    -0.0653767   -0.0726296 
   0.930000000    -0.0968746   -0.0433797    -0.5534420    0.7298098    -0.5544652    0.7301236    -0.0687758   -0.0753837 
   0.940000000    -0.1100098   -0.0470276    -0.5192708    0.7533449    -0.5195878    0.7543264    -0.0776779   -0.0821726 
   0.950000000    -0.1191493   -0.0423360    -0.4851128    0.7737090    -0.4850578    0.7718982    -0.0920255   -0.0828810 
   0.960000000    -0.1231439   -0.0403578    -0.4527327    0.7940968    -0.4522904    0.7910993    -0.1047626   -0.0768545 
   0.970000000    -0.1282214   -0.0424116    -0.4159828    0.8120736    -0.4162266    0.8108430    -0.1089762   -0.0729094 
   0.980000000    -0.1387937   -0.0417964    -0.3787991    0.8280125    -0.3814502    0.8269477    -0.1147532   -0.0760118 
   0.990000000    -0.1465655   -0.0352771    -0.3415915    0.8409682    -0.3432589    0.8424501    -0.1278681   -0.0768595 
   1.000000000    -0.1485904   -0.0316998    -0.3061916    0.8538691    -0.3057458    0.8533449    -0.1368801   -0.0688862 
   1.010000000    -0.1552529   -0.0339939    -0.2692389    0.8648517    -0.2676510    0.8664620    -0.1403286   -0.0653516 
   1.020000000    -0.1683515   -0.0295972    -0.2316339    0.8757658    -0.2286424    0.8733656    -0.1490221   -0.0649185 
   1.030000000    -0.1719361   -0.0189603    -0.1907909    0.8832157    -0.1931088    0.8806515    -0.1628165   -0.0583350 
   1.040000000    -0.1727026   -0.0147238    -0.1546092    0.8895383    -0.1552104    0.8902416    -0.1692740   -0.0463320 
   1.050000000    -0.1792371   -0.0141982    -0.1140980    0.8943804    -0.1155629    0.8936337    -0.1708575   -0.0408923 
   1.060000000    -0.1883135   -0.0054233    -0.0753814    0.8957632    -0.0789252    0.8979293    -0.1748252   -0.0390112 
   1.070000000    -0.1892280    0.0046386    -0.0383771    0.8973109    -0.0374834    0.8985846    -0.1858886   -0.0351987 
   1.080000000    -0.1907400    0.0068456     0.0009266    0.8983081     0.0003768    0.8967802    -0.1940983   -0.0222458 
   1.090000000    -0.1983891    0.0122679     0.0380366    0.8954092     0.0393181    0.8938870    -0.1934120   -0.0103104 
   1.100000000    -0.2028056    0.0241976     0.0762816    0.8943652     0.0752247    0.8905130    -0.1936869   -0.0049763 
   1.110000000    -0.2001341    0.0337780     0.1169313    0.8861368     0.1124430    0.8877791    -0.2011717   -0.0004143 
   1.120000000    -0.1995328    0.0375325     0.1511139    0.8777265     0.1508278    0.8818936    -0.2073766    0.0123495 
   1.130000000    -0.2044052    0.0426058     0.1878221    0.8716507     0.1890773    0.8713374    -0.2045310    0.0256018 
   1.140000000    -0.2072406    0.0541574     0.2250513    0.8618754     0.2230471    0.8635409    -0.2013057    0.0288027 
   1.150000000    -0.2029249    0.0650112     0.2622766    0.8521761     0.2598340    0.8514061    -0.2061789    0.0339116 
   1.160000000    -0.2016699    0.0685101     0.2976075    0.8379285     0.2938622    0.8384652    -0.2100005    0.0474437 
   1.170000000    -0.2035358    0.0764225     0.3316225    0.8244726     0.3307457    0.8242540    -0.2057674    0.0611310 
   1.180000000    -0.2004166    0.0870217     0.3664647    0.8090519     0.3617471    0.8107309    -0.1992335    0.0682892 
   1.190000000    -0.1944522    0.0928594     0.3989032    0.7911097     0.3989118    0.7961525    -0.1983470    0.0709844 
   1.200000000    -0.1935485    0.0968101     0.4323286    0.7737877     0.4313472    0.7753273    -0.2003279    0.0809125 
   1.210000000    -0.1925290    0.1071598     0.4647473    0.7541201     0.4629206    0.7545134    -0.1948982    0.0942338 
   1.220000000    -0.1842904    0.1157508     0.4964236    0.7345841     0.4922391    0.7339125    -0.1863822    0.1006148 
   1.230000000    -0.1795511    0.1182840     0.5276271    0.7123441     0.5246335    0.7138228    -0.1834849    0.1050251 
   1.240000000    -0.1781228    0.1251446     0.5551952    0.6876145     0.5551931    0.6896631    -0.1824371    0.1146321 
   1.250000000    -0.1710249    0.1341221     0.5820969    0.6643344     0.5822709    0.6654063    -0.1735317    0.1245480 
   1.260000000    -0.1611830    0.1365735     0.6105221    0.6403207     0.6085839    0.6422368    -0.1636950    0.1269607 
   1.270000000    -0.1574574    0.1364425     0.6360008    0.6135139     0.6358433    0.6158544    -0.1593060    0.1287124 
   1.280000000    -0.1550028    0.1442391     0.6629850    0.5856177     0.6608206    0.5866353    -0.1555503    0.1364829 
   1.290000000    -0.1440221    0.1529916     0.6853620    0.5550976     0.6847966    0.5583782    -0.1452078    0.1455295 
   1.300000000    -0.1316922    0.1527047     0.7080532    0.5284494     0.7071204    0.5291477    -0.1331014    0.1480307 
   1.310000000    -0.1287100    0.1499052     0.7315113    0.4966272     0.7319030    0.5010834    -0.1264309    0.1465960 
   1.320000000    -0.1270973    0.1560049     0.7517849    0.4653479     0.7520180    0.4676231    -0.1241226    0.1497964 
   1.330000000    -0.1148912    0.1624887     0.7691594    0.4329982     0.7711103    0.4345800    -0.1159238    0.1575937 
   1.340000000    -0.1013045    0.1582573     0.7865039    0.4012743     0.7878193    0.4022573    -0.1007313    0.1583219 
   1.350000000    -0.0986705    0.1521038     0.8046296    0.3682881     0.8050524    0.3692451    -0.0907558    0.1529002 
   1.360000000    -0.0959241    0.1579547     0.8207167    0.3332444     0.8204980    0.3326607    -0.0873269    0.1521944 
   1.370000000    -0.0815165    0.1619920     0.8332158    0.2969195     0.8331552    0.3006633    -0.0796093    0.1576235 
   1.380000000    -0.0705069    0.1546973     0.8443546    0.2610592     0.8466301    0.2624814    -0.0663202    0.1578914 
   1.390000000    -0.0703186    0.1488449     0.8567639    0.2270949     0.8574340    0.2269638    -0.0581489    0.1508796 
   1.400000000    -0.0662349    0.1527846     0.8659111    0.1879300     0.8667372    0.1902739    -0.0545512    0.1466868 
   1.410000000    -0.0524499    0.1505603     0.8747587    0.1516906     0.8735652    0.1536230    -0.0474693    0.1458744 
   1.420000000    -0.0452764    0.1398900     0.8798219    0.1144497     0.8819706    0.1147005    -0.0354921    0.1432507 
   1.430000000    -0.0440285    0.1356319     0.8851601    0.0771989     0.8852431    0.0768480    -0.0264407    0.1349369 
   1.440000000    -0.0379026    0.1364552     0.8879082    0.0381452     0.8891246    0.0396485    -0.0231504    0.1291782 
   1.450000000    -0.0276484    0.1306822     0.8884076   -0.0003409     0.8895329    0.0005807    -0.0191426    0.1285529 
   1.460000000    -0.0250316    0.1212341     0.8881946   -0.0384533     0.8908384   -0.0373688    -0.0100962    0.1241665 
   1.470000000    -0.0251680    0.1174792     0.8862727   -0.0761079     0.8866334   -0.0769638    -0.0033700    0.1121589 
   1.480000000    -0.0186718    0.1148988     0.8837314   -0.1163036     0.8840500   -0.1147325    -0.0039900    0.1033730 
   1.490000000    -0.0108750    0.1039755     0.8760512   -0.1535541     0.8779548   -0.1529940    -0.0003491    0.1004600 
   1.500000000    -0.0123857    0.0930813     0.8707123   -0.1926886     0.8722762   -0.1916397     0.0080935    0.0946668 
   1.510000000    -0.0137719    0.0920291     0.8600869   -0.2287095     0.8607070   -0.2302718     0.0128942    0.0823839 
   1.520000000    -0.0074189    0.0890761     0.8519723   -0.2662521     0.8512732   -0.2662299     0.0090787    0.0731236 
