! 2/21/2025 7:06:11 AM
! Z:\OQC\AD5\613\LOT-141-0825\SINGLE\1-L20-4.S2P
! CHANNEL.1
! TR.MEASUREMENT
! CORRECTED.DATA
! RF.CORRECTION: FULL.FOUR.PORT.CAL.PORT.1.2.3.4
! AVERAGING.OFF
! IF.BANDWIDTH: 1KHZ
! SWEEPTYPE:  FREQ.SWEEP(Linear)
! Reference Plane Port Info
! PORT:              PORT1              PORT2             
! DISTANCE:          0  m               0  m              
! TIME:              0  s               0  s              
! PHASE.OFFSET:      0 °                0 °               
! LOSS:              0  dB              0  dB             
! REF.LOSS:          0  dB              0  dB             
! REF.FREQ:          0  Hz              0  Hz             
! Power Info
! POWER:             -10  dBm           -10  dBm          
! EFF.POWER:         -10  dBm           -10  dBm          
! SOURCE.ATTEN:      0  dB              0  dB             
! TEST.ATTEN:        0  dB              0  dB             
# GHZ S RI R 50.0
! FREQ.GHZ         S11RE         S11IM         S21RE         S21IM         S12RE         S12IM         S22RE         S22IM         
!; PortSelection: Port_12
   0.010000000     0.0089581   -0.0055642     0.9894041   -0.0447879     0.9893284   -0.0447760     0.0092686   -0.0053972 
   0.020000000     0.0107309   -0.0144266     0.9851645   -0.0905191     0.9854130   -0.0903972     0.0111744   -0.0141077 
   0.030000000     0.0090698   -0.0239251     0.9776949   -0.1350695     0.9780647   -0.1354436     0.0096739   -0.0236470 
   0.040000000     0.0063545   -0.0310295     0.9697967   -0.1792498     0.9702972   -0.1796730     0.0069349   -0.0309204 
   0.050000000     0.0052358   -0.0380493     0.9589192   -0.2226266     0.9592099   -0.2232672     0.0059054   -0.0376684 
   0.060000000     0.0030883   -0.0470742     0.9467977   -0.2651029     0.9466825   -0.2652057     0.0041528   -0.0467414 
   0.070000000    -0.0014900   -0.0561502     0.9322182   -0.3073666     0.9325336   -0.3075359     0.0000515   -0.0556727 
   0.080000000    -0.0065970   -0.0631236     0.9165939   -0.3479554     0.9173780   -0.3483022    -0.0050660   -0.0629204 
   0.090000000    -0.0112000   -0.0694687     0.8978408   -0.3880641     0.8987429   -0.3883597    -0.0095066   -0.0690801 
   0.100000000    -0.0160037   -0.0765924     0.8786255   -0.4265614     0.8786184   -0.4270483    -0.0142026   -0.0763561 
   0.110000000    -0.0232001   -0.0840704     0.8578479   -0.4658384     0.8577867   -0.4654425    -0.0210227   -0.0839770 
   0.120000000    -0.0315808   -0.0892308     0.8344322   -0.5025143     0.8345484   -0.5020480    -0.0293548   -0.0895013 
   0.130000000    -0.0388009   -0.0931721     0.8096362   -0.5378711     0.8098568   -0.5378513    -0.0357141   -0.0936201 
   0.140000000    -0.0454614   -0.0979955     0.7847822   -0.5723869     0.7844685   -0.5716342    -0.0417463   -0.0994281 
   0.150000000    -0.0544410   -0.1031191     0.7565855   -0.6054747     0.7561210   -0.6056136    -0.0505706   -0.1051319 
   0.160000000    -0.0643260   -0.1056472     0.7270157   -0.6373650     0.7283123   -0.6360439    -0.0601139   -0.1079700 
   0.170000000    -0.0736113   -0.1063950     0.6979384   -0.6662905     0.6984082   -0.6656591    -0.0685784   -0.1094514 
   0.180000000    -0.0818015   -0.1068974     0.6660526   -0.6951771     0.6676068   -0.6949858    -0.0770948   -0.1110722 
   0.190000000    -0.0904959   -0.1088241     0.6344815   -0.7228575     0.6344650   -0.7225480    -0.0861424   -0.1130192 
   0.200000000    -0.1015279   -0.1093194     0.6004344   -0.7491862     0.6018278   -0.7486078    -0.0961632   -0.1143877 
   0.210000000    -0.1113768   -0.1068653     0.5680514   -0.7722716     0.5668724   -0.7723169    -0.1060245   -0.1139268 
   0.220000000    -0.1186948   -0.1047765     0.5333161   -0.7945649     0.5317881   -0.7940213    -0.1147619   -0.1125329 
   0.230000000    -0.1277139   -0.1044110     0.4968069   -0.8151861     0.4945054   -0.8155811    -0.1232430   -0.1118830 
   0.240000000    -0.1389536   -0.1011099     0.4595194   -0.8333037     0.4590987   -0.8345029    -0.1327540   -0.1097804 
   0.250000000    -0.1475038   -0.0946161     0.4227837   -0.8519509     0.4223147   -0.8499488    -0.1415804   -0.1055434 
   0.260000000    -0.1536657   -0.0900758     0.3851952   -0.8675474     0.3848489   -0.8665493    -0.1495237   -0.1017202 
   0.270000000    -0.1621232   -0.0871992     0.3469610   -0.8815442     0.3451196   -0.8824645    -0.1574787   -0.0980787 
   0.280000000    -0.1710778   -0.0810969     0.3079548   -0.8931709     0.3076172   -0.8938898    -0.1654996   -0.0937363 
   0.290000000    -0.1782121   -0.0728428     0.2694535   -0.9049306     0.2678027   -0.9047323    -0.1732543   -0.0879296 
   0.300000000    -0.1833448   -0.0660121     0.2310654   -0.9141537     0.2286280   -0.9132394    -0.1802683   -0.0819491 
   0.310000000    -0.1893420   -0.0593854     0.1911313   -0.9218661     0.1912237   -0.9204195    -0.1862760   -0.0747836 
   0.320000000    -0.1961210   -0.0515321     0.1505506   -0.9272230     0.1501897   -0.9268302    -0.1923064   -0.0680168 
   0.330000000    -0.2008536   -0.0416180     0.1121617   -0.9316799     0.1113370   -0.9297036    -0.1978346   -0.0607940 
   0.340000000    -0.2024651   -0.0333633     0.0720340   -0.9333981     0.0721078   -0.9343724    -0.2021352   -0.0530645 
   0.350000000    -0.2061897   -0.0260427     0.0325991   -0.9349217     0.0317209   -0.9346109    -0.2063433   -0.0456213 
   0.360000000    -0.2108525   -0.0163748    -0.0071157   -0.9340135    -0.0070666   -0.9343070    -0.2098911   -0.0378210 
   0.370000000    -0.2121427   -0.0052078    -0.0448087   -0.9307027    -0.0470423   -0.9310387    -0.2130238   -0.0288191 
   0.380000000    -0.2124528    0.0034867    -0.0856636   -0.9276248    -0.0848962   -0.9275662    -0.2152477   -0.0199259 
   0.390000000    -0.2137279    0.0130999    -0.1234833   -0.9227359    -0.1220740   -0.9222400    -0.2169742   -0.0102661 
   0.400000000    -0.2127557    0.0232747    -0.1621015   -0.9147764    -0.1613453   -0.9159294    -0.2165551   -0.0010031 
   0.410000000    -0.2108280    0.0310090    -0.2000169   -0.9071026    -0.2004538   -0.9074278    -0.2161383    0.0049374 
   0.420000000    -0.2099673    0.0403388    -0.2381175   -0.8963834    -0.2378685   -0.8960737    -0.2175075    0.0144360 
   0.430000000    -0.2076503    0.0509727    -0.2748318   -0.8849568    -0.2745911   -0.8845617    -0.2164914    0.0241438 
   0.440000000    -0.2039455    0.0597558    -0.3114666   -0.8727986    -0.3113981   -0.8730505    -0.2136623    0.0328052 
   0.450000000    -0.2015663    0.0679929    -0.3478068   -0.8578333    -0.3484147   -0.8572408    -0.2122960    0.0399972 
   0.460000000    -0.1978079    0.0777474    -0.3838633   -0.8420400    -0.3835366   -0.8416576    -0.2102615    0.0492189 
   0.470000000    -0.1905961    0.0864293    -0.4188383   -0.8253769    -0.4161349   -0.8255339    -0.2051474    0.0578045 
   0.480000000    -0.1836208    0.0915247    -0.4528716   -0.8056421    -0.4511743   -0.8086665    -0.2004218    0.0638878 
   0.490000000    -0.1793596    0.0976304    -0.4844717   -0.7872047    -0.4868319   -0.7862712    -0.1962341    0.0698869 
   0.500000000    -0.1738473    0.1059786    -0.5177288   -0.7651863    -0.5192589   -0.7641010    -0.1925162    0.0763416 
   0.510000000    -0.1660202    0.1143831    -0.5503228   -0.7425652    -0.5478771   -0.7428210    -0.1883752    0.0840755 
   0.520000000    -0.1565516    0.1188593    -0.5789695   -0.7197747    -0.5802699   -0.7200944    -0.1811531    0.0913382 
   0.530000000    -0.1501529    0.1218928    -0.6092787   -0.6946329    -0.6093862   -0.6943644    -0.1727812    0.0941539 
   0.540000000    -0.1430421    0.1259957    -0.6381131   -0.6680568    -0.6389379   -0.6677765    -0.1675946    0.0964790 
   0.550000000    -0.1317773    0.1311822    -0.6654302   -0.6399382    -0.6667710   -0.6413871    -0.1620227    0.1014781 
   0.560000000    -0.1212771    0.1308239    -0.6911705   -0.6128266    -0.6937715   -0.6126323    -0.1528961    0.1054423 
   0.570000000    -0.1163165    0.1323188    -0.7176589   -0.5827966    -0.7184109   -0.5830391    -0.1453304    0.1075899 
   0.580000000    -0.1078166    0.1396183    -0.7406507   -0.5525888    -0.7416685   -0.5521150    -0.1395846    0.1106167 
   0.590000000    -0.0932363    0.1405491    -0.7651575   -0.5209196    -0.7636530   -0.5192631    -0.1321379    0.1149586 
   0.600000000    -0.0847094    0.1354938    -0.7861542   -0.4868863    -0.7859088   -0.4884481    -0.1220313    0.1163627 
   0.610000000    -0.0791785    0.1341182    -0.8064240   -0.4553672    -0.8073569   -0.4536284    -0.1130546    0.1129308 
   0.620000000    -0.0691209    0.1355836    -0.8247169   -0.4196158    -0.8252134   -0.4190257    -0.1078409    0.1093228 
   0.630000000    -0.0574245    0.1321175    -0.8424321   -0.3828462    -0.8434248   -0.3855129    -0.1041775    0.1111578 
   0.640000000    -0.0501192    0.1271499    -0.8578913   -0.3476780    -0.8603106   -0.3468739    -0.0931156    0.1137134 
   0.650000000    -0.0444812    0.1251662    -0.8721509   -0.3119026    -0.8732179   -0.3111474    -0.0835505    0.1090481 
   0.660000000    -0.0343740    0.1243984    -0.8859804   -0.2733752    -0.8854257   -0.2723341    -0.0792945    0.1046734 
   0.670000000    -0.0237142    0.1168675    -0.8965799   -0.2357256    -0.8975586   -0.2357101    -0.0742235    0.1039407 
   0.680000000    -0.0191407    0.1064882    -0.9059803   -0.1969217    -0.9072195   -0.1964004    -0.0665347    0.1013564 
   0.690000000    -0.0169204    0.1015048    -0.9142645   -0.1600331    -0.9174606   -0.1577048    -0.0594216    0.0931071 
   0.700000000    -0.0077685    0.0990637    -0.9217049   -0.1186623    -0.9212871   -0.1183218    -0.0573876    0.0862442 
   0.710000000     0.0019399    0.0903495    -0.9250039   -0.0784684    -0.9262167   -0.0796904    -0.0546290    0.0843073 
   0.720000000     0.0039389    0.0807307    -0.9290153   -0.0383778    -0.9278593   -0.0387404    -0.0475849    0.0822073 
   0.730000000     0.0068655    0.0758805    -0.9297534    0.0011953    -0.9310476    0.0020557    -0.0393851    0.0757702 
   0.740000000     0.0133505    0.0680346    -0.9285026    0.0429097    -0.9283405    0.0443358    -0.0370888    0.0658922 
   0.750000000     0.0158270    0.0552338    -0.9253855    0.0823394    -0.9259256    0.0821198    -0.0398553    0.0578760 
   0.760000000     0.0147370    0.0460945    -0.9221871    0.1230638    -0.9231365    0.1219135    -0.0392626    0.0557965 
   0.770000000     0.0164816    0.0397360    -0.9142941    0.1631517    -0.9146357    0.1627942    -0.0325244    0.0481447 
   0.780000000     0.0188773    0.0308296    -0.9088126    0.2030240    -0.9077734    0.2010004    -0.0325960    0.0382456 
   0.790000000     0.0187167    0.0212062    -0.8976498    0.2419089    -0.8975530    0.2414430    -0.0354569    0.0334978 
   0.800000000     0.0163659    0.0132026    -0.8871812    0.2784331    -0.8860080    0.2807330    -0.0323198    0.0301019 
   0.810000000     0.0152405    0.0032132    -0.8731791    0.3192087    -0.8719039    0.3197018    -0.0314676    0.0190366 
   0.820000000     0.0127838   -0.0085918    -0.8571602    0.3549209    -0.8563144    0.3561105    -0.0357808    0.0087550 
   0.830000000     0.0062114   -0.0161617    -0.8442910    0.3936781    -0.8422669    0.3948721    -0.0445541    0.0042731 
   0.840000000     0.0031687   -0.0205648    -0.8227877    0.4312405    -0.8226867    0.4306089    -0.0450805    0.0033293 
   0.850000000     0.0019396   -0.0277680    -0.8029782    0.4628617    -0.8031071    0.4641276    -0.0431536   -0.0032844 
   0.860000000    -0.0041046   -0.0403557    -0.7821385    0.5000128    -0.7816537    0.5011691    -0.0471024   -0.0146794 
   0.870000000    -0.0153985   -0.0455686    -0.7574695    0.5334824    -0.7573439    0.5325204    -0.0568022   -0.0191538 
   0.880000000    -0.0204565   -0.0477456    -0.7346053    0.5646481    -0.7342905    0.5650011    -0.0617378   -0.0199752 
   0.890000000    -0.0234420   -0.0578931    -0.7092777    0.5950717    -0.7078308    0.5955022    -0.0640182   -0.0249398 
   0.900000000    -0.0351669   -0.0663853    -0.6812907    0.6242279    -0.6804648    0.6242822    -0.0718791   -0.0333636 
   0.910000000    -0.0466668   -0.0653328    -0.6535020    0.6541783    -0.6548665    0.6546548    -0.0827525   -0.0344542 
   0.920000000    -0.0503974   -0.0654171    -0.6201792    0.6821420    -0.6218560    0.6813194    -0.0870509   -0.0335995 
   0.930000000    -0.0551648   -0.0735220    -0.5924324    0.7057989    -0.5922346    0.7070367    -0.0880426   -0.0359289 
   0.940000000    -0.0700992   -0.0798548    -0.5589538    0.7324221    -0.5602725    0.7327494    -0.0942881   -0.0432979 
   0.950000000    -0.0819229   -0.0768221    -0.5268063    0.7535645    -0.5260592    0.7525347    -0.1074081   -0.0454628 
   0.960000000    -0.0880681   -0.0753802    -0.4934453    0.7765161    -0.4946276    0.7737556    -0.1185235   -0.0398953 
   0.970000000    -0.0951374   -0.0784162    -0.4597914    0.7958992    -0.4581176    0.7950887    -0.1211956   -0.0360523 
   0.980000000    -0.1081922   -0.0792520    -0.4219405    0.8134603    -0.4241444    0.8123277    -0.1251635   -0.0396747 
   0.990000000    -0.1183175   -0.0734750    -0.3855185    0.8287097    -0.3902938    0.8297421    -0.1359608   -0.0421806 
   1.000000000    -0.1230547   -0.0702696    -0.3517236    0.8426923    -0.3506534    0.8432759    -0.1444946   -0.0355953 
   1.010000000    -0.1316553   -0.0733873    -0.3149371    0.8558794    -0.3135116    0.8573164    -0.1467252   -0.0324396 
   1.020000000    -0.1476216   -0.0695113    -0.2773663    0.8691991    -0.2751610    0.8667333    -0.1538737   -0.0337797 
   1.030000000    -0.1543340   -0.0587966    -0.2368941    0.8785212    -0.2394269    0.8758436    -0.1667285   -0.0286508 
   1.040000000    -0.1576707   -0.0538602    -0.2009222    0.8859212    -0.2028870    0.8866786    -0.1735780   -0.0180014 
   1.050000000    -0.1663025   -0.0532137    -0.1620543    0.8935103    -0.1627643    0.8927108    -0.1746085   -0.0134051 
   1.060000000    -0.1780246   -0.0446751    -0.1226292    0.8964837    -0.1269248    0.8979899    -0.1774850   -0.0132496 
   1.070000000    -0.1817176   -0.0338916    -0.0850731    0.9000369    -0.0855983    0.9011973    -0.1875487   -0.0114815 
   1.080000000    -0.1855325   -0.0304662    -0.0471924    0.9027399    -0.0459846    0.9008989    -0.1964618   -0.0003694 
   1.090000000    -0.1953898   -0.0247022    -0.0098997    0.9017087    -0.0067429    0.9007088    -0.1959226    0.0111897 
   1.100000000    -0.2027806   -0.0118688     0.0290527    0.9026603     0.0276749    0.8983502    -0.1958374    0.0148469 
   1.110000000    -0.2025442   -0.0004262     0.0699943    0.8969751     0.0646345    0.8986302    -0.2029561    0.0185406 
   1.120000000    -0.2040239    0.0050397     0.1050094    0.8901330     0.1036350    0.8940288    -0.2102329    0.0295049 
   1.130000000    -0.2104050    0.0111918     0.1410876    0.8852836     0.1423993    0.8854213    -0.2084342    0.0416975 
   1.140000000    -0.2156681    0.0244016     0.1785803    0.8773980     0.1775928    0.8782373    -0.2056438    0.0443354 
   1.150000000    -0.2133988    0.0373639     0.2152338    0.8690105     0.2151515    0.8690993    -0.2104790    0.0475984 
   1.160000000    -0.2132924    0.0429620     0.2524674    0.8577144     0.2483160    0.8582945    -0.2161435    0.0598080 
   1.170000000    -0.2168319    0.0528003     0.2866948    0.8455384     0.2851048    0.8448669    -0.2131235    0.0732610 
   1.180000000    -0.2155164    0.0656574     0.3225895    0.8320820     0.3166378    0.8331917    -0.2079282    0.0798945 
   1.190000000    -0.2106483    0.0741457     0.3547508    0.8158985     0.3540351    0.8209499    -0.2069924    0.0818916 
   1.200000000    -0.2106364    0.0800551     0.3888093    0.8001073     0.3885408    0.8014759    -0.2105060    0.0907640 
   1.210000000    -0.2109629    0.0925495     0.4218735    0.7818316     0.4206707    0.7827443    -0.2068965    0.1037561 
   1.220000000    -0.2036098    0.1042962     0.4541498    0.7648126     0.4504452    0.7643745    -0.1995532    0.1102746 
   1.230000000    -0.1988752    0.1093455     0.4865310    0.7442898     0.4823284    0.7464266    -0.1977620    0.1140975 
   1.240000000    -0.1980193    0.1184811     0.5145302    0.7225137     0.5142004    0.7234642    -0.1979598    0.1233602 
   1.250000000    -0.1914294    0.1305562     0.5423940    0.7002611     0.5424279    0.7007750    -0.1914431    0.1337183 
   1.260000000    -0.1814144    0.1358417     0.5714145    0.6788651     0.5704162    0.6792224    -0.1826577    0.1370014 
   1.270000000    -0.1770830    0.1382675     0.5987917    0.6522827     0.5991035    0.6549686    -0.1793372    0.1389896 
   1.280000000    -0.1745954    0.1480231     0.6273176    0.6259723     0.6249655    0.6271046    -0.1772180    0.1470077 
   1.290000000    -0.1636954    0.1597199     0.6500950    0.5988816     0.6498645    0.6009533    -0.1689361    0.1570821 
   1.300000000    -0.1503123    0.1629863     0.6745400    0.5733078     0.6728726    0.5739625    -0.1577590    0.1609622 
   1.310000000    -0.1456498    0.1620039     0.6994209    0.5437256     0.6987491    0.5485114    -0.1515440    0.1604578 
   1.320000000    -0.1433722    0.1700098     0.7211937    0.5124775     0.7211226    0.5158495    -0.1510143    0.1641670 
   1.330000000    -0.1307933    0.1796219     0.7402998    0.4822750     0.7407908    0.4855248    -0.1444039    0.1729927 
   1.340000000    -0.1150332    0.1784377     0.7588378    0.4537390     0.7599955    0.4543296    -0.1304100    0.1761322 
   1.350000000    -0.1099481    0.1737036     0.7787251    0.4217141     0.7791237    0.4232219    -0.1206845    0.1724624 
   1.360000000    -0.1062157    0.1810904     0.7961345    0.3881055     0.7965130    0.3881467    -0.1180799    0.1727953 
   1.370000000    -0.0904890    0.1879983     0.8113033    0.3535025     0.8111728    0.3578479    -0.1117851    0.1796176 
   1.380000000    -0.0764511    0.1830694     0.8243182    0.3195387     0.8266662    0.3209100    -0.0993462    0.1824424 
   1.390000000    -0.0733301    0.1780523     0.8397141    0.2858949     0.8395376    0.2872814    -0.0909291    0.1772571 
   1.400000000    -0.0679742    0.1831197     0.8509897    0.2499323     0.8521731    0.2520004    -0.0873302    0.1745648 
   1.410000000    -0.0517950    0.1833869     0.8614221    0.2145546     0.8607613    0.2176057    -0.0808280    0.1755164 
   1.420000000    -0.0410466    0.1740145     0.8701284    0.1775179     0.8719177    0.1790956    -0.0692796    0.1758446 
   1.430000000    -0.0367994    0.1696254     0.8777437    0.1420559     0.8771914    0.1426353    -0.0591722    0.1698006 
   1.440000000    -0.0285735    0.1713439     0.8836343    0.1043845     0.8836665    0.1057433    -0.0557015    0.1659415 
   1.450000000    -0.0150985    0.1668686     0.8861573    0.0654810     0.8880583    0.0678430    -0.0516741    0.1667956 
   1.460000000    -0.0091490    0.1574419     0.8891523    0.0294252     0.8919412    0.0300920    -0.0420821    0.1653778 
   1.470000000    -0.0065591    0.1532054     0.8901871   -0.0074140     0.8911476   -0.0086427    -0.0339856    0.1555779 
   1.480000000     0.0023255    0.1509354     0.8912092   -0.0477836     0.8907736   -0.0448407    -0.0331780    0.1482495 
   1.490000000     0.0139979    0.1404722     0.8870473   -0.0849950     0.8890231   -0.0826550    -0.0289991    0.1470289 
   1.500000000     0.0161661    0.1283131     0.8842489   -0.1236240     0.8870367   -0.1218570    -0.0194005    0.1439566 
   1.510000000     0.0169278    0.1254576     0.8778922   -0.1592787     0.8786250   -0.1615884    -0.0124241    0.1337385 
   1.520000000     0.0256694    0.1222736     0.8733386   -0.1968150     0.8720134   -0.1961809    -0.0141883    0.1253931 
