! 2/21/2025 6:59:08 AM
! Z:\OQC\AD5\613\LOT-141-0825\SINGLE\1-L7-4.S2P
! CHANNEL.1
! TR.MEASUREMENT
! CORRECTED.DATA
! RF.CORRECTION: FULL.FOUR.PORT.CAL.PORT.1.2.3.4
! AVERAGING.OFF
! IF.BANDWIDTH: 1KHZ
! SWEEPTYPE:  FREQ.SWEEP(Linear)
! Reference Plane Port Info
! PORT:              PORT1              PORT2             
! DISTANCE:          0  m               0  m              
! TIME:              0  s               0  s              
! PHASE.OFFSET:      0 °                0 °               
! LOSS:              0  dB              0  dB             
! REF.LOSS:          0  dB              0  dB             
! REF.FREQ:          0  Hz              0  Hz             
! Power Info
! POWER:             -10  dBm           -10  dBm          
! EFF.POWER:         -10  dBm           -10  dBm          
! SOURCE.ATTEN:      0  dB              0  dB             
! TEST.ATTEN:        0  dB              0  dB             
# GHZ S RI R 50.0
! FREQ.GHZ         S11RE         S11IM         S21RE         S21IM         S12RE         S12IM         S22RE         S22IM         
!; PortSelection: Port_12
   0.010000000     0.0069208   -0.0074741     0.9916127   -0.0463412     0.9906439   -0.0463093     0.0071650   -0.0073364 
   0.020000000     0.0086300   -0.0186398     0.9868581   -0.0931841     0.9864643   -0.0934348     0.0089508   -0.0183210 
   0.030000000     0.0065482   -0.0303973     0.9780973   -0.1390684     0.9788547   -0.1391620     0.0069583   -0.0299976 
   0.040000000     0.0031840   -0.0396260     0.9700923   -0.1845796     0.9702592   -0.1841181     0.0035120   -0.0394088 
   0.050000000     0.0012676   -0.0489794     0.9577604   -0.2279435     0.9583267   -0.2286996     0.0014800   -0.0484490 
   0.060000000    -0.0019081   -0.0598572     0.9459879   -0.2720106     0.9456754   -0.2720107    -0.0014427   -0.0593546 
   0.070000000    -0.0077457   -0.0708640     0.9299466   -0.3150015     0.9302502   -0.3147822    -0.0070840   -0.0700933 
   0.080000000    -0.0143756   -0.0796107     0.9133901   -0.3558839     0.9132440   -0.3562640    -0.0138542   -0.0789984 
   0.090000000    -0.0205942   -0.0877103     0.8933928   -0.3962182     0.8950210   -0.3971882    -0.0201010   -0.0867489 
   0.100000000    -0.0271752   -0.0963072     0.8734453   -0.4364338     0.8731323   -0.4357315    -0.0266707   -0.0952661 
   0.110000000    -0.0362482   -0.1051441     0.8505908   -0.4747095     0.8515745   -0.4745845    -0.0356378   -0.1040778 
   0.120000000    -0.0467137   -0.1111673     0.8275991   -0.5116549     0.8276740   -0.5115915    -0.0463169   -0.1102866 
   0.130000000    -0.0557969   -0.1163460     0.8007315   -0.5471494     0.8011633   -0.5474724    -0.0548047   -0.1152247 
   0.140000000    -0.0646044   -0.1218494     0.7746201   -0.5810083     0.7751220   -0.5805924    -0.0636119   -0.1211827 
   0.150000000    -0.0757939   -0.1273830     0.7439227   -0.6142499     0.7453392   -0.6141634    -0.0747789   -0.1270053 
   0.160000000    -0.0879659   -0.1301285     0.7148617   -0.6452487     0.7151970   -0.6451098    -0.0866645   -0.1296507 
   0.170000000    -0.0995647   -0.1311471     0.6857258   -0.6740710     0.6851960   -0.6739956    -0.0975565   -0.1311305 
   0.180000000    -0.1096609   -0.1314999     0.6520432   -0.7027347     0.6530856   -0.7029054    -0.1084875   -0.1319689 
   0.190000000    -0.1205542   -0.1332419     0.6191029   -0.7301625     0.6190787   -0.7300909    -0.1196984   -0.1332752 
   0.200000000    -0.1336922   -0.1330995     0.5851360   -0.7542753     0.5857419   -0.7548044    -0.1318144   -0.1336249 
   0.210000000    -0.1457163   -0.1299831     0.5505946   -0.7774695     0.5504522   -0.7771073    -0.1440764   -0.1315363 
   0.220000000    -0.1548396   -0.1272054     0.5138341   -0.7988244     0.5137677   -0.7986607    -0.1544272   -0.1290986 
   0.230000000    -0.1658284   -0.1257785     0.4769683   -0.8178774     0.4770041   -0.8194686    -0.1648804   -0.1268782 
   0.240000000    -0.1784143   -0.1214548     0.4400432   -0.8363920     0.4393923   -0.8354784    -0.1762752   -0.1225207 
   0.250000000    -0.1887704   -0.1136674     0.4026299   -0.8528425     0.4029489   -0.8509036    -0.1866515   -0.1166794 
   0.260000000    -0.1965376   -0.1079868     0.3649300   -0.8675913     0.3646371   -0.8665408    -0.1957113   -0.1106530 
   0.270000000    -0.2060016   -0.1033326     0.3269136   -0.8794956     0.3248746   -0.8809525    -0.2046434   -0.1049703 
   0.280000000    -0.2163291   -0.0958584     0.2880594   -0.8906667     0.2863989   -0.8906945    -0.2141475   -0.0981282 
   0.290000000    -0.2243466   -0.0861473     0.2490141   -0.8999337     0.2481970   -0.8997152    -0.2222904   -0.0902402 
   0.300000000    -0.2305366   -0.0778632     0.2103512   -0.9089743     0.2089448   -0.9078723    -0.2304739   -0.0816518 
   0.310000000    -0.2374998   -0.0697186     0.1703303   -0.9144082     0.1705408   -0.9141482    -0.2368551   -0.0721502 
   0.320000000    -0.2447693   -0.0599723     0.1298539   -0.9199914     0.1295397   -0.9193616    -0.2427830   -0.0626761 
   0.330000000    -0.2499819   -0.0483445     0.0908790   -0.9225913     0.0917528   -0.9210624    -0.2484034   -0.0534343 
   0.340000000    -0.2523214   -0.0381098     0.0521567   -0.9241331     0.0530702   -0.9241095    -0.2524989   -0.0430092 
   0.350000000    -0.2556868   -0.0291615     0.0144648   -0.9244874     0.0123951   -0.9237815    -0.2561615   -0.0333457 
   0.360000000    -0.2608944   -0.0176047    -0.0272392   -0.9217483    -0.0263934   -0.9228005    -0.2595330   -0.0225685 
   0.370000000    -0.2621168   -0.0050254    -0.0634965   -0.9184468    -0.0654103   -0.9184589    -0.2618032   -0.0115868 
   0.380000000    -0.2623667    0.0054194    -0.1020171   -0.9143485    -0.1030936   -0.9141707    -0.2633690   -0.0004693 
   0.390000000    -0.2626947    0.0164246    -0.1421280   -0.9087380    -0.1405423   -0.9087980    -0.2638165    0.0113102 
   0.400000000    -0.2614237    0.0281269    -0.1798492   -0.9008810    -0.1788844   -0.9009280    -0.2619494    0.0224357 
   0.410000000    -0.2595357    0.0379808    -0.2169810   -0.8914922    -0.2167976   -0.8915736    -0.2604770    0.0315004 
   0.420000000    -0.2581140    0.0489766    -0.2541824   -0.8811823    -0.2535158   -0.8798487    -0.2603385    0.0426818 
   0.430000000    -0.2546616    0.0608976    -0.2892491   -0.8686138    -0.2893054   -0.8680779    -0.2573099    0.0540651 
   0.440000000    -0.2503040    0.0707905    -0.3263000   -0.8547306    -0.3255816   -0.8562431    -0.2527988    0.0644322 
   0.450000000    -0.2470930    0.0802779    -0.3610528   -0.8407193    -0.3615410   -0.8397027    -0.2493281    0.0734580 
   0.460000000    -0.2421055    0.0912831    -0.3968438   -0.8240914    -0.3964412   -0.8237136    -0.2449240    0.0836477 
   0.470000000    -0.2344037    0.1002549    -0.4304466   -0.8068777    -0.4292889   -0.8077322    -0.2378209    0.0933445 
   0.480000000    -0.2261841    0.1073622    -0.4657231   -0.7870475    -0.4637639   -0.7888008    -0.2311872    0.1007361 
   0.490000000    -0.2203765    0.1146447    -0.4968344   -0.7676539    -0.4984031   -0.7671185    -0.2243696    0.1081525 
   0.500000000    -0.2137237    0.1233307    -0.5284979   -0.7463486    -0.5281370   -0.7457072    -0.2181021    0.1145183 
   0.510000000    -0.2045462    0.1325253    -0.5593114   -0.7236103    -0.5585311   -0.7234389    -0.2112955    0.1235230 
   0.520000000    -0.1938847    0.1376683    -0.5889227   -0.6995496    -0.5898565   -0.7005153    -0.2015024    0.1310150 
   0.530000000    -0.1858767    0.1409342    -0.6198696   -0.6735092    -0.6185632   -0.6756850    -0.1909670    0.1341368 
   0.540000000    -0.1776714    0.1460617    -0.6478883   -0.6479835    -0.6484216   -0.6481457    -0.1831325    0.1366749 
   0.550000000    -0.1645763    0.1508235    -0.6739562   -0.6202879    -0.6749100   -0.6218190    -0.1745988    0.1411376 
   0.560000000    -0.1524949    0.1505129    -0.7005208   -0.5917860    -0.7009401   -0.5923001    -0.1627104    0.1448749 
   0.570000000    -0.1465255    0.1525424    -0.7261689   -0.5610412    -0.7268720   -0.5622076    -0.1524008    0.1462618 
   0.580000000    -0.1365807    0.1594142    -0.7479286   -0.5320807    -0.7480322   -0.5303876    -0.1445287    0.1486533 
   0.590000000    -0.1204628    0.1595883    -0.7735838   -0.4979781    -0.7716629   -0.4982099    -0.1339077    0.1521135 
   0.600000000    -0.1109892    0.1544323    -0.7937273   -0.4647261    -0.7932683   -0.4659478    -0.1213246    0.1522466 
   0.610000000    -0.1042721    0.1529724    -0.8138479   -0.4322412    -0.8152394   -0.4295451    -0.1106442    0.1475422 
   0.620000000    -0.0921921    0.1539860    -0.8321328   -0.3946428    -0.8318085   -0.3943794    -0.1035143    0.1428121 
   0.630000000    -0.0795453    0.1490689    -0.8487273   -0.3592202    -0.8495097   -0.3603152    -0.0972476    0.1422026 
   0.640000000    -0.0710127    0.1433672    -0.8643063   -0.3226047    -0.8661910   -0.3227021    -0.0841349    0.1428220 
   0.650000000    -0.0644264    0.1406100    -0.8779393   -0.2862846    -0.8788672   -0.2851199    -0.0732020    0.1358828 
   0.660000000    -0.0534180    0.1388385    -0.8902540   -0.2472769    -0.8907536   -0.2470233    -0.0672464    0.1297478 
   0.670000000    -0.0421673    0.1297880    -0.9027576   -0.2076323    -0.9016386   -0.2082185    -0.0604705    0.1264586 
   0.680000000    -0.0366831    0.1190553    -0.9091018   -0.1690272    -0.9103202   -0.1689412    -0.0504835    0.1215672 
   0.690000000    -0.0347078    0.1127305    -0.9185358   -0.1297502    -0.9202591   -0.1288828    -0.0435949    0.1106327 
   0.700000000    -0.0240592    0.1082213    -0.9238590   -0.0885821    -0.9234631   -0.0884504    -0.0406550    0.1010085 
   0.710000000    -0.0145219    0.0979262    -0.9262921   -0.0490821    -0.9273829   -0.0473672    -0.0375019    0.0967833 
   0.720000000    -0.0127995    0.0871031    -0.9288052   -0.0048348    -0.9282798   -0.0074218    -0.0298023    0.0912491 
   0.730000000    -0.0094984    0.0812074    -0.9288535    0.0336418    -0.9289141    0.0346427    -0.0217859    0.0822003 
   0.740000000    -0.0029352    0.0714931    -0.9267488    0.0741120    -0.9262162    0.0763630    -0.0192721    0.0686379 
   0.750000000    -0.0013728    0.0574345    -0.9217045    0.1166252    -0.9223680    0.1159417    -0.0228733    0.0587191 
   0.760000000    -0.0027446    0.0475579    -0.9167082    0.1571908    -0.9183335    0.1589673    -0.0222132    0.0542596 
   0.770000000    -0.0016412    0.0397499    -0.9086674    0.1971312    -0.9092497    0.1993012    -0.0168149    0.0436761 
   0.780000000     0.0005457    0.0300863    -0.9012182    0.2381895    -0.9001467    0.2374092    -0.0184055    0.0314985 
   0.790000000    -0.0014454    0.0194391    -0.8887663    0.2775239    -0.8877487    0.2767452    -0.0221889    0.0243367 
   0.800000000    -0.0041525    0.0095430    -0.8754439    0.3158728    -0.8742129    0.3180727    -0.0203629    0.0182055 
   0.810000000    -0.0065992   -0.0016067    -0.8584543    0.3565703    -0.8592276    0.3581830    -0.0215270    0.0054194 
   0.820000000    -0.0106732   -0.0141949    -0.8414199    0.3926089    -0.8404939    0.3930486    -0.0282273   -0.0076450 
   0.830000000    -0.0184275   -0.0218873    -0.8261268    0.4306295    -0.8234353    0.4324183    -0.0386112   -0.0130658 
   0.840000000    -0.0228241   -0.0266232    -0.8014959    0.4690011    -0.8029131    0.4672019    -0.0411581   -0.0158326 
   0.850000000    -0.0252894   -0.0349517    -0.7799755    0.5011484    -0.7808974    0.5017796    -0.0414722   -0.0243555 
   0.860000000    -0.0334047   -0.0474258    -0.7566470    0.5367377    -0.7563038    0.5383235    -0.0486858   -0.0368518 
   0.870000000    -0.0457875   -0.0522710    -0.7310269    0.5686826    -0.7306661    0.5688245    -0.0606618   -0.0416755 
   0.880000000    -0.0522683   -0.0546093    -0.7053525    0.6003003    -0.7038147    0.6007438    -0.0681227   -0.0433107 
   0.890000000    -0.0573552   -0.0644108    -0.6778538    0.6303316    -0.6750308    0.6315587    -0.0729612   -0.0489420 
   0.900000000    -0.0705078   -0.0727043    -0.6466091    0.6586944    -0.6463458    0.6567354    -0.0838361   -0.0574995 
   0.910000000    -0.0829577   -0.0708897    -0.6165960    0.6860152    -0.6187955    0.6863163    -0.0972727   -0.0583132 
   0.920000000    -0.0880484   -0.0708411    -0.5817040    0.7119336    -0.5835074    0.7119910    -0.1038065   -0.0569881 
   0.930000000    -0.0949310   -0.0780904    -0.5517659    0.7352377    -0.5512562    0.7367070    -0.1075757   -0.0596500 
   0.940000000    -0.1116336   -0.0825207    -0.5174210    0.7596155    -0.5160137    0.7601267    -0.1169461   -0.0663339 
   0.950000000    -0.1239388   -0.0778136    -0.4819555    0.7794150    -0.4813744    0.7774279    -0.1323792   -0.0662042 
   0.960000000    -0.1308314   -0.0758464    -0.4483762    0.7991800    -0.4484970    0.7972499    -0.1452091   -0.0593816 
   0.970000000    -0.1393628   -0.0775703    -0.4122811    0.8168776    -0.4100475    0.8158505    -0.1493031   -0.0555929 
   0.980000000    -0.1530164   -0.0765361    -0.3723269    0.8322452    -0.3761845    0.8302014    -0.1554213   -0.0572289 
   0.990000000    -0.1638859   -0.0690360    -0.3357469    0.8445067    -0.3386265    0.8449117    -0.1694038   -0.0575435 
   1.000000000    -0.1688915   -0.0646832    -0.3005342    0.8564498    -0.2997725    0.8562002    -0.1791265   -0.0489604 
   1.010000000    -0.1786556   -0.0663377    -0.2627443    0.8674196    -0.2623750    0.8682380    -0.1827986   -0.0445172 
   1.020000000    -0.1945399   -0.0599516    -0.2234196    0.8777345    -0.2230306    0.8743561    -0.1917805   -0.0434533 
   1.030000000    -0.2010794   -0.0478240    -0.1843450    0.8841085    -0.1866211    0.8820018    -0.2058017   -0.0354255 
   1.040000000    -0.2042153   -0.0419711    -0.1475689    0.8896933    -0.1482898    0.8904596    -0.2121830   -0.0224801 
   1.050000000    -0.2125709   -0.0387965    -0.1084184    0.8941277    -0.1087746    0.8932469    -0.2137485   -0.0167858 
   1.060000000    -0.2239294   -0.0282641    -0.0692913    0.8942909    -0.0725841    0.8957792    -0.2183867   -0.0131691 
   1.070000000    -0.2271961   -0.0159041    -0.0311966    0.8952196    -0.0300195    0.8969933    -0.2291203   -0.0085625 
   1.080000000    -0.2305910   -0.0115206     0.0072365    0.8944887     0.0071607    0.8933220    -0.2368786    0.0049696 
   1.090000000    -0.2399731   -0.0033975     0.0444423    0.8922835     0.0458516    0.8903131    -0.2361822    0.0179841 
   1.100000000    -0.2457500    0.0111118     0.0823729    0.8907914     0.0811715    0.8862609    -0.2366302    0.0244354 
   1.110000000    -0.2441972    0.0233114     0.1230081    0.8822078     0.1170502    0.8842842    -0.2432495    0.0304358 
   1.120000000    -0.2448109    0.0299335     0.1564409    0.8733722     0.1567429    0.8770055    -0.2492486    0.0439286 
   1.130000000    -0.2504481    0.0377879     0.1933168    0.8662786     0.1935668    0.8664632    -0.2460587    0.0580162 
   1.140000000    -0.2538971    0.0526771     0.2302630    0.8559948     0.2271973    0.8575444    -0.2426608    0.0624808 
   1.150000000    -0.2498527    0.0662018     0.2656465    0.8454817     0.2644280    0.8456094    -0.2468286    0.0682059 
   1.160000000    -0.2489026    0.0725082     0.3007957    0.8316416     0.2968728    0.8336471    -0.2503971    0.0829509 
   1.170000000    -0.2507355    0.0836279     0.3329835    0.8181538     0.3327991    0.8177158    -0.2452199    0.0973108 
   1.180000000    -0.2473004    0.0966360     0.3689845    0.8027553     0.3628909    0.8044485    -0.2386466    0.1051832 
   1.190000000    -0.2408942    0.1055517     0.4011298    0.7846777     0.3999944    0.7895736    -0.2366444    0.1090626 
   1.200000000    -0.2394872    0.1121187     0.4334343    0.7663473     0.4317418    0.7695169    -0.2376473    0.1197250 
   1.210000000    -0.2375157    0.1252649     0.4634244    0.7482077     0.4625361    0.7481474    -0.2314062    0.1334364 
   1.220000000    -0.2282187    0.1363906     0.4948922    0.7289657     0.4908709    0.7294624    -0.2223008    0.1408455 
   1.230000000    -0.2222897    0.1416167     0.5261183    0.7066837     0.5226509    0.7089337    -0.2183140    0.1455382 
   1.240000000    -0.2194282    0.1507586     0.5532973    0.6822228     0.5523703    0.6848093    -0.2161264    0.1559697 
   1.250000000    -0.2107278    0.1621506     0.5795847    0.6598579     0.5791889    0.6598228    -0.2065457    0.1662357 
   1.260000000    -0.1992525    0.1666979     0.6068347    0.6365481     0.6058667    0.6374736    -0.1959664    0.1692889 
   1.270000000    -0.1934916    0.1689613     0.6331486    0.6090186     0.6337171    0.6117656    -0.1904745    0.1715753 
   1.280000000    -0.1889318    0.1785507     0.6594508    0.5810740     0.6577378    0.5824826    -0.1856923    0.1798802 
   1.290000000    -0.1757161    0.1887093     0.6813799    0.5518022     0.6805184    0.5560274    -0.1744698    0.1893206 
   1.300000000    -0.1612156    0.1904981     0.7036006    0.5264760     0.7020093    0.5276106    -0.1612609    0.1921403 
   1.310000000    -0.1558586    0.1889625     0.7273828    0.4947621     0.7274337    0.4994192    -0.1533213    0.1910881 
   1.320000000    -0.1516990    0.1961521     0.7473513    0.4634810     0.7478797    0.4661376    -0.1503634    0.1945244 
   1.330000000    -0.1370257    0.2039657     0.7643292    0.4321189     0.7658725    0.4352106    -0.1407367    0.2019965 
   1.340000000    -0.1208375    0.2004814     0.7826449    0.4009264     0.7836358    0.4027905    -0.1245166    0.2031101 
   1.350000000    -0.1152496    0.1950419     0.8011227    0.3677665     0.8014709    0.3701778    -0.1137481    0.1976660 
   1.360000000    -0.1096852    0.2015099     0.8166711    0.3331593     0.8175709    0.3335444    -0.1091890    0.1973096 
   1.370000000    -0.0927219    0.2055938     0.8290712    0.2971393     0.8306490    0.3016467    -0.1002437    0.2023441 
   1.380000000    -0.0788577    0.1980489     0.8410825    0.2635051     0.8445854    0.2651901    -0.0862139    0.2024132 
   1.390000000    -0.0756262    0.1923644     0.8538955    0.2290448     0.8552431    0.2292888    -0.0771369    0.1950987 
   1.400000000    -0.0689720    0.1962482     0.8639395    0.1903376     0.8658113    0.1926414    -0.0722995    0.1906409 
   1.410000000    -0.0523587    0.1932932     0.8729847    0.1552312     0.8724969    0.1569503    -0.0641819    0.1894353 
   1.420000000    -0.0423563    0.1817081     0.8788483    0.1175315     0.8816569    0.1176002    -0.0512889    0.1866778 
   1.430000000    -0.0382502    0.1761580     0.8846254    0.0797639     0.8848042    0.0804391    -0.0411934    0.1775527 
   1.440000000    -0.0297979    0.1760102     0.8888904    0.0406937     0.8890662    0.0431867    -0.0373359    0.1716709 
   1.450000000    -0.0171629    0.1686635     0.8884343    0.0021033     0.8908185    0.0045766    -0.0321654    0.1700621 
   1.460000000    -0.0121447    0.1574369     0.8892885   -0.0352278     0.8918249   -0.0344091    -0.0223861    0.1652603 
   1.470000000    -0.0099407    0.1519064     0.8883073   -0.0734643     0.8891395   -0.0741371    -0.0150845    0.1524376 
   1.480000000    -0.0013706    0.1471931     0.8867052   -0.1141823     0.8870183   -0.1119719    -0.0152377    0.1430503 
   1.490000000     0.0084916    0.1340918     0.8797310   -0.1518555     0.8811724   -0.1504710    -0.0107832    0.1393245 
   1.500000000     0.0086729    0.1207073     0.8739257   -0.1904738     0.8767361   -0.1898733    -0.0018046    0.1328977 
   1.510000000     0.0087096    0.1169640     0.8644218   -0.2273404     0.8654327   -0.2294163     0.0032193    0.1196380 
   1.520000000     0.0160449    0.1115509     0.8577211   -0.2653593     0.8558660   -0.2646005    -0.0002430    0.1095674 
