! 2/21/2025 7:14:00 AM
! Z:\OQC\AD5\613\LOT-141-0825\SINGLE\2-L18-8.S2P
! CHANNEL.1
! TR.MEASUREMENT
! CORRECTED.DATA
! RF.CORRECTION: FULL.FOUR.PORT.CAL.PORT.1.2.3.4
! AVERAGING.OFF
! IF.BANDWIDTH: 1KHZ
! SWEEPTYPE:  FREQ.SWEEP(Linear)
! Reference Plane Port Info
! PORT:              PORT1              PORT2             
! DISTANCE:          0  m               0  m              
! TIME:              0  s               0  s              
! PHASE.OFFSET:      0 °                0 °               
! LOSS:              0  dB              0  dB             
! REF.LOSS:          0  dB              0  dB             
! REF.FREQ:          0  Hz              0  Hz             
! Power Info
! POWER:             -10  dBm           -10  dBm          
! EFF.POWER:         -10  dBm           -10  dBm          
! SOURCE.ATTEN:      0  dB              0  dB             
! TEST.ATTEN:        0  dB              0  dB             
# GHZ S RI R 50.0
! FREQ.GHZ         S11RE         S11IM         S21RE         S21IM         S12RE         S12IM         S22RE         S22IM         
!; PortSelection: Port_12
   0.010000000     0.0150686   -0.0154874     0.9792259   -0.0891324     0.9781680   -0.0889025     0.0152437   -0.0153653 
   0.020000000     0.0145269   -0.0360150     0.9643794   -0.1762251     0.9644111   -0.1764162     0.0145540   -0.0355637 
   0.030000000     0.0076058   -0.0564320     0.9404739   -0.2598040     0.9414071   -0.2599104     0.0072609   -0.0557437 
   0.040000000    -0.0022018   -0.0731576     0.9111829   -0.3405895     0.9112252   -0.3403806    -0.0031952   -0.0722330 
   0.050000000    -0.0126877   -0.0892853     0.8740020   -0.4171077     0.8743303   -0.4176448    -0.0142930   -0.0875686 
   0.060000000    -0.0266575   -0.1050594     0.8313054   -0.4897884     0.8311505   -0.4901558    -0.0286937   -0.1026834 
   0.070000000    -0.0445010   -0.1177372     0.7819493   -0.5577691     0.7817098   -0.5577709    -0.0469833   -0.1143006 
   0.080000000    -0.0630162   -0.1259352     0.7275971   -0.6188326     0.7281789   -0.6193975    -0.0662493   -0.1214079 
   0.090000000    -0.0814536   -0.1316747     0.6682551   -0.6756852     0.6697657   -0.6758350    -0.0850826   -0.1255018 
   0.100000000    -0.1010963   -0.1354817     0.6061560   -0.7262735     0.6062333   -0.7260910    -0.1051354   -0.1276634 
   0.110000000    -0.1227690   -0.1356143     0.5392791   -0.7707232     0.5402599   -0.7704992    -0.1266814   -0.1261412 
   0.120000000    -0.1425306   -0.1306743     0.4719346   -0.8090449     0.4710883   -0.8096354    -0.1468040   -0.1195882 
   0.130000000    -0.1600303   -0.1243743     0.4008609   -0.8412404     0.4003284   -0.8411671    -0.1634617   -0.1115246 
   0.140000000    -0.1769190   -0.1167220     0.3276945   -0.8682327     0.3285212   -0.8682418    -0.1802432   -0.1023542 
   0.150000000    -0.1932700   -0.1050373     0.2536503   -0.8871898     0.2534535   -0.8872699    -0.1961703   -0.0887584 
   0.160000000    -0.2063110   -0.0902498     0.1797828   -0.9013306     0.1808761   -0.9008072    -0.2078551   -0.0719515 
   0.170000000    -0.2159286   -0.0744119     0.1068251   -0.9093047     0.1064495   -0.9098523    -0.2163890   -0.0551569 
   0.180000000    -0.2233576   -0.0587252     0.0319719   -0.9125401     0.0316998   -0.9124056    -0.2229097   -0.0373480 
   0.190000000    -0.2300728   -0.0421437    -0.0413630   -0.9083070    -0.0417168   -0.9086705    -0.2268948   -0.0185063 
   0.200000000    -0.2331984   -0.0235873    -0.1136109   -0.9002962    -0.1147930   -0.9008209    -0.2284616    0.0006086 
   0.210000000    -0.2313466   -0.0056818    -0.1857186   -0.8861028    -0.1852525   -0.8861374    -0.2252979    0.0196271 
   0.220000000    -0.2282138    0.0096803    -0.2561130   -0.8668916    -0.2563816   -0.8671257    -0.2192401    0.0368716 
   0.230000000    -0.2242699    0.0260720    -0.3239610   -0.8413522    -0.3251745   -0.8426965    -0.2118417    0.0530658 
   0.240000000    -0.2156092    0.0426283    -0.3897429   -0.8121647    -0.3909419   -0.8127218    -0.2008917    0.0693678 
   0.250000000    -0.2032493    0.0550707    -0.4549288   -0.7778150    -0.4534305   -0.7772967    -0.1871621    0.0820282 
   0.260000000    -0.1920970    0.0644510    -0.5154007   -0.7384209    -0.5158323   -0.7385584    -0.1724518    0.0927428 
   0.270000000    -0.1804806    0.0747062    -0.5734612   -0.6941788    -0.5753661   -0.6936865    -0.1570012    0.1009069 
   0.280000000    -0.1643344    0.0825591    -0.6278884   -0.6454231    -0.6287519   -0.6461376    -0.1396957    0.1065129 
   0.290000000    -0.1472597    0.0856194    -0.6785074   -0.5934362    -0.6800227   -0.5922804    -0.1213849    0.1092297 
   0.300000000    -0.1320694    0.0855406    -0.7258129   -0.5352561    -0.7257926   -0.5357960    -0.1028563    0.1085148 
   0.310000000    -0.1169281    0.0849973    -0.7683188   -0.4746942    -0.7684446   -0.4743161    -0.0849894    0.1042350 
   0.320000000    -0.1002841    0.0811401    -0.8048716   -0.4100495    -0.8050314   -0.4091041    -0.0679457    0.0976509 
   0.330000000    -0.0846757    0.0726067    -0.8372037   -0.3419448    -0.8366659   -0.3406541    -0.0520801    0.0878642 
   0.340000000    -0.0740474    0.0625994    -0.8637647   -0.2702254    -0.8648499   -0.2701952    -0.0390407    0.0753892 
   0.350000000    -0.0626911    0.0531550    -0.8836294   -0.1970504    -0.8828977   -0.1953663    -0.0277670    0.0617059 
   0.360000000    -0.0516960    0.0401216    -0.8965822   -0.1234852    -0.8971522   -0.1234556    -0.0184498    0.0458903 
   0.370000000    -0.0454586    0.0235175    -0.9038994   -0.0459040    -0.9036335   -0.0475839    -0.0120524    0.0281594 
   0.380000000    -0.0429187    0.0078017    -0.9044165    0.0284155    -0.9046881    0.0303424    -0.0087632    0.0091602 
   0.390000000    -0.0414226   -0.0085712    -0.8974897    0.1050395    -0.8982427    0.1059801    -0.0093019   -0.0106450 
   0.400000000    -0.0438956   -0.0259739    -0.8854616    0.1798475    -0.8851632    0.1804160    -0.0150012   -0.0298096 
   0.410000000    -0.0484235   -0.0408904    -0.8650914    0.2549006    -0.8648918    0.2555956    -0.0212474   -0.0452229 
   0.420000000    -0.0545760   -0.0556584    -0.8382758    0.3263349    -0.8380969    0.3256630    -0.0291880   -0.0620153 
   0.430000000    -0.0647196   -0.0700764    -0.8064727    0.3942539    -0.8059652    0.3948301    -0.0417418   -0.0778359 
   0.440000000    -0.0773970   -0.0809094    -0.7682154    0.4599271    -0.7683787    0.4593650    -0.0578743   -0.0893410 
   0.450000000    -0.0907545   -0.0910446    -0.7246852    0.5207288    -0.7236848    0.5214456    -0.0740885   -0.0986339 
   0.460000000    -0.1072419   -0.1002117    -0.6751803    0.5777794    -0.6746822    0.5785038    -0.0930673   -0.1068386 
   0.470000000    -0.1258472   -0.1050773    -0.6243210    0.6301820    -0.6241130    0.6293742    -0.1144843   -0.1104076 
   0.480000000    -0.1423668   -0.1054049    -0.5666993    0.6780561    -0.5678297    0.6775802    -0.1338325   -0.1100532 
   0.490000000    -0.1579337   -0.1053502    -0.5069653    0.7183356    -0.5057715    0.7199156    -0.1527333   -0.1076553 
   0.500000000    -0.1747615   -0.1035683    -0.4443991    0.7554901    -0.4438623    0.7556162    -0.1700218   -0.1025446 
   0.510000000    -0.1940148   -0.0978465    -0.3783081    0.7862643    -0.3782263    0.7866816    -0.1892046   -0.0955915 
   0.520000000    -0.2099153   -0.0872775    -0.3131293    0.8116211    -0.3128682    0.8111174    -0.2077233   -0.0837793 
   0.530000000    -0.2230080   -0.0767149    -0.2453942    0.8316695    -0.2466018    0.8300578    -0.2215809   -0.0673330 
   0.540000000    -0.2358058   -0.0671243    -0.1789693    0.8456948    -0.1764196    0.8447705    -0.2319979   -0.0523673 
   0.550000000    -0.2475500   -0.0511868    -0.1091004    0.8540935    -0.1097520    0.8530127    -0.2422560   -0.0370344 
   0.560000000    -0.2527329   -0.0340651    -0.0398972    0.8567626    -0.0405582    0.8574251    -0.2501232   -0.0172851 
   0.570000000    -0.2565590   -0.0210261     0.0271283    0.8544604     0.0271808    0.8563157    -0.2525992    0.0031171 
   0.580000000    -0.2652499   -0.0045612     0.0951933    0.8484635     0.0957136    0.8481743    -0.2545210    0.0220825 
   0.590000000    -0.2661904    0.0179901     0.1612581    0.8368578     0.1620155    0.8343925    -0.2548265    0.0423607 
   0.600000000    -0.2619861    0.0343850     0.2277050    0.8200493     0.2258441    0.8194052    -0.2509222    0.0651569 
   0.610000000    -0.2583556    0.0472036     0.2904284    0.7982950     0.2925259    0.7978854    -0.2408261    0.0837853 
   0.620000000    -0.2548028    0.0636212     0.3534283    0.7725147     0.3531478    0.7714395    -0.2288357    0.0980955 
   0.630000000    -0.2440954    0.0797933     0.4142348    0.7404240     0.4127162    0.7433096    -0.2187574    0.1109007 
   0.640000000    -0.2315019    0.0910383     0.4700339    0.7054814     0.4710593    0.7074754    -0.2057849    0.1285124 
   0.650000000    -0.2216608    0.1011107     0.5244645    0.6673648     0.5257185    0.6666734    -0.1857979    0.1413340 
   0.660000000    -0.2107060    0.1142323     0.5758637    0.6245199     0.5778396    0.6236131    -0.1676626    0.1483640 
   0.670000000    -0.1932519    0.1222447     0.6268291    0.5763730     0.6248292    0.5756944    -0.1510338    0.1542864 
   0.680000000    -0.1769765    0.1223453     0.6714768    0.5234721     0.6714909    0.5252163    -0.1309510    0.1593599 
   0.690000000    -0.1642132    0.1217824     0.7112157    0.4707021     0.7137312    0.4697102    -0.1081726    0.1570941 
   0.700000000    -0.1496496    0.1256346     0.7497053    0.4108774     0.7493504    0.4101119    -0.0891914    0.1503636 
   0.710000000    -0.1296522    0.1244316     0.7806417    0.3496924     0.7821833    0.3485669    -0.0736079    0.1452781 
   0.720000000    -0.1166665    0.1160730     0.8084201    0.2837977     0.8077605    0.2843153    -0.0552439    0.1396319 
   0.730000000    -0.1057573    0.1106986     0.8309953    0.2160950     0.8310129    0.2160776    -0.0345276    0.1292236 
   0.740000000    -0.0920780    0.1031279     0.8472032    0.1462261     0.8459399    0.1464433    -0.0195783    0.1119759 
   0.750000000    -0.0814789    0.0881424     0.8570734    0.0757376     0.8569434    0.0765870    -0.0124750    0.0925074 
   0.760000000    -0.0762824    0.0745172     0.8606519    0.0040035     0.8628166    0.0047900    -0.0061839    0.0778404 
   0.770000000    -0.0703952    0.0628782     0.8589548   -0.0674364     0.8584119   -0.0690764     0.0038303    0.0588261 
   0.780000000    -0.0662962    0.0491346     0.8508410   -0.1392616     0.8509616   -0.1383206     0.0055569    0.0363395 
   0.790000000    -0.0659549    0.0336454     0.8360794   -0.2117375     0.8349795   -0.2106590     0.0028338    0.0174312 
   0.800000000    -0.0692762    0.0198392     0.8154635   -0.2782022     0.8150175   -0.2798064     0.0019700    0.0010655 
   0.810000000    -0.0735526    0.0051470     0.7872963   -0.3469313     0.7872572   -0.3486048    -0.0040639   -0.0217089 
   0.820000000    -0.0813904   -0.0107340     0.7540891   -0.4100485     0.7541099   -0.4100370    -0.0173343   -0.0425991 
   0.830000000    -0.0934743   -0.0198868     0.7187041   -0.4734885     0.7163646   -0.4738847    -0.0353578   -0.0546208 
   0.840000000    -0.1027266   -0.0261042     0.6715096   -0.5323711     0.6729534   -0.5310172    -0.0466847   -0.0633111 
   0.850000000    -0.1124336   -0.0340984     0.6243866   -0.5831839     0.6250576   -0.5839382    -0.0597412   -0.0759321 
   0.860000000    -0.1290684   -0.0427771     0.5709189   -0.6335911     0.5707518   -0.6337774    -0.0807113   -0.0877150 
   0.870000000    -0.1467779   -0.0418905     0.5156162   -0.6749461     0.5137101   -0.6755786    -0.1033315   -0.0888076 
   0.880000000    -0.1585001   -0.0403857     0.4581546   -0.7140465     0.4561116   -0.7143437    -0.1214193   -0.0869110 
   0.890000000    -0.1726994   -0.0428010     0.3954189   -0.7477563     0.3939008   -0.7452520    -0.1395442   -0.0868576 
   0.900000000    -0.1911447   -0.0373553     0.3300167   -0.7735577     0.3323510   -0.7717659    -0.1620518   -0.0836969 
   0.910000000    -0.2025721   -0.0248300     0.2653610   -0.7958107     0.2683108   -0.7956872    -0.1803854   -0.0723757 
   0.920000000    -0.2098805   -0.0170913     0.1973415   -0.8115811     0.1998503   -0.8118561    -0.1933571   -0.0602427 
   0.930000000    -0.2226603   -0.0112238     0.1322090   -0.8226605     0.1320845   -0.8233125    -0.2047381   -0.0514997 
   0.940000000    -0.2367116    0.0037937     0.0642592   -0.8283004     0.0647084   -0.8262932    -0.2207957   -0.0385735 
   0.950000000    -0.2404749    0.0210964    -0.0027494   -0.8285279     0.0000683   -0.8258895    -0.2332109   -0.0170924 
   0.960000000    -0.2426228    0.0341745    -0.0686975   -0.8240320    -0.0662445   -0.8233520    -0.2365496    0.0045053 
   0.970000000    -0.2466252    0.0464451    -0.1329000   -0.8144364    -0.1313699   -0.8129108    -0.2383026    0.0198251 
   0.980000000    -0.2487841    0.0651548    -0.1980216   -0.7968038    -0.1950772   -0.7994156    -0.2424624    0.0352258 
   0.990000000    -0.2431220    0.0817841    -0.2575587   -0.7762667    -0.2571205   -0.7805578    -0.2439234    0.0565568 
   1.000000000    -0.2381406    0.0926073    -0.3188284   -0.7543939    -0.3181537   -0.7544771    -0.2356298    0.0761009 
   1.010000000    -0.2371752    0.1064924    -0.3764658   -0.7261525    -0.3768174   -0.7266066    -0.2281759    0.0897720 
   1.020000000    -0.2272606    0.1249556    -0.4343998   -0.6936764    -0.4312237   -0.6928191    -0.2223645    0.1070033 
   1.030000000    -0.2120264    0.1347293    -0.4870988   -0.6550358    -0.4847471   -0.6591965    -0.2093146    0.1272355 
   1.040000000    -0.2009046    0.1402793    -0.5358676   -0.6164277    -0.5374010   -0.6182512    -0.1912853    0.1383939 
   1.050000000    -0.1924482    0.1501979    -0.5849580   -0.5716928    -0.5847505   -0.5734011    -0.1769679    0.1437263 
   1.060000000    -0.1750382    0.1595864    -0.6270207   -0.5224659    -0.6296561   -0.5261449    -0.1653482    0.1505182 
   1.070000000    -0.1588883    0.1590310    -0.6687615   -0.4725783    -0.6701689   -0.4720463    -0.1475425    0.1615656 
   1.080000000    -0.1478167    0.1604984    -0.7052810   -0.4179016    -0.7058902   -0.4162158    -0.1238449    0.1641678 
   1.090000000    -0.1321009    0.1630763    -0.7392676   -0.3599036    -0.7374642   -0.3599806    -0.1051389    0.1592954 
   1.100000000    -0.1134671    0.1590137    -0.7668818   -0.2988599    -0.7656184   -0.3000993    -0.0905787    0.1555564 
   1.110000000    -0.1002207    0.1492390    -0.7885304   -0.2349207    -0.7913963   -0.2371579    -0.0738328    0.1544718 
   1.120000000    -0.0914000    0.1429999    -0.8052320   -0.1727641    -0.8082868   -0.1717332    -0.0531537    0.1440619 
   1.130000000    -0.0790213    0.1380149    -0.8200282   -0.1048786    -0.8200952   -0.1050403    -0.0391157    0.1275244 
   1.140000000    -0.0654528    0.1253220    -0.8271901   -0.0369519    -0.8277274   -0.0383949    -0.0324295    0.1154678 
   1.150000000    -0.0598488    0.1090309    -0.8291869    0.0315358    -0.8288362    0.0307324    -0.0206449    0.1059355 
   1.160000000    -0.0570602    0.0983562    -0.8242126    0.1003699    -0.8235570    0.1006273    -0.0072458    0.0880946 
   1.170000000    -0.0518775    0.0851489    -0.8133927    0.1686310    -0.8132306    0.1680109    -0.0042973    0.0646337 
   1.180000000    -0.0511604    0.0672269    -0.7970130    0.2360745    -0.7981241    0.2357908    -0.0085031    0.0459400 
   1.190000000    -0.0570317    0.0535193    -0.7737857    0.3031953    -0.7752717    0.3038822    -0.0095868    0.0328121 
   1.200000000    -0.0595319    0.0430889    -0.7456679    0.3662563    -0.7455516    0.3653076    -0.0091898    0.0138563 
   1.210000000    -0.0639353    0.0273873    -0.7117109    0.4285721    -0.7125658    0.4275064    -0.0168744   -0.0078336 
   1.220000000    -0.0764192    0.0151283    -0.6733720    0.4855344    -0.6727713    0.4847190    -0.0307480   -0.0212231 
   1.230000000    -0.0876305    0.0095019    -0.6288382    0.5409242    -0.6295909    0.5383964    -0.0414568   -0.0310103 
   1.240000000    -0.0971009    0.0004952    -0.5804760    0.5889408    -0.5802221    0.5890949    -0.0539269   -0.0446346 
   1.250000000    -0.1133200   -0.0082319    -0.5273709    0.6342751    -0.5277315    0.6337439    -0.0742075   -0.0557901 
   1.260000000    -0.1306172   -0.0077787    -0.4726364    0.6747928    -0.4726006    0.6737212    -0.0939747   -0.0582220 
   1.270000000    -0.1412097   -0.0062932    -0.4126824    0.7095461    -0.4144029    0.7080780    -0.1087019   -0.0605077 
   1.280000000    -0.1534883   -0.0087759    -0.3512256    0.7401797    -0.3523593    0.7388275    -0.1249151   -0.0645093 
   1.290000000    -0.1723208   -0.0054961    -0.2873262    0.7627245    -0.2887840    0.7623992    -0.1467556   -0.0634733 
   1.300000000    -0.1873587    0.0068137    -0.2250796    0.7810693    -0.2250697    0.7793453    -0.1663717   -0.0534113 
   1.310000000    -0.1941271    0.0173481    -0.1593620    0.7956637    -0.1614051    0.7950736    -0.1792427   -0.0420078 
   1.320000000    -0.2044077    0.0216402    -0.0922279    0.8025113    -0.0952805    0.8030368    -0.1919654   -0.0355332 
   1.330000000    -0.2198476    0.0339558    -0.0274268    0.8044301    -0.0288728    0.8044444    -0.2096073   -0.0259287 
   1.340000000    -0.2257967    0.0536117     0.0355686    0.7999077     0.0352527    0.8005633    -0.2239034   -0.0072863 
   1.350000000    -0.2233442    0.0663171     0.0994793    0.7945761     0.0984663    0.7935424    -0.2277183    0.0116617 
   1.360000000    -0.2283525    0.0756016     0.1632025    0.7810648     0.1628376    0.7813658    -0.2304845    0.0244737 
   1.370000000    -0.2338016    0.0952164     0.2261679    0.7633377     0.2219287    0.7643349    -0.2383371    0.0409585 
   1.380000000    -0.2273111    0.1156508     0.2839374    0.7386434     0.2823708    0.7427809    -0.2416467    0.0634950 
   1.390000000    -0.2195099    0.1261640     0.3400198    0.7163975     0.3397814    0.7163301    -0.2363374    0.0825461 
   1.400000000    -0.2184558    0.1368152     0.3965447    0.6843535     0.3940161    0.6868595    -0.2311112    0.0958912 
   1.410000000    -0.2121533    0.1551824     0.4483343    0.6524423     0.4454089    0.6523432    -0.2264790    0.1108198 
   1.420000000    -0.1957398    0.1668563     0.4980855    0.6121075     0.4971595    0.6156860    -0.2181101    0.1290753 
   1.430000000    -0.1833865    0.1730115     0.5442749    0.5726288     0.5430920    0.5739155    -0.2026089    0.1440273 
   1.440000000    -0.1741210    0.1818777     0.5881245    0.5272610     0.5867093    0.5290352    -0.1892266    0.1532645 
   1.450000000    -0.1582393    0.1927586     0.6278521    0.4774443     0.6267163    0.4815679    -0.1786868    0.1628370 
   1.460000000    -0.1404959    0.1946936     0.6631844    0.4279077     0.6640276    0.4309721    -0.1642377    0.1738746 
   1.470000000    -0.1284948    0.1939486     0.6959393    0.3746402     0.6966079    0.3739535    -0.1433049    0.1778218 
   1.480000000    -0.1147083    0.1965255     0.7259596    0.3180328     0.7246996    0.3194774    -0.1270327    0.1752269 
   1.490000000    -0.0946758    0.1952596     0.7492210    0.2589236     0.7489126    0.2615133    -0.1125076    0.1758177 
   1.500000000    -0.0787367    0.1848144     0.7689826    0.1967389     0.7710174    0.2000822    -0.0941451    0.1771856 
   1.510000000    -0.0701888    0.1782810     0.7824821    0.1352137     0.7855570    0.1346412    -0.0730529    0.1708857 
   1.520000000    -0.0574485    0.1745571     0.7949116    0.0721949     0.7933409    0.0735877    -0.0605735    0.1587743 
