! 2/21/2025 7:16:14 AM
! Z:\OQC\AD5\613\LOT-141-0825\SINGLE\2-L20-8.S2P
! CHANNEL.1
! TR.MEASUREMENT
! CORRECTED.DATA
! RF.CORRECTION: FULL.FOUR.PORT.CAL.PORT.1.2.3.4
! AVERAGING.OFF
! IF.BANDWIDTH: 1KHZ
! SWEEPTYPE:  FREQ.SWEEP(Linear)
! Reference Plane Port Info
! PORT:              PORT1              PORT2             
! DISTANCE:          0  m               0  m              
! TIME:              0  s               0  s              
! PHASE.OFFSET:      0 °                0 °               
! LOSS:              0  dB              0  dB             
! REF.LOSS:          0  dB              0  dB             
! REF.FREQ:          0  Hz              0  Hz             
! Power Info
! POWER:             -10  dBm           -10  dBm          
! EFF.POWER:         -10  dBm           -10  dBm          
! SOURCE.ATTEN:      0  dB              0  dB             
! TEST.ATTEN:        0  dB              0  dB             
# GHZ S RI R 50.0
! FREQ.GHZ         S11RE         S11IM         S21RE         S21IM         S12RE         S12IM         S22RE         S22IM         
!; PortSelection: Port_12
   0.010000000     0.0166915   -0.0147889     0.9779734   -0.0877028     0.9778367   -0.0876283     0.0171499   -0.0146087 
   0.020000000     0.0160524   -0.0340727     0.9633008   -0.1739984     0.9635549   -0.1743422     0.0164851   -0.0338106 
   0.030000000     0.0093020   -0.0532133     0.9403437   -0.2570173     0.9408800   -0.2575054     0.0099193   -0.0529926 
   0.040000000    -0.0001845   -0.0687961     0.9111018   -0.3374515     0.9116485   -0.3378366     0.0004185   -0.0687605 
   0.050000000    -0.0102741   -0.0838893     0.8747187   -0.4133554     0.8756991   -0.4141437    -0.0096430   -0.0836470 
   0.060000000    -0.0238918   -0.0986561     0.8327363   -0.4861542     0.8331245   -0.4862842    -0.0227869   -0.0986817 
   0.070000000    -0.0412710   -0.1105362     0.7839532   -0.5539491     0.7847213   -0.5545883    -0.0396967   -0.1104946 
   0.080000000    -0.0592839   -0.1178431     0.7311267   -0.6156247     0.7314451   -0.6164644    -0.0577518   -0.1180820 
   0.090000000    -0.0772800   -0.1229303     0.6728494   -0.6726202     0.6739515   -0.6730700    -0.0753558   -0.1231760 
   0.100000000    -0.0963217   -0.1261497     0.6104681   -0.7242440     0.6112765   -0.7240588    -0.0943989   -0.1265562 
   0.110000000    -0.1175144   -0.1256481     0.5449075   -0.7697269     0.5456654   -0.7691835    -0.1151832   -0.1264166 
   0.120000000    -0.1370120   -0.1202659     0.4764149   -0.8090018     0.4772325   -0.8073660    -0.1348860   -0.1217403 
   0.130000000    -0.1540511   -0.1134768     0.4070060   -0.8411018     0.4065861   -0.8408149    -0.1512802   -0.1156215 
   0.140000000    -0.1708333   -0.1054813     0.3330692   -0.8678203     0.3341059   -0.8687714    -0.1685642   -0.1084597 
   0.150000000    -0.1868644   -0.0935520     0.2592809   -0.8879405     0.2600337   -0.8869873    -0.1850930   -0.0970373 
   0.160000000    -0.2000791   -0.0781130     0.1857108   -0.9024090     0.1867227   -0.9018344    -0.1982733   -0.0819443 
   0.170000000    -0.2097129   -0.0619959     0.1125286   -0.9106302     0.1132145   -0.9105371    -0.2084086   -0.0663849 
   0.180000000    -0.2170494   -0.0453777     0.0374689   -0.9139557     0.0383199   -0.9141170    -0.2165553   -0.0503115 
   0.190000000    -0.2238910   -0.0285358    -0.0361433   -0.9107596    -0.0362355   -0.9113472    -0.2230490   -0.0335184 
   0.200000000    -0.2271458   -0.0087804    -0.1099424   -0.9020681    -0.1083436   -0.9028928    -0.2271329   -0.0150720 
   0.210000000    -0.2257832    0.0096393    -0.1802439   -0.8889366    -0.1801762   -0.8889748    -0.2269950    0.0031077 
   0.220000000    -0.2225449    0.0258658    -0.2509200   -0.8687555    -0.2512251   -0.8690689    -0.2242188    0.0201068 
   0.230000000    -0.2187244    0.0433665    -0.3185689   -0.8435634    -0.3199434   -0.8442557    -0.2199962    0.0368254 
   0.240000000    -0.2100979    0.0614104    -0.3845640   -0.8149351    -0.3847514   -0.8144900    -0.2123681    0.0537692 
   0.250000000    -0.1978903    0.0753659    -0.4490689   -0.7805299    -0.4471435   -0.7808663    -0.2021407    0.0684068 
   0.260000000    -0.1867137    0.0863910    -0.5086607   -0.7414957    -0.5095483   -0.7424113    -0.1909978    0.0805797 
   0.270000000    -0.1744716    0.0980035    -0.5666663   -0.6968422    -0.5668704   -0.6978229    -0.1782741    0.0914404 
   0.280000000    -0.1583013    0.1074795    -0.6199832   -0.6494434    -0.6211230   -0.6498145    -0.1642081    0.1003280 
   0.290000000    -0.1407559    0.1124581    -0.6716583   -0.5979599    -0.6710970   -0.5978279    -0.1481908    0.1065360 
   0.300000000    -0.1246996    0.1143966    -0.7182065   -0.5417165    -0.7177026   -0.5419892    -0.1317035    0.1100943 
   0.310000000    -0.1086402    0.1161505    -0.7599326   -0.4821949    -0.7598310   -0.4824808    -0.1151236    0.1105379 
   0.320000000    -0.0906560    0.1146269    -0.7962844   -0.4191593    -0.7971176   -0.4189270    -0.0990231    0.1090235 
   0.330000000    -0.0738331    0.1079017    -0.8290662   -0.3514987    -0.8286516   -0.3515513    -0.0835570    0.1044129 
   0.340000000    -0.0608057    0.0997654    -0.8555962   -0.2832657    -0.8569365   -0.2830912    -0.0691762    0.0972580 
   0.350000000    -0.0475951    0.0921840    -0.8762807   -0.2115603    -0.8767982   -0.2108244    -0.0565435    0.0888341 
   0.360000000    -0.0338618    0.0810403    -0.8912922   -0.1389343    -0.8925343   -0.1390191    -0.0447614    0.0783777 
   0.370000000    -0.0248950    0.0659395    -0.9007902   -0.0651218    -0.9008198   -0.0649056    -0.0352008    0.0658186 
   0.380000000    -0.0194499    0.0512126    -0.9029940    0.0109379    -0.9031379    0.0119028    -0.0282966    0.0512769 
   0.390000000    -0.0143791    0.0355426    -0.8988239    0.0861191    -0.8995900    0.0850287    -0.0233800    0.0353976 
   0.400000000    -0.0132968    0.0186146    -0.8891502    0.1597559    -0.8887453    0.1605699    -0.0236736    0.0193446 
   0.410000000    -0.0145236    0.0035144    -0.8710672    0.2346215    -0.8709974    0.2345218    -0.0241268    0.0062495 
   0.420000000    -0.0168402   -0.0118042    -0.8470868    0.3067997    -0.8474808    0.3055067    -0.0257737   -0.0090146 
   0.430000000    -0.0234707   -0.0273025    -0.8180493    0.3745048    -0.8178897    0.3757265    -0.0318452   -0.0245890 
   0.440000000    -0.0330044   -0.0397110    -0.7828166    0.4416882    -0.7827578    0.4431688    -0.0411767   -0.0364527 
   0.450000000    -0.0432491   -0.0517634    -0.7421349    0.5043669    -0.7413986    0.5057436    -0.0512106   -0.0473599 
   0.460000000    -0.0571463   -0.0626615    -0.6948367    0.5645421    -0.6937463    0.5660869    -0.0640468   -0.0576083 
   0.470000000    -0.0729028   -0.0703345    -0.6442596    0.6189011    -0.6444834    0.6174430    -0.0792573   -0.0653154 
   0.480000000    -0.0879759   -0.0737513    -0.5896969    0.6694255    -0.5904709    0.6677245    -0.0939637   -0.0687380 
   0.490000000    -0.1017107   -0.0768598    -0.5299041    0.7135096    -0.5293062    0.7139263    -0.1079549   -0.0717218 
   0.500000000    -0.1174258   -0.0780046    -0.4678974    0.7527403    -0.4674138    0.7523468    -0.1221119   -0.0716583 
   0.510000000    -0.1360069   -0.0753964    -0.4021938    0.7863696    -0.4031082    0.7850817    -0.1383481   -0.0706131 
   0.520000000    -0.1516118   -0.0678425    -0.3364317    0.8127506    -0.3354161    0.8134862    -0.1548042   -0.0649709 
   0.530000000    -0.1645411   -0.0602909    -0.2678023    0.8362305    -0.2696194    0.8355083    -0.1682743   -0.0544156 
   0.540000000    -0.1777402   -0.0530213    -0.1989709    0.8532841    -0.1981558    0.8525084    -0.1784902   -0.0463253 
   0.550000000    -0.1911029   -0.0399371    -0.1287814    0.8631622    -0.1296147    0.8626360    -0.1896351   -0.0367369 
   0.560000000    -0.1970689   -0.0249002    -0.0584873    0.8678796    -0.0588053    0.8695197    -0.1991874   -0.0230811 
   0.570000000    -0.2025142   -0.0138911     0.0102750    0.8675438     0.0111222    0.8680564    -0.2047355   -0.0081181 
   0.580000000    -0.2126266    0.0006028     0.0797231    0.8618452     0.0795870    0.8623733    -0.2093997    0.0057601 
   0.590000000    -0.2151739    0.0219348     0.1485064    0.8503804     0.1491517    0.8481586    -0.2138837    0.0215709 
   0.600000000    -0.2127173    0.0373255     0.2163234    0.8346190     0.2146467    0.8345557    -0.2145666    0.0404133 
   0.610000000    -0.2107919    0.0499010     0.2806008    0.8132583     0.2828500    0.8141214    -0.2096362    0.0553031 
   0.620000000    -0.2089342    0.0660709     0.3446881    0.7878698     0.3449720    0.7857211    -0.2029354    0.0680880 
   0.630000000    -0.2004206    0.0815242     0.4067378    0.7557608     0.4061347    0.7574288    -0.1986580    0.0791837 
   0.640000000    -0.1893541    0.0932283     0.4642532    0.7199825     0.4661751    0.7215692    -0.1918395    0.0965000 
   0.650000000    -0.1812818    0.1034223     0.5198636    0.6816319     0.5195271    0.6816742    -0.1774939    0.1089368 
   0.660000000    -0.1716781    0.1174053     0.5722501    0.6384917     0.5729442    0.6376200    -0.1650290    0.1169034 
   0.670000000    -0.1554551    0.1265261     0.6225551    0.5898998     0.6204073    0.5898308    -0.1545285    0.1247095 
   0.680000000    -0.1395970    0.1284541     0.6662531    0.5375353     0.6665845    0.5398341    -0.1399891    0.1326213 
   0.690000000    -0.1281770    0.1288032     0.7063599    0.4853296     0.7098604    0.4842232    -0.1221786    0.1342349 
   0.700000000    -0.1147668    0.1339895     0.7460839    0.4255953     0.7457609    0.4244220    -0.1074517    0.1314225 
   0.710000000    -0.0956100    0.1344026     0.7766449    0.3647014     0.7792631    0.3633607    -0.0958930    0.1308535 
   0.720000000    -0.0816884    0.1282926     0.8062080    0.2988957     0.8047933    0.3002358    -0.0804742    0.1313964 
   0.730000000    -0.0709829    0.1249331     0.8267207    0.2348070     0.8288842    0.2329887    -0.0625797    0.1273407 
   0.740000000    -0.0564339    0.1191547     0.8448133    0.1651835     0.8445514    0.1646609    -0.0481222    0.1157875 
   0.750000000    -0.0446624    0.1062016     0.8562860    0.0952482     0.8557050    0.0952635    -0.0409332    0.1035185 
   0.760000000    -0.0380249    0.0939382     0.8621457    0.0252461     0.8642122    0.0250173    -0.0341025    0.0950454 
   0.770000000    -0.0309040    0.0840298     0.8613420   -0.0460604     0.8619536   -0.0475710    -0.0217188    0.0827820 
   0.780000000    -0.0239053    0.0715240     0.8559386   -0.1177730     0.8556646   -0.1156910    -0.0164869    0.0661237 
   0.790000000    -0.0213745    0.0570180     0.8424106   -0.1873512     0.8420295   -0.1875430    -0.0156240    0.0528038 
   0.800000000    -0.0223250    0.0436860     0.8243177   -0.2559108     0.8238406   -0.2580817    -0.0118092    0.0410604 
   0.810000000    -0.0232034    0.0292175     0.7994193   -0.3250098     0.7997945   -0.3250837    -0.0113679    0.0228099 
   0.820000000    -0.0279246    0.0131316     0.7691392   -0.3879902     0.7683402   -0.3875231    -0.0179645    0.0043092 
   0.830000000    -0.0373751    0.0030281     0.7366077   -0.4524567     0.7352222   -0.4533748    -0.0297626   -0.0057428 
   0.840000000    -0.0439234   -0.0045093     0.6925736   -0.5115215     0.6926153   -0.5120763    -0.0343866   -0.0143690 
   0.850000000    -0.0508927   -0.0142225     0.6482559   -0.5645885     0.6488042   -0.5658283    -0.0397577   -0.0263688 
   0.860000000    -0.0651766   -0.0249324     0.5967100   -0.6178094     0.5971174   -0.6188343    -0.0539588   -0.0401916 
   0.870000000    -0.0811633   -0.0266320     0.5426015   -0.6633261     0.5421843   -0.6639481    -0.0706438   -0.0438598 
   0.880000000    -0.0914448   -0.0273871     0.4861104   -0.7052740     0.4856602   -0.7049111    -0.0830470   -0.0457421 
   0.890000000    -0.1038089   -0.0328526     0.4258332   -0.7413026     0.4228302   -0.7406821    -0.0948218   -0.0503138 
   0.900000000    -0.1221763   -0.0307486     0.3613202   -0.7711657     0.3628211   -0.7695816    -0.1137477   -0.0518999 
   0.910000000    -0.1335208   -0.0213361     0.2971321   -0.7969795     0.2978848   -0.7973624    -0.1288556   -0.0467786 
   0.920000000    -0.1408093   -0.0159151     0.2275915   -0.8156676     0.2300567   -0.8162346    -0.1384983   -0.0412483 
   0.930000000    -0.1538594   -0.0130672     0.1622151   -0.8298727     0.1612318   -0.8312521    -0.1483161   -0.0385844 
   0.940000000    -0.1687798   -0.0007861     0.0932605   -0.8388356     0.0916782   -0.8372490    -0.1640392   -0.0327527 
   0.950000000    -0.1739767    0.0144967     0.0236719   -0.8417078     0.0260033   -0.8391252    -0.1771325   -0.0181682 
   0.960000000    -0.1770557    0.0253613    -0.0440601   -0.8392248    -0.0421799   -0.8382914    -0.1819311   -0.0025853 
   0.970000000    -0.1828079    0.0363589    -0.1106072   -0.8314439    -0.1100089   -0.8293080    -0.1858506    0.0062059 
   0.980000000    -0.1867978    0.0532311    -0.1774914   -0.8156403    -0.1743290   -0.8171741    -0.1924724    0.0162846 
   0.990000000    -0.1830689    0.0686092    -0.2393031   -0.7962124    -0.2401807   -0.7997196    -0.1986872    0.0324481 
   1.000000000    -0.1800385    0.0786733    -0.3020838   -0.7753731    -0.3026805   -0.7752104    -0.1949698    0.0475913 
   1.010000000    -0.1805447    0.0919058    -0.3632634   -0.7475268    -0.3640307   -0.7464609    -0.1926596    0.0573031 
   1.020000000    -0.1732694    0.1101576    -0.4215751   -0.7164586    -0.4191087   -0.7141207    -0.1930833    0.0713276 
   1.030000000    -0.1593905    0.1197530    -0.4773180   -0.6770920    -0.4754232   -0.6801172    -0.1868506    0.0889919 
   1.040000000    -0.1498514    0.1256548    -0.5277424   -0.6378615    -0.5278906   -0.6405479    -0.1746098    0.0991208 
   1.050000000    -0.1429842    0.1361955    -0.5780959   -0.5933872    -0.5772420   -0.5954340    -0.1663752    0.1045706 
   1.060000000    -0.1266342    0.1464981    -0.6214393   -0.5437183    -0.6226144   -0.5465253    -0.1612703    0.1120150 
   1.070000000    -0.1113687    0.1471509    -0.6641902   -0.4937657    -0.6656029   -0.4932420    -0.1507936    0.1245229 
   1.080000000    -0.1014227    0.1497371    -0.7015508   -0.4395618    -0.7021664   -0.4383496    -0.1333402    0.1301756 
   1.090000000    -0.0862721    0.1537184    -0.7360229   -0.3825496    -0.7351961   -0.3811457    -0.1204274    0.1283776 
   1.100000000    -0.0679329    0.1508965    -0.7648802   -0.3208751    -0.7632719   -0.3218482    -0.1113679    0.1290228 
   1.110000000    -0.0545667    0.1420776    -0.7862262   -0.2581061    -0.7907450   -0.2601206    -0.0996895    0.1322977 
   1.120000000    -0.0452497    0.1372945    -0.8050426   -0.1955340    -0.8079514   -0.1939160    -0.0823723    0.1287843 
   1.130000000    -0.0325824    0.1339167    -0.8206145   -0.1284998    -0.8213357   -0.1291562    -0.0711049    0.1184048 
   1.140000000    -0.0177287    0.1225420    -0.8286196   -0.0608038    -0.8294321   -0.0621069    -0.0665919    0.1130000 
   1.150000000    -0.0105924    0.1071860    -0.8323110    0.0073197    -0.8329332    0.0055185    -0.0557141    0.1105481 
   1.160000000    -0.0061802    0.0971470    -0.8297840    0.0747642    -0.8302089    0.0741298    -0.0427147    0.1001008 
   1.170000000     0.0005081    0.0848775    -0.8215026    0.1423114    -0.8208000    0.1422547    -0.0379959    0.0840347 
   1.180000000     0.0038119    0.0669672    -0.8065410    0.2096250    -0.8075858    0.2090942    -0.0396505    0.0719925 
   1.190000000     0.0002076    0.0529650    -0.7860997    0.2758934    -0.7884386    0.2765153    -0.0379204    0.0652816 
   1.200000000    -0.0001646    0.0419728    -0.7612761    0.3397480    -0.7619804    0.3386679    -0.0328729    0.0527975 
   1.210000000    -0.0021037    0.0252167    -0.7309563    0.4020575    -0.7306169    0.4023755    -0.0349258    0.0359807 
   1.220000000    -0.0123360    0.0111669    -0.6939741    0.4615965    -0.6948134    0.4598455    -0.0429746    0.0265097 
   1.230000000    -0.0216754    0.0032285    -0.6533020    0.5177854    -0.6534052    0.5167780    -0.0474353    0.0200213 
   1.240000000    -0.0292806   -0.0079290    -0.6081149    0.5679677    -0.6075502    0.5679287    -0.0528403    0.0087118 
   1.250000000    -0.0435875   -0.0196237    -0.5574451    0.6160585    -0.5575982    0.6154846    -0.0659248   -0.0018341 
   1.260000000    -0.0603882   -0.0226588    -0.5046007    0.6587269    -0.5041718    0.6591064    -0.0790919   -0.0047053 
   1.270000000    -0.0705918   -0.0240927    -0.4469645    0.6967359    -0.4481495    0.6969331    -0.0869843   -0.0076521 
   1.280000000    -0.0824650   -0.0300491    -0.3870927    0.7316999    -0.3881915    0.7294123    -0.0966412   -0.0139448 
   1.290000000    -0.1020688   -0.0309221    -0.3239002    0.7583594    -0.3257915    0.7573987    -0.1123547   -0.0163439 
   1.300000000    -0.1184732   -0.0219231    -0.2616679    0.7801588    -0.2613379    0.7794762    -0.1272586   -0.0104656 
   1.310000000    -0.1267960   -0.0144036    -0.1950919    0.7991042    -0.1975757    0.7978292    -0.1357439   -0.0032287 
   1.320000000    -0.1386615   -0.0128248    -0.1288496    0.8090476    -0.1308621    0.8092937    -0.1445208   -0.0016071 
   1.330000000    -0.1567910   -0.0038238    -0.0618960    0.8150095    -0.0639033    0.8146509    -0.1595038    0.0020167 
   1.340000000    -0.1663079    0.0138711     0.0036100    0.8134587     0.0023932    0.8148547    -0.1726484    0.0145767 
   1.350000000    -0.1668709    0.0251862     0.0686159    0.8105883     0.0675365    0.8102738    -0.1756956    0.0281756 
   1.360000000    -0.1746210    0.0326148     0.1340828    0.8005177     0.1340557    0.8002929    -0.1779945    0.0354798 
   1.370000000    -0.1841018    0.0510401     0.1990158    0.7852294     0.1949676    0.7849466    -0.1865608    0.0459372 
   1.380000000    -0.1815437    0.0716249     0.2596327    0.7623757     0.2584910    0.7655664    -0.1921611    0.0632018 
   1.390000000    -0.1767942    0.0825088     0.3187904    0.7405224     0.3170837    0.7408814    -0.1894172    0.0778651 
   1.400000000    -0.1790801    0.0932683     0.3758996    0.7101979     0.3745075    0.7126780    -0.1869245    0.0869835 
   1.410000000    -0.1765337    0.1128838     0.4321069    0.6792310     0.4282540    0.6788803    -0.1861571    0.0977709 
   1.420000000    -0.1629800    0.1266480     0.4837357    0.6396925     0.4824953    0.6430932    -0.1823977    0.1132346 
   1.430000000    -0.1533105    0.1344826     0.5313851    0.5995666     0.5307633    0.6014320    -0.1715385    0.1258460 
   1.440000000    -0.1464308    0.1455748     0.5777810    0.5550432     0.5751081    0.5564650    -0.1625147    0.1336735 
   1.450000000    -0.1327172    0.1592720     0.6195334    0.5051053     0.6178368    0.5084055    -0.1576502    0.1424858 
   1.460000000    -0.1166788    0.1640229     0.6557047    0.4550012     0.6573309    0.4585436    -0.1483480    0.1535414 
   1.470000000    -0.1059356    0.1661930     0.6905090    0.4023244     0.6913147    0.4018549    -0.1325233    0.1586443 
   1.480000000    -0.0932370    0.1722124     0.7225729    0.3457682     0.7206405    0.3473418    -0.1208260    0.1577189 
   1.490000000    -0.0733734    0.1742729     0.7464396    0.2865328     0.7458642    0.2899360    -0.1114376    0.1606657 
   1.500000000    -0.0567759    0.1673913     0.7667904    0.2254904     0.7701638    0.2293560    -0.0973051    0.1653747 
   1.510000000    -0.0472682    0.1635394     0.7829077    0.1648436     0.7857080    0.1642732    -0.0799845    0.1635694 
   1.520000000    -0.0334450    0.1633270     0.7957342    0.1027907     0.7946528    0.1033003    -0.0703618    0.1560412 
