! 2/21/2025 7:10:01 AM
! Z:\OQC\AD5\613\LOT-141-0825\SINGLE\2-L5-4.S2P
! CHANNEL.1
! TR.MEASUREMENT
! CORRECTED.DATA
! RF.CORRECTION: FULL.FOUR.PORT.CAL.PORT.1.2.3.4
! AVERAGING.OFF
! IF.BANDWIDTH: 1KHZ
! SWEEPTYPE:  FREQ.SWEEP(Linear)
! Reference Plane Port Info
! PORT:              PORT1              PORT2             
! DISTANCE:          0  m               0  m              
! TIME:              0  s               0  s              
! PHASE.OFFSET:      0 °                0 °               
! LOSS:              0  dB              0  dB             
! REF.LOSS:          0  dB              0  dB             
! REF.FREQ:          0  Hz              0  Hz             
! Power Info
! POWER:             -10  dBm           -10  dBm          
! EFF.POWER:         -10  dBm           -10  dBm          
! SOURCE.ATTEN:      0  dB              0  dB             
! TEST.ATTEN:        0  dB              0  dB             
# GHZ S RI R 50.0
! FREQ.GHZ         S11RE         S11IM         S21RE         S21IM         S12RE         S12IM         S22RE         S22IM         
!; PortSelection: Port_12
   0.010000000     0.0085139   -0.0042340     0.9898868   -0.0448285     0.9884869   -0.0432895     0.0270541   -0.0033571 
   0.020000000     0.0107545   -0.0119681     0.9853967   -0.0911574     0.9854819   -0.0912267     0.0111243   -0.0116691 
   0.030000000     0.0094188   -0.0205468     0.9779366   -0.1360773     0.9787630   -0.1361997     0.0100296   -0.0202612 
   0.040000000     0.0071836   -0.0266076     0.9697840   -0.1808063     0.9701246   -0.1804906     0.0077321   -0.0264757 
   0.050000000     0.0066579   -0.0327721     0.9584593   -0.2237093     0.9590591   -0.2244598     0.0071959   -0.0323987 
   0.060000000     0.0052238   -0.0409556     0.9471681   -0.2662598     0.9464169   -0.2666848     0.0061181   -0.0405584 
   0.070000000     0.0013473   -0.0492086     0.9322349   -0.3088983     0.9322196   -0.3088070     0.0025296   -0.0488111 
   0.080000000    -0.0031290   -0.0555452     0.9163759   -0.3495666     0.9162428   -0.3499413    -0.0019167   -0.0553101 
   0.090000000    -0.0069847   -0.0613463     0.8970296   -0.3892771     0.8981522   -0.3897297    -0.0056069   -0.0608470 
   0.100000000    -0.0110803   -0.0679596     0.8779930   -0.4284330     0.8779898   -0.4284308    -0.0094593   -0.0675038 
   0.110000000    -0.0172697   -0.0750113     0.8568123   -0.4676197     0.8570285   -0.4670127    -0.0154697   -0.0746432 
   0.120000000    -0.0247278   -0.0797349     0.8334925   -0.5042924     0.8335771   -0.5036787    -0.0230384   -0.0796810 
   0.130000000    -0.0312619   -0.0832293     0.8094855   -0.5392419     0.8087564   -0.5397828    -0.0287146   -0.0834161 
   0.140000000    -0.0367058   -0.0880340     0.7833593   -0.5748169     0.7836745   -0.5740219    -0.0338347   -0.0889187 
   0.150000000    -0.0448483   -0.0930367     0.7559049   -0.6081703     0.7553188   -0.6075805    -0.0417662   -0.0943864 
   0.160000000    -0.0537093   -0.0952076     0.7260254   -0.6399551     0.7268113   -0.6383436    -0.0503451   -0.0969505 
   0.170000000    -0.0620968   -0.0960076     0.6980141   -0.6685100     0.6971811   -0.6686836    -0.0581178   -0.0982419 
   0.180000000    -0.0690618   -0.0967366     0.6654350   -0.6986445     0.6658468   -0.6979843    -0.0653933   -0.0997228 
   0.190000000    -0.0770309   -0.0986319     0.6336554   -0.7253556     0.6336010   -0.7250082    -0.0736280   -0.1016569 
   0.200000000    -0.0869466   -0.0995207     0.6002362   -0.7518885     0.6005581   -0.7516652    -0.0827224   -0.1032875 
   0.210000000    -0.0960048   -0.0972485     0.5662581   -0.7750382     0.5656741   -0.7744852    -0.0917412   -0.1028200 
   0.220000000    -0.1023120   -0.0955070     0.5297794   -0.7990109     0.5310062   -0.7979902    -0.0994256   -0.1015482 
   0.230000000    -0.1105716   -0.0953614     0.4935933   -0.8186282     0.4932699   -0.8199707    -0.1069212   -0.1012553 
   0.240000000    -0.1207971   -0.0926438     0.4570866   -0.8382062     0.4562517   -0.8377804    -0.1158023   -0.0992337 
   0.250000000    -0.1283641   -0.0865365     0.4205192   -0.8558721     0.4190039   -0.8548813    -0.1237528   -0.0953753 
   0.260000000    -0.1338459   -0.0827158     0.3818095   -0.8716609     0.3817715   -0.8709860    -0.1308210   -0.0919567 
   0.270000000    -0.1414197   -0.0803242     0.3426660   -0.8865330     0.3419984   -0.8868008    -0.1379215   -0.0888199 
   0.280000000    -0.1498339   -0.0750507     0.3047324   -0.8982763     0.3038851   -0.8986923    -0.1450532   -0.0849799 
   0.290000000    -0.1562081   -0.0676145     0.2648798   -0.9099868     0.2631569   -0.9091902    -0.1522275   -0.0798005 
   0.300000000    -0.1606831   -0.0617052     0.2258514   -0.9190673     0.2245893   -0.9181429    -0.1586756   -0.0744238 
   0.310000000    -0.1661643   -0.0558946     0.1852503   -0.9267130     0.1851702   -0.9255034    -0.1637632   -0.0678492 
   0.320000000    -0.1724465   -0.0486447     0.1455203   -0.9317421     0.1451441   -0.9317598    -0.1692355   -0.0614577 
   0.330000000    -0.1767013   -0.0399230     0.1046561   -0.9361965     0.1048348   -0.9345173    -0.1741591   -0.0552988 
   0.340000000    -0.1780506   -0.0321370     0.0641538   -0.9384940     0.0646060   -0.9389502    -0.1779446   -0.0479789 
   0.350000000    -0.1808846   -0.0260294     0.0238704   -0.9397554     0.0242664   -0.9394298    -0.1810847   -0.0415274 
   0.360000000    -0.1856066   -0.0174334    -0.0161637   -0.9378334    -0.0155353   -0.9383887    -0.1848101   -0.0345508 
   0.370000000    -0.1866264   -0.0072250    -0.0548664   -0.9352516    -0.0561870   -0.9351467    -0.1873975   -0.0264955 
   0.380000000    -0.1866607    0.0002262    -0.0950722   -0.9310436    -0.0953128   -0.9307628    -0.1892955   -0.0187244 
   0.390000000    -0.1878916    0.0087041    -0.1347515   -0.9256144    -0.1333167   -0.9265491    -0.1908862   -0.0095647 
   0.400000000    -0.1869521    0.0178264    -0.1736081   -0.9178473    -0.1731105   -0.9180493    -0.1899483   -0.0015399 
   0.410000000    -0.1851657    0.0247798    -0.2122991   -0.9085225    -0.2125337   -0.9091912    -0.1895872    0.0039428 
   0.420000000    -0.1842019    0.0329437    -0.2504335   -0.8987128    -0.2502627   -0.8975244    -0.1907972    0.0118235 
   0.430000000    -0.1818896    0.0424976    -0.2877579   -0.8855645    -0.2869115   -0.8865399    -0.1895805    0.0209550 
   0.440000000    -0.1785150    0.0501120    -0.3253839   -0.8719562    -0.3241367   -0.8735462    -0.1866630    0.0285279 
   0.450000000    -0.1764246    0.0571644    -0.3603874   -0.8578106    -0.3626391   -0.8570065    -0.1853877    0.0349053 
   0.460000000    -0.1729260    0.0666397    -0.3972467   -0.8416086    -0.3979928   -0.8408474    -0.1834106    0.0430891 
   0.470000000    -0.1664282    0.0731333    -0.4326435   -0.8233863    -0.4317297   -0.8246703    -0.1787660    0.0504418 
   0.480000000    -0.1597532    0.0780395    -0.4660991   -0.8032172    -0.4657252   -0.8047457    -0.1738204    0.0561787 
   0.490000000    -0.1561663    0.0830633    -0.4993644   -0.7835991    -0.5022793   -0.7823289    -0.1699967    0.0606372 
   0.500000000    -0.1510899    0.0906131    -0.5330684   -0.7602623    -0.5344616   -0.7593370    -0.1668248    0.0662378 
   0.510000000    -0.1441983    0.0980890    -0.5646665   -0.7375374    -0.5634874   -0.7370422    -0.1629952    0.0730891 
   0.520000000    -0.1352213    0.1014489    -0.5948018   -0.7127444    -0.5963673   -0.7118317    -0.1558779    0.0793224 
   0.530000000    -0.1292935    0.1040089    -0.6247666   -0.6859600    -0.6245947   -0.6880479    -0.1483759    0.0817678 
   0.540000000    -0.1234569    0.1075307    -0.6530067   -0.6593384    -0.6545232   -0.6597642    -0.1435855    0.0830995 
   0.550000000    -0.1129236    0.1114300    -0.6799721   -0.6304104    -0.6807491   -0.6320893    -0.1384834    0.0875580 
   0.560000000    -0.1032528    0.1102970    -0.7067324   -0.6020187    -0.7073701   -0.6023719    -0.1300778    0.0905896 
   0.570000000    -0.0994328    0.1117338    -0.7321417   -0.5703941    -0.7327433   -0.5710471    -0.1233783    0.0918940 
   0.580000000    -0.0915673    0.1188795    -0.7550101   -0.5393808    -0.7565311   -0.5390645    -0.1184285    0.0947903 
   0.590000000    -0.0782719    0.1186244    -0.7795395   -0.5063378    -0.7778504   -0.5057828    -0.1116740    0.0980165 
   0.600000000    -0.0712905    0.1131272    -0.8001848   -0.4716244    -0.7984067   -0.4732746    -0.1022329    0.0989282 
   0.610000000    -0.0668975    0.1126415    -0.8193318   -0.4369629    -0.8198815   -0.4376910    -0.0954499    0.0953138 
   0.620000000    -0.0572604    0.1134758    -0.8365911   -0.4025037    -0.8365503   -0.4012266    -0.0904799    0.0914150 
   0.630000000    -0.0468422    0.1096826    -0.8535435   -0.3654660    -0.8545762   -0.3668700    -0.0876155    0.0926933 
   0.640000000    -0.0410279    0.1043689    -0.8682304   -0.3300678    -0.8693689   -0.3291547    -0.0776512    0.0949523 
   0.650000000    -0.0362175    0.1025982    -0.8813281   -0.2922603    -0.8832787   -0.2919358    -0.0685767    0.0899617 
   0.660000000    -0.0272771    0.1022796    -0.8942789   -0.2538089    -0.8939173   -0.2530262    -0.0653531    0.0856670 
   0.670000000    -0.0179819    0.0951506    -0.9042323   -0.2138028    -0.9051126   -0.2149296    -0.0615321    0.0848061 
   0.680000000    -0.0146026    0.0851148    -0.9123558   -0.1749927    -0.9127007   -0.1755243    -0.0542303    0.0818555 
   0.690000000    -0.0135044    0.0802347    -0.9200424   -0.1381490    -0.9215131   -0.1366703    -0.0484965    0.0738344 
   0.700000000    -0.0051256    0.0783256    -0.9257632   -0.0962209    -0.9254668   -0.0953092    -0.0479516    0.0677406 
   0.710000000     0.0035157    0.0695899    -0.9281133   -0.0553935    -0.9286219   -0.0561940    -0.0461808    0.0657120 
   0.720000000     0.0044063    0.0614683    -0.9301363   -0.0155495    -0.9299433   -0.0164959    -0.0402740    0.0647259 
   0.730000000     0.0061399    0.0575223    -0.9304973    0.0245758    -0.9302880    0.0264964    -0.0328449    0.0582975 
   0.740000000     0.0124503    0.0501529    -0.9284822    0.0669713    -0.9276427    0.0668909    -0.0314519    0.0486940 
   0.750000000     0.0136929    0.0382044    -0.9231393    0.1071277    -0.9235233    0.1055603    -0.0349064    0.0420241 
   0.760000000     0.0121385    0.0302943    -0.9187129    0.1471286    -0.9195833    0.1474425    -0.0343559    0.0405393 
   0.770000000     0.0134395    0.0248334    -0.9106391    0.1856186    -0.9108770    0.1879263    -0.0290302    0.0331862 
   0.780000000     0.0154544    0.0169321    -0.9036684    0.2246102    -0.9017698    0.2258383    -0.0300269    0.0248273 
   0.790000000     0.0149446    0.0084353    -0.8918015    0.2657825    -0.8909366    0.2657013    -0.0327427    0.0207067 
   0.800000000     0.0119481    0.0014852    -0.8782883    0.3022039    -0.8778467    0.3040289    -0.0305970    0.0183479 
   0.810000000     0.0110818   -0.0073505    -0.8635550    0.3415340    -0.8641220    0.3428474    -0.0303781    0.0084913 
   0.820000000     0.0081498   -0.0182852    -0.8474937    0.3761379    -0.8466454    0.3781643    -0.0344884   -0.0022096 
   0.830000000     0.0016382   -0.0240961    -0.8329418    0.4156781    -0.8312387    0.4156071    -0.0434434   -0.0044275 
   0.840000000    -0.0010182   -0.0272212    -0.8097814    0.4518901    -0.8102977    0.4527512    -0.0432497   -0.0042265 
   0.850000000    -0.0019384   -0.0332752    -0.7898664    0.4838829    -0.7897956    0.4849606    -0.0421495   -0.0102064 
   0.860000000    -0.0079670   -0.0448354    -0.7674581    0.5211026    -0.7672125    0.5219148    -0.0460574   -0.0203525 
   0.870000000    -0.0184343   -0.0483278    -0.7417124    0.5521599    -0.7425734    0.5527737    -0.0551998   -0.0231191 
   0.880000000    -0.0228050   -0.0500504    -0.7190838    0.5831757    -0.7175035    0.5838698    -0.0599849   -0.0232289 
   0.890000000    -0.0254148   -0.0586028    -0.6922225    0.6138154    -0.6902909    0.6152130    -0.0612927   -0.0269135 
   0.900000000    -0.0364246   -0.0663441    -0.6639873    0.6416175    -0.6633438    0.6410424    -0.0690598   -0.0349109 
   0.910000000    -0.0464977   -0.0644908    -0.6354585    0.6711516    -0.6357514    0.6708426    -0.0791675   -0.0344138 
   0.920000000    -0.0488340   -0.0633712    -0.6012942    0.6979497    -0.6035836    0.6964117    -0.0827946   -0.0324813 
   0.930000000    -0.0533145   -0.0712930    -0.5722399    0.7220723    -0.5731508    0.7231567    -0.0828381   -0.0345869 
   0.940000000    -0.0671887   -0.0760750    -0.5391594    0.7474965    -0.5384937    0.7468976    -0.0886122   -0.0409648 
   0.950000000    -0.0774879   -0.0726340    -0.5061752    0.7671176    -0.5052920    0.7659373    -0.1003764   -0.0421716 
   0.960000000    -0.0821250   -0.0710080    -0.4725641    0.7884641    -0.4728122    0.7873224    -0.1103658   -0.0357628 
   0.970000000    -0.0879510   -0.0736837    -0.4372166    0.8085123    -0.4368561    0.8071902    -0.1110964   -0.0314539 
   0.980000000    -0.0996274   -0.0741806    -0.3992303    0.8246663    -0.4025349    0.8240068    -0.1145256   -0.0347634 
   0.990000000    -0.1082061   -0.0682954    -0.3635009    0.8394058    -0.3663099    0.8414646    -0.1247571   -0.0367896 
   1.000000000    -0.1115660   -0.0648295    -0.3286212    0.8528870    -0.3277498    0.8528423    -0.1314307   -0.0298332 
   1.010000000    -0.1189812   -0.0680583    -0.2907459    0.8654337    -0.2914825    0.8663245    -0.1322061   -0.0266798 
   1.020000000    -0.1333487   -0.0639755    -0.2529745    0.8776827    -0.2515075    0.8750669    -0.1383731   -0.0276753 
   1.030000000    -0.1384913   -0.0537080    -0.2139968    0.8861507    -0.2152204    0.8835227    -0.1499985   -0.0223528 
   1.040000000    -0.1401038   -0.0497983    -0.1754927    0.8934865    -0.1775528    0.8941054    -0.1547225   -0.0118739 
   1.050000000    -0.1476377   -0.0494729    -0.1363865    0.8996664    -0.1376498    0.8983554    -0.1541812   -0.0080119 
   1.060000000    -0.1578520   -0.0412678    -0.0974685    0.9017442    -0.1020625    0.9042034    -0.1560416   -0.0078627 
   1.070000000    -0.1602191   -0.0309647    -0.0601022    0.9052026    -0.0575444    0.9056450    -0.1653179   -0.0062031 
   1.080000000    -0.1626769   -0.0288064    -0.0215773    0.9060256    -0.0205499    0.9052177    -0.1719652    0.0043781 
   1.090000000    -0.1714403   -0.0236700     0.0176742    0.9050884     0.0173560    0.9040129    -0.1702095    0.0149781 
   1.100000000    -0.1772761   -0.0119467     0.0552658    0.9046904     0.0551461    0.9005077    -0.1689832    0.0175307 
   1.110000000    -0.1756715   -0.0019126     0.0968659    0.8978808     0.0926031    0.8994689    -0.1751370    0.0201370 
   1.120000000    -0.1760828    0.0020305     0.1319186    0.8905520     0.1317519    0.8942208    -0.1808944    0.0310751 
   1.130000000    -0.1817278    0.0071159     0.1687969    0.8850654     0.1706088    0.8846377    -0.1774211    0.0417306 
   1.140000000    -0.1857856    0.0191451     0.2066101    0.8760183     0.2049213    0.8767875    -0.1733999    0.0428268 
   1.150000000    -0.1827919    0.0303355     0.2433750    0.8675797     0.2440798    0.8666301    -0.1777672    0.0452243 
   1.160000000    -0.1818387    0.0342800     0.2813951    0.8548092     0.2782267    0.8541466    -0.1823047    0.0565811 
   1.170000000    -0.1847805    0.0426955     0.3157700    0.8412209     0.3139679    0.8411591    -0.1780073    0.0684151 
   1.180000000    -0.1827878    0.0538838     0.3522238    0.8269042     0.3472410    0.8273258    -0.1714435    0.0728700 
   1.190000000    -0.1774920    0.0602426     0.3854299    0.8091503     0.3842249    0.8136908    -0.1707535    0.0734473 
   1.200000000    -0.1772588    0.0646060     0.4195839    0.7917809     0.4186522    0.7933559    -0.1735024    0.0811294 
   1.210000000    -0.1770727    0.0754277     0.4516367    0.7727230     0.4509417    0.7737943    -0.1689155    0.0923585 
   1.220000000    -0.1696814    0.0848499     0.4836373    0.7547811     0.4803644    0.7549207    -0.1612725    0.0970793 
   1.230000000    -0.1653609    0.0881948     0.5168429    0.7324150     0.5129682    0.7344434    -0.1591346    0.0990852 
   1.240000000    -0.1645899    0.0957101     0.5444912    0.7091238     0.5452143    0.7098414    -0.1592771    0.1069454 
   1.250000000    -0.1580002    0.1059217     0.5724375    0.6859934     0.5732016    0.6851800    -0.1519246    0.1149577 
   1.260000000    -0.1482890    0.1087743     0.6022905    0.6616513     0.6006570    0.6628394    -0.1432620    0.1160391 
   1.270000000    -0.1447682    0.1094363     0.6291265    0.6349394     0.6294994    0.6366414    -0.1405226    0.1161865 
   1.280000000    -0.1426694    0.1175262     0.6562065    0.6069009     0.6545422    0.6079240    -0.1384752    0.1226232 
   1.290000000    -0.1321166    0.1272851     0.6800466    0.5769286     0.6796435    0.5796974    -0.1301513    0.1306897 
   1.300000000    -0.1197469    0.1281847     0.7035320    0.5504353     0.7019534    0.5503736    -0.1195786    0.1320819 
   1.310000000    -0.1164789    0.1258171     0.7277541    0.5189067     0.7271261    0.5231830    -0.1147487    0.1299696 
   1.320000000    -0.1150979    0.1323352     0.7490078    0.4867836     0.7491215    0.4899600    -0.1146729    0.1320079 
   1.330000000    -0.1031683    0.1400338     0.7668595    0.4557034     0.7680531    0.4581126    -0.1087554    0.1391160 
   1.340000000    -0.0891914    0.1365646     0.7857587    0.4235535     0.7859388    0.4252239    -0.0953567    0.1400172 
   1.350000000    -0.0860445    0.1308478     0.8037806    0.3897940     0.8047360    0.3917655    -0.0872908    0.1342422 
   1.360000000    -0.0834037    0.1372121     0.8206840    0.3550240     0.8209499    0.3554970    -0.0859627    0.1333144 
   1.370000000    -0.0689328    0.1422061     0.8343034    0.3195827     0.8341521    0.3230990    -0.0805973    0.1389054 
   1.380000000    -0.0573629    0.1353071     0.8464596    0.2830394     0.8481053    0.2843395    -0.0693421    0.1396260 
   1.390000000    -0.0563172    0.1297966     0.8588321    0.2484102     0.8594790    0.2503009    -0.0630594    0.1330019 
   1.400000000    -0.0523011    0.1342422     0.8690687    0.2110175     0.8700811    0.2128347    -0.0614467    0.1291029 
   1.410000000    -0.0380333    0.1329672     0.8782121    0.1748298     0.8779035    0.1769553    -0.0564247    0.1290392 
   1.420000000    -0.0298728    0.1225706     0.8850175    0.1364746     0.8864421    0.1371963    -0.0464809    0.1275015 
   1.430000000    -0.0281731    0.1181950     0.8904969    0.0992132     0.8906351    0.0992472    -0.0388413    0.1205248 
   1.440000000    -0.0215246    0.1192711     0.8947703    0.0599644     0.8948489    0.0626211    -0.0375267    0.1159825 
   1.450000000    -0.0104470    0.1139272     0.8956404    0.0216407     0.8970919    0.0221877    -0.0352992    0.1163985 
   1.460000000    -0.0071993    0.1044531     0.8963754   -0.0165699     0.8977404   -0.0159569    -0.0273407    0.1140513 
   1.470000000    -0.0069122    0.1007349     0.8939548   -0.0545484     0.8949105   -0.0559040    -0.0221216    0.1033427 
   1.480000000     0.0005343    0.0982788     0.8932563   -0.0948569     0.8934553   -0.0931324    -0.0239652    0.0963338 
   1.490000000     0.0091946    0.0875189     0.8869058   -0.1324714     0.8878105   -0.1311764    -0.0215716    0.0952808 
   1.500000000     0.0085365    0.0762560     0.8813735   -0.1713298     0.8833339   -0.1701412    -0.0140185    0.0917591 
   1.510000000     0.0074410    0.0747687     0.8723796   -0.2077124     0.8733863   -0.2094786    -0.0096482    0.0815519 
   1.520000000     0.0142433    0.0717060     0.8651051   -0.2459502     0.8645159   -0.2440812    -0.0140186    0.0740188 
