! 2/21/2025 7:19:11 AM
! Z:\OQC\AD5\613\LOT-141-0825\SINGLE\2-L7-8.S2P
! CHANNEL.1
! TR.MEASUREMENT
! CORRECTED.DATA
! RF.CORRECTION: FULL.FOUR.PORT.CAL.PORT.1.2.3.4
! AVERAGING.OFF
! IF.BANDWIDTH: 1KHZ
! SWEEPTYPE:  FREQ.SWEEP(Linear)
! Reference Plane Port Info
! PORT:              PORT1              PORT2             
! DISTANCE:          0  m               0  m              
! TIME:              0  s               0  s              
! PHASE.OFFSET:      0 °                0 °               
! LOSS:              0  dB              0  dB             
! REF.LOSS:          0  dB              0  dB             
! REF.FREQ:          0  Hz              0  Hz             
! Power Info
! POWER:             -10  dBm           -10  dBm          
! EFF.POWER:         -10  dBm           -10  dBm          
! SOURCE.ATTEN:      0  dB              0  dB             
! TEST.ATTEN:        0  dB              0  dB             
# GHZ S RI R 50.0
! FREQ.GHZ         S11RE         S11IM         S21RE         S21IM         S12RE         S12IM         S22RE         S22IM         
!; PortSelection: Port_12
   0.010000000     0.0133002   -0.0175597     0.9803614   -0.0897218     0.9804659   -0.0895580     0.0135545   -0.0173968 
   0.020000000     0.0122306   -0.0401789     0.9650815   -0.1777461     0.9650638   -0.1777513     0.0123495   -0.0398004 
   0.030000000     0.0041864   -0.0624626     0.9409862   -0.2620136     0.9416745   -0.2622752     0.0041384   -0.0619383 
   0.040000000    -0.0070296   -0.0807606     0.9109171   -0.3432938     0.9111759   -0.3434142    -0.0076603   -0.0801446 
   0.050000000    -0.0193201   -0.0982825     0.8724599   -0.4198860     0.8736269   -0.4201996    -0.0204183   -0.0970821 
   0.060000000    -0.0353274   -0.1149520     0.8297063   -0.4926459     0.8295494   -0.4927275    -0.0365969   -0.1132804 
   0.070000000    -0.0554395   -0.1281624     0.7785409   -0.5598531     0.7791399   -0.5603008    -0.0568539   -0.1256811 
   0.080000000    -0.0763576   -0.1366341     0.7245392   -0.6223695     0.7248763   -0.6217834    -0.0784059   -0.1334199 
   0.090000000    -0.0970841   -0.1421369     0.6646861   -0.6773224     0.6648823   -0.6783710    -0.0993002   -0.1377250 
   0.100000000    -0.1190153   -0.1454190     0.6007589   -0.7273215     0.6011999   -0.7278048    -0.1216932   -0.1398762 
   0.110000000    -0.1429692   -0.1445572     0.5337718   -0.7714310     0.5352390   -0.7713092    -0.1454547   -0.1377293 
   0.120000000    -0.1648403   -0.1383249     0.4661323   -0.8084927     0.4663675   -0.8095547    -0.1677259   -0.1301233 
   0.130000000    -0.1841822   -0.1304799     0.3945300   -0.8399270     0.3954524   -0.8401774    -0.1864686   -0.1210579 
   0.140000000    -0.2027650   -0.1211071     0.3225756   -0.8661133     0.3228677   -0.8663682    -0.2049150   -0.1110155 
   0.150000000    -0.2206051   -0.1070696     0.2478933   -0.8835683     0.2479098   -0.8843644    -0.2226313   -0.0957154 
   0.160000000    -0.2348145   -0.0901002     0.1758037   -0.8976073     0.1759917   -0.8972855    -0.2361691   -0.0770314 
   0.170000000    -0.2454147   -0.0720783     0.1028293   -0.9045088     0.1020298   -0.9046096    -0.2459136   -0.0581331 
   0.180000000    -0.2534927   -0.0539059     0.0288016   -0.9070571     0.0288218   -0.9074430    -0.2533092   -0.0384812 
   0.190000000    -0.2604811   -0.0347966    -0.0441812   -0.9024816    -0.0442522   -0.9028447    -0.2584788   -0.0177614 
   0.200000000    -0.2637604   -0.0132285    -0.1153786   -0.8942938    -0.1163191   -0.8942117    -0.2606097    0.0039861 
   0.210000000    -0.2618940    0.0069724    -0.1859190   -0.8803728    -0.1856045   -0.8801214    -0.2579765    0.0252679 
   0.220000000    -0.2584347    0.0247756    -0.2562679   -0.8606928    -0.2555326   -0.8606998    -0.2522027    0.0451272 
   0.230000000    -0.2539380    0.0437739    -0.3228062   -0.8349484    -0.3234392   -0.8362455    -0.2445777    0.0641405 
   0.240000000    -0.2442455    0.0627051    -0.3876920   -0.8063366    -0.3880141   -0.8066655    -0.2335453    0.0829926 
   0.250000000    -0.2311682    0.0775730    -0.4513697   -0.7733706    -0.4503436   -0.7725558    -0.2192981    0.0987014 
   0.260000000    -0.2184508    0.0895093    -0.5115463   -0.7331937    -0.5122308   -0.7341930    -0.2037790    0.1113157 
   0.270000000    -0.2052658    0.1015651    -0.5695560   -0.6898541    -0.5698311   -0.6907747    -0.1871885    0.1224488 
   0.280000000    -0.1876022    0.1114612    -0.6223283   -0.6436763    -0.6234235   -0.6434082    -0.1684992    0.1305905 
   0.290000000    -0.1687597    0.1165582    -0.6735948   -0.5915575    -0.6747202   -0.5903490    -0.1480691    0.1358682 
   0.300000000    -0.1514659    0.1183255    -0.7201516   -0.5353674    -0.7209678   -0.5348126    -0.1274761    0.1379038 
   0.310000000    -0.1339232    0.1194548    -0.7634644   -0.4743489    -0.7634723   -0.4743364    -0.1070216    0.1355772 
   0.320000000    -0.1153387    0.1168093    -0.8012266   -0.4096241    -0.8015801   -0.4094418    -0.0875258    0.1311467 
   0.330000000    -0.0972338    0.1092095    -0.8326339   -0.3437179    -0.8327985   -0.3425098    -0.0687187    0.1228721 
   0.340000000    -0.0837687    0.0998924    -0.8601618   -0.2739152    -0.8617579   -0.2730267    -0.0519963    0.1116063 
   0.350000000    -0.0701922    0.0912140    -0.8806435   -0.1997355    -0.8809566   -0.2002228    -0.0373502    0.0987945 
   0.360000000    -0.0564780    0.0784113    -0.8950151   -0.1261626    -0.8958221   -0.1269186    -0.0244876    0.0834838 
   0.370000000    -0.0480070    0.0618001    -0.9032537   -0.0510814    -0.9033817   -0.0497674    -0.0143961    0.0658985 
   0.380000000    -0.0429561    0.0457583    -0.9047720    0.0263274    -0.9050573    0.0272800    -0.0076053    0.0465960 
   0.390000000    -0.0387831    0.0291336    -0.8994970    0.1026458    -0.9002898    0.1033138    -0.0042489    0.0258251 
   0.400000000    -0.0390536    0.0108895    -0.8872082    0.1788085    -0.8873009    0.1781274    -0.0059105    0.0054196 
   0.410000000    -0.0419473   -0.0050096    -0.8677098    0.2524805    -0.8684390    0.2527999    -0.0092486   -0.0122495 
   0.420000000    -0.0461413   -0.0208843    -0.8428529    0.3243936    -0.8419266    0.3261582    -0.0138654   -0.0311266 
   0.430000000    -0.0545480   -0.0364772    -0.8107620    0.3939668    -0.8107026    0.3941819    -0.0238217   -0.0495113 
   0.440000000    -0.0660117   -0.0485743    -0.7719535    0.4620431    -0.7733542    0.4606483    -0.0373753   -0.0640112 
   0.450000000    -0.0781666   -0.0599271    -0.7296603    0.5227899    -0.7287852    0.5242436    -0.0514509   -0.0765424 
   0.460000000    -0.0938823   -0.0699885    -0.6805748    0.5812775    -0.6792520    0.5836459    -0.0689743   -0.0878311 
   0.470000000    -0.1116501   -0.0757317    -0.6285167    0.6354924    -0.6282333    0.6337953    -0.0889299   -0.0954724 
   0.480000000    -0.1277030   -0.0777262    -0.5707958    0.6843029    -0.5704767    0.6830634    -0.1078109   -0.0987120 
   0.490000000    -0.1423717   -0.0781470    -0.5093269    0.7260499    -0.5084050    0.7268214    -0.1260811   -0.1001204 
   0.500000000    -0.1592024   -0.0771810    -0.4450341    0.7627961    -0.4453460    0.7631721    -0.1438939   -0.0983832 
   0.510000000    -0.1780465   -0.0722073    -0.3802013    0.7943901    -0.3789978    0.7942620    -0.1633835   -0.0951675 
   0.520000000    -0.1934861   -0.0620986    -0.3125968    0.8186742    -0.3121759    0.8191522    -0.1828832   -0.0865208 
   0.530000000    -0.2060277   -0.0520447    -0.2441381    0.8402715    -0.2448282    0.8386848    -0.1981576   -0.0732199 
   0.540000000    -0.2184342   -0.0425060    -0.1741969    0.8537363    -0.1730751    0.8545566    -0.2104836   -0.0616638 
   0.550000000    -0.2298365   -0.0270958    -0.1041460    0.8623840    -0.1044240    0.8616080    -0.2226169   -0.0486490 
   0.560000000    -0.2344974   -0.0093123    -0.0339259    0.8647344    -0.0359652    0.8656414    -0.2323421   -0.0312866 
   0.570000000    -0.2379365    0.0032324     0.0352291    0.8624569     0.0338044    0.8631677    -0.2374273   -0.0133610 
   0.580000000    -0.2455207    0.0198143     0.1021225    0.8541855     0.1038717    0.8554215    -0.2417763    0.0038471 
   0.590000000    -0.2454083    0.0423372     0.1705873    0.8426143     0.1712920    0.8392413    -0.2449059    0.0226400 
   0.600000000    -0.2399216    0.0583395     0.2376279    0.8245319     0.2355994    0.8247824    -0.2437756    0.0441778 
   0.610000000    -0.2355629    0.0710019     0.3015727    0.8020378     0.3026002    0.8016617    -0.2365599    0.0613523 
   0.620000000    -0.2302770    0.0879338     0.3650043    0.7743917     0.3648987    0.7740268    -0.2281406    0.0750680 
   0.630000000    -0.2182229    0.1028723     0.4249606    0.7415785     0.4247828    0.7437614    -0.2210190    0.0881764 
   0.640000000    -0.2040042    0.1136234     0.4810285    0.7057357     0.4832581    0.7074961    -0.2112910    0.1056486 
   0.650000000    -0.1928192    0.1226992     0.5364028    0.6662501     0.5373631    0.6659768    -0.1944850    0.1184494 
   0.660000000    -0.1803736    0.1351193     0.5887375    0.6212149     0.5890534    0.6205392    -0.1792569    0.1260040 
   0.670000000    -0.1615918    0.1420648     0.6381785    0.5730335     0.6360667    0.5715244    -0.1654173    0.1335200 
   0.680000000    -0.1437598    0.1411969     0.6810111    0.5189134     0.6819472    0.5207066    -0.1485409    0.1399177 
   0.690000000    -0.1298175    0.1389268     0.7216002    0.4639106     0.7243623    0.4648037    -0.1282399    0.1396540 
   0.700000000    -0.1136887    0.1409591     0.7597780    0.4041943     0.7593927    0.4039216    -0.1117712    0.1342135 
   0.710000000    -0.0925106    0.1381150     0.7897796    0.3405420     0.7926676    0.3403884    -0.0986946    0.1312126 
   0.720000000    -0.0785545    0.1280324     0.8170314    0.2740328     0.8158093    0.2753941    -0.0828225    0.1285197 
   0.730000000    -0.0665649    0.1207048     0.8388419    0.2065655     0.8387370    0.2080224    -0.0633442    0.1211957 
   0.740000000    -0.0523736    0.1106598     0.8545482    0.1363731     0.8532750    0.1357992    -0.0500692    0.1064674 
   0.750000000    -0.0410425    0.0931277     0.8628625    0.0649552     0.8632195    0.0663117    -0.0437837    0.0903863 
   0.760000000    -0.0357857    0.0769816     0.8662042   -0.0066747     0.8683107   -0.0070039    -0.0380167    0.0790277 
   0.770000000    -0.0303861    0.0634936     0.8625845   -0.0800818     0.8631691   -0.0804970    -0.0281310    0.0633462 
   0.780000000    -0.0256898    0.0468160     0.8550686   -0.1520151     0.8538065   -0.1519175    -0.0258452    0.0436997 
   0.790000000    -0.0263742    0.0293155     0.8374725   -0.2245151     0.8374592   -0.2230127    -0.0282770    0.0287658 
   0.800000000    -0.0308513    0.0135600     0.8161678   -0.2921318     0.8145041   -0.2931949    -0.0284290    0.0153880 
   0.810000000    -0.0352386   -0.0038654     0.7873472   -0.3599210     0.7875090   -0.3620800    -0.0328604   -0.0042097 
   0.820000000    -0.0451322   -0.0215988     0.7540897   -0.4233011     0.7535368   -0.4235804    -0.0446289   -0.0226982 
   0.830000000    -0.0582704   -0.0323939     0.7166727   -0.4869491     0.7147800   -0.4872617    -0.0603362   -0.0313064 
   0.840000000    -0.0688804   -0.0402983     0.6679773   -0.5448215     0.6694902   -0.5435214    -0.0687777   -0.0386181 
   0.850000000    -0.0800061   -0.0499744     0.6194728   -0.5961209     0.6209632   -0.5964632    -0.0791965   -0.0490107 
   0.860000000    -0.0986031   -0.0598181     0.5657684   -0.6465004     0.5654445   -0.6467282    -0.0975949   -0.0595509 
   0.870000000    -0.1177766   -0.0599968     0.5085688   -0.6875138     0.5083811   -0.6884676    -0.1171287   -0.0595241 
   0.880000000    -0.1312599   -0.0594713     0.4503148   -0.7272419     0.4486867   -0.7253416    -0.1321070   -0.0569585 
   0.890000000    -0.1473091   -0.0625059     0.3869162   -0.7592051     0.3844448   -0.7575369    -0.1466419   -0.0565777 
   0.900000000    -0.1678228   -0.0572851     0.3205346   -0.7851513     0.3220120   -0.7834257    -0.1667446   -0.0529995 
   0.910000000    -0.1811324   -0.0454331     0.2547534   -0.8068318     0.2566810   -0.8064432    -0.1820997   -0.0418044 
   0.920000000    -0.1893632   -0.0370258     0.1859251   -0.8217825     0.1896133   -0.8225942    -0.1911885   -0.0311918 
   0.930000000    -0.2045745   -0.0310795     0.1185968   -0.8319212     0.1187689   -0.8334165    -0.2005887   -0.0234561 
   0.940000000    -0.2196254   -0.0150464     0.0505564   -0.8365294     0.0497647   -0.8362269    -0.2143718   -0.0117689 
   0.950000000    -0.2242656    0.0019074    -0.0175049   -0.8355833    -0.0140840   -0.8335441    -0.2241772    0.0078414 
   0.960000000    -0.2275391    0.0154859    -0.0833453   -0.8302799    -0.0821752   -0.8297639    -0.2253657    0.0278392 
   0.970000000    -0.2327935    0.0286227    -0.1492951   -0.8195568    -0.1484492   -0.8187616    -0.2250677    0.0406624 
   0.980000000    -0.2354596    0.0480755    -0.2158170   -0.8011618    -0.2125619   -0.8033173    -0.2272461    0.0538352 
   0.990000000    -0.2300889    0.0652617    -0.2750582   -0.7787225    -0.2757230   -0.7815229    -0.2279919    0.0731218 
   1.000000000    -0.2256545    0.0764426    -0.3368627   -0.7562253    -0.3369242   -0.7559350    -0.2185548    0.0899569 
   1.010000000    -0.2247079    0.0910630    -0.3952694   -0.7257295    -0.3950818   -0.7253580    -0.2107459    0.1004367 
   1.020000000    -0.2147001    0.1101505    -0.4525054   -0.6926312    -0.4508024   -0.6909736    -0.2045461    0.1155693 
   1.030000000    -0.1993047    0.1195746    -0.5065585   -0.6515918    -0.5050687   -0.6550148    -0.1914045    0.1327568 
   1.040000000    -0.1882690    0.1255842    -0.5548911   -0.6111161    -0.5561674   -0.6126420    -0.1740710    0.1408632 
   1.050000000    -0.1795896    0.1357078    -0.6038883   -0.5641069    -0.6035370   -0.5666273    -0.1596942    0.1438916 
   1.060000000    -0.1617208    0.1448866    -0.6461473   -0.5133654    -0.6475434   -0.5172635    -0.1494206    0.1482252 
   1.070000000    -0.1453250    0.1441161    -0.6870826   -0.4613891    -0.6886024   -0.4605308    -0.1327687    0.1570305 
   1.080000000    -0.1343418    0.1454910    -0.7233990   -0.4046479    -0.7221541   -0.4041123    -0.1109870    0.1571781 
   1.090000000    -0.1181095    0.1476430    -0.7552946   -0.3461359    -0.7546617   -0.3436059    -0.0939472    0.1501843 
   1.100000000    -0.0995961    0.1423500    -0.7821184   -0.2825908    -0.7811753   -0.2841595    -0.0815287    0.1448543 
   1.110000000    -0.0866354    0.1315348    -0.8017464   -0.2174753    -0.8059546   -0.2188974    -0.0676138    0.1422702 
   1.120000000    -0.0779647    0.1249058    -0.8179814   -0.1526878    -0.8202828   -0.1510884    -0.0491174    0.1306768 
   1.130000000    -0.0656867    0.1189473    -0.8307457   -0.0843280    -0.8304271   -0.0834458    -0.0383429    0.1131534 
   1.140000000    -0.0527258    0.1048300    -0.8350412   -0.0140395    -0.8359813   -0.0153268    -0.0343346    0.1009411 
   1.150000000    -0.0482537    0.0877402    -0.8349088    0.0556669    -0.8348624    0.0540468    -0.0248710    0.0914111 
   1.160000000    -0.0462921    0.0762624    -0.8283776    0.1247520    -0.8277391    0.1247689    -0.0147720    0.0736522 
   1.170000000    -0.0420357    0.0620364    -0.8153738    0.1933335    -0.8148542    0.1935899    -0.0147456    0.0512300 
   1.180000000    -0.0427685    0.0432057    -0.7963218    0.2613985    -0.7972677    0.2605846    -0.0217442    0.0338473 
   1.190000000    -0.0500553    0.0291507    -0.7706148    0.3284371    -0.7719911    0.3280379    -0.0249197    0.0223112 
   1.200000000    -0.0538858    0.0182400    -0.7396066    0.3910455    -0.7401139    0.3906086    -0.0266315    0.0049626 
   1.210000000    -0.0601259    0.0020988    -0.7034011    0.4525989    -0.7043993    0.4515225    -0.0366920   -0.0144560 
   1.220000000    -0.0742796   -0.0099363    -0.6629491    0.5089390    -0.6615309    0.5078429    -0.0519976   -0.0251192 
   1.230000000    -0.0870321   -0.0153716    -0.6160372    0.5632575    -0.6159706    0.5612432    -0.0636042   -0.0321725 
   1.240000000    -0.0982898   -0.0241454    -0.5658203    0.6101773    -0.5653338    0.6095008    -0.0770549   -0.0433194 
   1.250000000    -0.1164281   -0.0321846    -0.5114126    0.6532583    -0.5104390    0.6535569    -0.0979168   -0.0515941 
   1.260000000    -0.1350949   -0.0307961    -0.4548875    0.6918994    -0.4536406    0.6911413    -0.1175789   -0.0510844 
   1.270000000    -0.1468435   -0.0284411    -0.3930542    0.7252698    -0.3946655    0.7244127    -0.1315410   -0.0504810 
   1.280000000    -0.1606726   -0.0300653    -0.3302753    0.7540091    -0.3314641    0.7519720    -0.1473244   -0.0519347 
   1.290000000    -0.1809600   -0.0253264    -0.2641867    0.7747390    -0.2671140    0.7739806    -0.1680988   -0.0482782 
   1.300000000    -0.1968385   -0.0113539    -0.2026023    0.7903863    -0.2020846    0.7896039    -0.1861381   -0.0359724 
   1.310000000    -0.2038930    0.0002638    -0.1356974    0.8035701    -0.1380843    0.8030224    -0.1969503   -0.0225506 
   1.320000000    -0.2153046    0.0061979    -0.0690983    0.8079770    -0.0709188    0.8083660    -0.2079479   -0.0147354 
   1.330000000    -0.2311476    0.0203828    -0.0022217    0.8086861    -0.0040937    0.8079980    -0.2238379   -0.0036357 
   1.340000000    -0.2372317    0.0418055     0.0596347    0.8015554     0.0590366    0.8027390    -0.2354398    0.0163141 
   1.350000000    -0.2347163    0.0554496     0.1242699    0.7943038     0.1216210    0.7941702    -0.2368442    0.0360249 
   1.360000000    -0.2399261    0.0664000     0.1870741    0.7792034     0.1866593    0.7793363    -0.2374277    0.0489367 
   1.370000000    -0.2448535    0.0878236     0.2499749    0.7593204     0.2447472    0.7601189    -0.2429173    0.0658408 
   1.380000000    -0.2376059    0.1093371     0.3076401    0.7334351     0.3059745    0.7365928    -0.2439371    0.0882615 
   1.390000000    -0.2295626    0.1209486     0.3632400    0.7082830     0.3623292    0.7093939    -0.2363656    0.1065524 
   1.400000000    -0.2278087    0.1329672     0.4174515    0.6755185     0.4162552    0.6782128    -0.2291804    0.1190690 
   1.410000000    -0.2200536    0.1527879     0.4704705    0.6410096     0.4662436    0.6417672    -0.2228347    0.1330879 
   1.420000000    -0.2028741    0.1649221     0.5185915    0.6002451     0.5170151    0.6032519    -0.2122862    0.1502451 
   1.430000000    -0.1897442    0.1717548     0.5636380    0.5592070     0.5631932    0.5597361    -0.1953136    0.1634333 
   1.440000000    -0.1792019    0.1814321     0.6071638    0.5123791     0.6052793    0.5141271    -0.1809723    0.1710495 
   1.450000000    -0.1617587    0.1925781     0.6449450    0.4611665     0.6446693    0.4651753    -0.1694940    0.1791935 
   1.460000000    -0.1432118    0.1942531     0.6794923    0.4091923     0.6808659    0.4134920    -0.1539666    0.1883831 
   1.470000000    -0.1298936    0.1938411     0.7105683    0.3557708     0.7126621    0.3554891    -0.1327751    0.1902317 
   1.480000000    -0.1151823    0.1964939     0.7408685    0.2973414     0.7388608    0.2989517    -0.1165511    0.1856700 
   1.490000000    -0.0938352    0.1943548     0.7617990    0.2364352     0.7613209    0.2392659    -0.1022442    0.1847190 
   1.500000000    -0.0771559    0.1831672     0.7796044    0.1742830     0.7823770    0.1771572    -0.0838322    0.1839563 
   1.510000000    -0.0676753    0.1762151     0.7918582    0.1114595     0.7948835    0.1112365    -0.0634786    0.1757310 
   1.520000000    -0.0539008    0.1718965     0.8023393    0.0477105     0.8011680    0.0482372    -0.0525196    0.1620298 
