! 2/21/2025 7:23:41 AM
! Z:\OQC\AD5\613\LOT-141-0825\SINGLE\3-L18-8.S2P
! CHANNEL.1
! TR.MEASUREMENT
! CORRECTED.DATA
! RF.CORRECTION: FULL.FOUR.PORT.CAL.PORT.1.2.3.4
! AVERAGING.OFF
! IF.BANDWIDTH: 1KHZ
! SWEEPTYPE:  FREQ.SWEEP(Linear)
! Reference Plane Port Info
! PORT:              PORT1              PORT2             
! DISTANCE:          0  m               0  m              
! TIME:              0  s               0  s              
! PHASE.OFFSET:      0 °                0 °               
! LOSS:              0  dB              0  dB             
! REF.LOSS:          0  dB              0  dB             
! REF.FREQ:          0  Hz              0  Hz             
! Power Info
! POWER:             -10  dBm           -10  dBm          
! EFF.POWER:         -10  dBm           -10  dBm          
! SOURCE.ATTEN:      0  dB              0  dB             
! TEST.ATTEN:        0  dB              0  dB             
# GHZ S RI R 50.0
! FREQ.GHZ         S11RE         S11IM         S21RE         S21IM         S12RE         S12IM         S22RE         S22IM         
!; PortSelection: Port_12
   0.010000000     0.0145340   -0.0149890     0.9801639   -0.0890604     0.9787794   -0.0888745     0.0147979   -0.0149116 
   0.020000000     0.0142194   -0.0351127     0.9646285   -0.1764657     0.9648424   -0.1765372     0.0142889   -0.0346891 
   0.030000000     0.0074068   -0.0550915     0.9408461   -0.2603902     0.9416470   -0.2609881     0.0072649   -0.0545165 
   0.040000000    -0.0020397   -0.0715594     0.9110397   -0.3412516     0.9112486   -0.3410554    -0.0026992   -0.0708441 
   0.050000000    -0.0123616   -0.0874177     0.8738393   -0.4173710     0.8743796   -0.4181698    -0.0135677   -0.0860155 
   0.060000000    -0.0261029   -0.1030013     0.8312095   -0.4908265     0.8306297   -0.4904178    -0.0274983   -0.1011221 
   0.070000000    -0.0436665   -0.1154519     0.7816099   -0.5580245     0.7813020   -0.5585527    -0.0453463   -0.1126721 
   0.080000000    -0.0619406   -0.1234359     0.7273788   -0.6196868     0.7277564   -0.6204769    -0.0643079   -0.1198331 
   0.090000000    -0.0801522   -0.1291008     0.6683366   -0.6762117     0.6688026   -0.6765929    -0.0827189   -0.1242531 
   0.100000000    -0.0995228   -0.1327830     0.6050287   -0.7267926     0.6055254   -0.7273403    -0.1025071   -0.1266420 
   0.110000000    -0.1208661   -0.1327198     0.5390716   -0.7722960     0.5398554   -0.7720470    -0.1238134   -0.1252288 
   0.120000000    -0.1404581   -0.1277812     0.4709788   -0.8103857     0.4712058   -0.8091918    -0.1437943   -0.1190099 
   0.130000000    -0.1576072   -0.1215530     0.4001442   -0.8424318     0.3989426   -0.8430941    -0.1601255   -0.1113717 
   0.140000000    -0.1743355   -0.1137268     0.3274290   -0.8694874     0.3270972   -0.8690746    -0.1768220   -0.1024351 
   0.150000000    -0.1901091   -0.1024363     0.2536649   -0.8884032     0.2531254   -0.8878023    -0.1926046   -0.0891255 
   0.160000000    -0.2030437   -0.0874051     0.1783159   -0.9021000     0.1797984   -0.9024658    -0.2044135   -0.0723692 
   0.170000000    -0.2122283   -0.0718644     0.1048267   -0.9114093     0.1048272   -0.9106380    -0.2125444   -0.0556923 
   0.180000000    -0.2194543   -0.0562573     0.0295674   -0.9137177     0.0316863   -0.9143580    -0.2190867   -0.0383724 
   0.190000000    -0.2259736   -0.0398556    -0.0436897   -0.9102275    -0.0439429   -0.9094078    -0.2234991   -0.0199833 
   0.200000000    -0.2289024   -0.0213150    -0.1157795   -0.9012207    -0.1162470   -0.9010426    -0.2247757   -0.0007360 
   0.210000000    -0.2270358   -0.0038802    -0.1877037   -0.8879352    -0.1876677   -0.8873184    -0.2217760    0.0179225 
   0.220000000    -0.2236138    0.0108415    -0.2591087   -0.8672129    -0.2594265   -0.8674625    -0.2158336    0.0351800 
   0.230000000    -0.2196449    0.0268609    -0.3264352   -0.8417884    -0.3281501   -0.8420833    -0.2084383    0.0514720 
   0.240000000    -0.2109167    0.0431257    -0.3928082   -0.8120503    -0.3945220   -0.8127224    -0.1972774    0.0675155 
   0.250000000    -0.1985962    0.0549483    -0.4584269   -0.7774342    -0.4564413   -0.7782738    -0.1836518    0.0803771 
   0.260000000    -0.1878637    0.0637488    -0.5190954   -0.7380016    -0.5192958   -0.7375664    -0.1691096    0.0906923 
   0.270000000    -0.1761003    0.0734817    -0.5774072   -0.6923808    -0.5780980   -0.6932890    -0.1532438    0.0988282 
   0.280000000    -0.1607273    0.0806997    -0.6308645   -0.6440428    -0.6319907   -0.6444073    -0.1358510    0.1043534 
   0.290000000    -0.1443202    0.0831101    -0.6826887   -0.5906240    -0.6829227   -0.5900556    -0.1171797    0.1071256 
   0.300000000    -0.1294945    0.0827704    -0.7303002   -0.5324581    -0.7293880   -0.5329287    -0.0984172    0.1066196 
   0.310000000    -0.1152380    0.0820123    -0.7715753   -0.4711872    -0.7703105   -0.4713441    -0.0800793    0.1024057 
   0.320000000    -0.0995544    0.0780076    -0.8081481   -0.4057002    -0.8086854   -0.4049691    -0.0626157    0.0956610 
   0.330000000    -0.0850275    0.0689547    -0.8397248   -0.3375142    -0.8392660   -0.3367418    -0.0464558    0.0856491 
   0.340000000    -0.0755719    0.0588857    -0.8659761   -0.2664228    -0.8664086   -0.2660792    -0.0327241    0.0729777 
   0.350000000    -0.0656177    0.0493914    -0.8842943   -0.1937708    -0.8843232   -0.1908534    -0.0207706    0.0588856 
   0.360000000    -0.0558438    0.0368184    -0.8978099   -0.1181410    -0.8984561   -0.1181206    -0.0109236    0.0426562 
   0.370000000    -0.0511441    0.0205168    -0.9048395   -0.0405836    -0.9047868   -0.0403791    -0.0039626    0.0243135 
   0.380000000    -0.0498893    0.0057844    -0.9047575    0.0340898    -0.9045027    0.0361798    -0.0002075    0.0048291 
   0.390000000    -0.0496525   -0.0096527    -0.8971629    0.1107108    -0.8978736    0.1116168     0.0001263   -0.0156757 
   0.400000000    -0.0532405   -0.0257359    -0.8834299    0.1868812    -0.8840925    0.1861049    -0.0048625   -0.0355126 
   0.410000000    -0.0594823   -0.0395107    -0.8628895    0.2595315    -0.8634727    0.2613202    -0.0107505   -0.0524277 
   0.420000000    -0.0662089   -0.0527898    -0.8367035    0.3308153    -0.8351754    0.3322939    -0.0181653   -0.0701491 
   0.430000000    -0.0773939   -0.0652804    -0.8031307    0.3997656    -0.8036714    0.3995300    -0.0303636   -0.0874153 
   0.440000000    -0.0909726   -0.0741247    -0.7637181    0.4657070    -0.7652995    0.4645651    -0.0461373   -0.1002511 
   0.450000000    -0.1047422   -0.0820311    -0.7211205    0.5256657    -0.7206880    0.5261539    -0.0623076   -0.1111032 
   0.460000000    -0.1215915   -0.0888195    -0.6719555    0.5820330    -0.6707904    0.5841405    -0.0815638   -0.1208431 
   0.470000000    -0.1401024   -0.0914046    -0.6197063    0.6343030    -0.6190763    0.6338179    -0.1028728   -0.1263991 
   0.480000000    -0.1564889   -0.0889882    -0.5621632    0.6822158    -0.5628471    0.6806396    -0.1233952   -0.1274494 
   0.490000000    -0.1713845   -0.0864574    -0.5015193    0.7231814    -0.5006896    0.7220938    -0.1423409   -0.1273854 
   0.500000000    -0.1871904   -0.0825682    -0.4392425    0.7581761    -0.4384235    0.7585909    -0.1604808   -0.1238169 
   0.510000000    -0.2052493   -0.0743380    -0.3729265    0.7894023    -0.3720616    0.7882855    -0.1807762   -0.1187648 
   0.520000000    -0.2197744   -0.0616261    -0.3071990    0.8132577    -0.3065169    0.8122912    -0.2006629   -0.1088144 
   0.530000000    -0.2307918   -0.0488676    -0.2394225    0.8327069    -0.2404169    0.8313369    -0.2161135   -0.0942206 
   0.540000000    -0.2417304   -0.0371803    -0.1724211    0.8468383    -0.1698716    0.8461279    -0.2285226   -0.0811575 
   0.550000000    -0.2517237   -0.0192825    -0.1030321    0.8543303    -0.1025415    0.8534985    -0.2409144   -0.0667976 
   0.560000000    -0.2542803   -0.0002035    -0.0335583    0.8568441    -0.0349597    0.8571751    -0.2503760   -0.0483508 
   0.570000000    -0.2559176    0.0140836     0.0351155    0.8544886     0.0340336    0.8555220    -0.2561979   -0.0291233 
   0.580000000    -0.2614934    0.0315921     0.1017978    0.8467692     0.1012858    0.8480282    -0.2601366   -0.0110430 
   0.590000000    -0.2593245    0.0552522     0.1682550    0.8346741     0.1683084    0.8328429    -0.2634120    0.0090519 
   0.600000000    -0.2521584    0.0722796     0.2341203    0.8177237     0.2310951    0.8177841    -0.2621742    0.0314206 
   0.610000000    -0.2452433    0.0859761     0.2963068    0.7965537     0.2978793    0.7966328    -0.2554509    0.0497084 
   0.620000000    -0.2380222    0.1018659     0.3595320    0.7697874     0.3598314    0.7678334    -0.2467253    0.0647990 
   0.630000000    -0.2242636    0.1177318     0.4198504    0.7371182     0.4188282    0.7387922    -0.2393946    0.0784142 
   0.640000000    -0.2085313    0.1277021     0.4748643    0.7022089     0.4767365    0.7034841    -0.2295323    0.0969316 
   0.650000000    -0.1959622    0.1371835     0.5299044    0.6632308     0.5307775    0.6627591    -0.2125193    0.1109916 
   0.660000000    -0.1818729    0.1489549     0.5814905    0.6200969     0.5822989    0.6189699    -0.1971483    0.1197636 
   0.670000000    -0.1611507    0.1553511     0.6310279    0.5712608     0.6296582    0.5706053    -0.1830209    0.1278974 
   0.680000000    -0.1414229    0.1530084     0.6753578    0.5177452     0.6747507    0.5209981    -0.1662241    0.1346306 
   0.690000000    -0.1269292    0.1507189     0.7143010    0.4640641     0.7178203    0.4650729    -0.1451517    0.1361056 
   0.700000000    -0.1099083    0.1520337     0.7531371    0.4045854     0.7523206    0.4048205    -0.1282198    0.1318811 
   0.710000000    -0.0882142    0.1480984     0.7828721    0.3429952     0.7858807    0.3412864    -0.1147124    0.1297489 
   0.720000000    -0.0731180    0.1369674     0.8117315    0.2763459     0.8099074    0.2773848    -0.0973271    0.1279768 
   0.730000000    -0.0610491    0.1285705     0.8328316    0.2102902     0.8335486    0.2091019    -0.0782286    0.1213273 
   0.740000000    -0.0459753    0.1176819     0.8489327    0.1395369     0.8478920    0.1388240    -0.0638963    0.1076867 
   0.750000000    -0.0346388    0.0996202     0.8576409    0.0688382     0.8571759    0.0708181    -0.0563256    0.0919817 
   0.760000000    -0.0293109    0.0825902     0.8616806   -0.0022147     0.8625979   -0.0032186    -0.0494834    0.0816630 
   0.770000000    -0.0238945    0.0677658     0.8583997   -0.0744300     0.8589387   -0.0766228    -0.0388640    0.0661396 
   0.780000000    -0.0200849    0.0508120     0.8518062   -0.1456007     0.8506628   -0.1455838    -0.0353322    0.0471845 
   0.790000000    -0.0204816    0.0328481     0.8346380   -0.2180326     0.8351104   -0.2177697    -0.0365598    0.0322785 
   0.800000000    -0.0248489    0.0159898     0.8139219   -0.2857338     0.8128901   -0.2875506    -0.0354717    0.0188887 
   0.810000000    -0.0300334   -0.0015580     0.7853503   -0.3542307     0.7854386   -0.3557930    -0.0385220   -0.0009189 
   0.820000000    -0.0396195   -0.0191718     0.7525293   -0.4176564     0.7507421   -0.4187756    -0.0493270   -0.0186849 
   0.830000000    -0.0534685   -0.0310110     0.7160022   -0.4806547     0.7136177   -0.4809891    -0.0635904   -0.0286106 
   0.840000000    -0.0647880   -0.0387702     0.6685404   -0.5387185     0.6692635   -0.5380425    -0.0722709   -0.0361969 
   0.850000000    -0.0762819   -0.0482066     0.6207498   -0.5893810     0.6213114   -0.5896055    -0.0805361   -0.0471265 
   0.860000000    -0.0949316   -0.0581576     0.5675260   -0.6398162     0.5675011   -0.6406873    -0.0978448   -0.0586566 
   0.870000000    -0.1146941   -0.0579669     0.5098442   -0.6819708     0.5110142   -0.6810064    -0.1168019   -0.0592879 
   0.880000000    -0.1283242   -0.0570880     0.4515488   -0.7208576     0.4511985   -0.7199011    -0.1313066   -0.0578781 
   0.890000000    -0.1447218   -0.0597461     0.3892782   -0.7536023     0.3880473   -0.7525249    -0.1456543   -0.0589269 
   0.900000000    -0.1650915   -0.0542425     0.3236460   -0.7798623     0.3254410   -0.7779121    -0.1654419   -0.0560104 
   0.910000000    -0.1789046   -0.0409770     0.2583434   -0.8013003     0.2615206   -0.8020427    -0.1806746   -0.0466958 
   0.920000000    -0.1867784   -0.0330647     0.1906269   -0.8166756     0.1929536   -0.8179735    -0.1895541   -0.0367141 
   0.930000000    -0.2013800   -0.0265684     0.1230576   -0.8271388     0.1229510   -0.8288024    -0.1992677   -0.0302283 
   0.940000000    -0.2164707   -0.0105691     0.0550222   -0.8325397     0.0560110   -0.8320255    -0.2133706   -0.0197275 
   0.950000000    -0.2206038    0.0071426    -0.0126288   -0.8321778    -0.0092915   -0.8298126    -0.2236378   -0.0010995 
   0.960000000    -0.2235035    0.0214330    -0.0780357   -0.8268548    -0.0762422   -0.8262276    -0.2259786    0.0175182 
   0.970000000    -0.2276889    0.0349436    -0.1439541   -0.8168866    -0.1426729   -0.8161327    -0.2261926    0.0300561 
   0.980000000    -0.2297710    0.0542617    -0.2094698   -0.7987521    -0.2065800   -0.8010503    -0.2299073    0.0419890 
   0.990000000    -0.2241147    0.0710691    -0.2694459   -0.7776424    -0.2700079   -0.7814258    -0.2310828    0.0604435 
   1.000000000    -0.2188324    0.0827212    -0.3305427   -0.7541646    -0.3307126   -0.7543327    -0.2227120    0.0768433 
   1.010000000    -0.2171146    0.0973551    -0.3895105   -0.7247733    -0.3897807   -0.7237892    -0.2160186    0.0872705 
   1.020000000    -0.2066164    0.1161620    -0.4468928   -0.6918200    -0.4437441   -0.6905706    -0.2115172    0.1018246 
   1.030000000    -0.1904940    0.1255825    -0.5002245   -0.6518188    -0.4979452   -0.6555312    -0.1996073    0.1189918 
   1.040000000    -0.1788430    0.1312078    -0.5493441   -0.6109557    -0.5492330   -0.6138424    -0.1834141    0.1269007 
   1.050000000    -0.1695137    0.1410224    -0.5978101   -0.5651712    -0.5979022   -0.5668519    -0.1709375    0.1307226 
   1.060000000    -0.1504656    0.1494588    -0.6396579   -0.5144355    -0.6409460   -0.5175956    -0.1613012    0.1358257 
   1.070000000    -0.1335434    0.1480937    -0.6808799   -0.4630969    -0.6823125   -0.4627475    -0.1465259    0.1448649 
   1.080000000    -0.1220271    0.1488989    -0.7164994   -0.4074734    -0.7162111   -0.4070445    -0.1258455    0.1460507 
   1.090000000    -0.1054752    0.1499141    -0.7496791   -0.3490075    -0.7486800   -0.3483453    -0.1099060    0.1401368 
   1.100000000    -0.0863079    0.1441980    -0.7764592   -0.2850968    -0.7753454   -0.2867441    -0.0992171    0.1357187 
   1.110000000    -0.0731404    0.1323706    -0.7966789   -0.2218917    -0.8003276   -0.2228197    -0.0854411    0.1339583 
   1.120000000    -0.0641718    0.1247898    -0.8129700   -0.1565165    -0.8154922   -0.1561009    -0.0672937    0.1240710 
   1.130000000    -0.0519433    0.1179006    -0.8259037   -0.0894983    -0.8258815   -0.0887208    -0.0568908    0.1082285 
   1.140000000    -0.0389024    0.1029413    -0.8304659   -0.0198147    -0.8310041   -0.0210976    -0.0531624    0.0973286 
   1.150000000    -0.0342186    0.0848076    -0.8309864    0.0496366    -0.8316654    0.0471867    -0.0440539    0.0895880 
   1.160000000    -0.0322916    0.0723598    -0.8247827    0.1184469    -0.8243689    0.1167196    -0.0334220    0.0729229 
   1.170000000    -0.0287324    0.0572568    -0.8122738    0.1867027    -0.8119067    0.1859048    -0.0331715    0.0521294 
   1.180000000    -0.0299635    0.0375880    -0.7936254    0.2542608    -0.7944608    0.2528818    -0.0395595    0.0361144 
   1.190000000    -0.0376813    0.0227206    -0.7684494    0.3196489    -0.7698281    0.3211626    -0.0423127    0.0256809 
   1.200000000    -0.0420736    0.0110565    -0.7388176    0.3832234    -0.7390024    0.3827349    -0.0431270    0.0098167 
   1.210000000    -0.0490607   -0.0057710    -0.7028751    0.4442210    -0.7039109    0.4436949    -0.0519441   -0.0086831 
   1.220000000    -0.0640794   -0.0183207    -0.6626781    0.5006944    -0.6619907    0.4993731    -0.0662506   -0.0186659 
   1.230000000    -0.0776718   -0.0243435    -0.6173986    0.5545154    -0.6173481    0.5525962    -0.0768280   -0.0251310 
   1.240000000    -0.0898679   -0.0333126    -0.5667196    0.6026965    -0.5662097    0.6020365    -0.0889074   -0.0356764 
   1.250000000    -0.1087309   -0.0415599    -0.5132285    0.6450804    -0.5126657    0.6459231    -0.1086646   -0.0435153 
   1.260000000    -0.1285432   -0.0404480    -0.4579033    0.6840664    -0.4564518    0.6832851    -0.1269901   -0.0431210 
   1.270000000    -0.1412991   -0.0380379    -0.3972198    0.7175415    -0.3982005    0.7162272    -0.1399675   -0.0425695 
   1.280000000    -0.1560826   -0.0394228    -0.3344674    0.7465414    -0.3362829    0.7449165    -0.1544142   -0.0442531 
   1.290000000    -0.1771752   -0.0347491    -0.2696467    0.7674554    -0.2725014    0.7668124    -0.1741585   -0.0411200 
   1.300000000    -0.1938044   -0.0201912    -0.2082451    0.7838734    -0.2074131    0.7831354    -0.1914351   -0.0293624 
   1.310000000    -0.2016596   -0.0081346    -0.1416382    0.7975147    -0.1445681    0.7968262    -0.2016787   -0.0166136 
   1.320000000    -0.2137847   -0.0016374    -0.0755676    0.8025380    -0.0772208    0.8028535    -0.2120502   -0.0094705 
   1.330000000    -0.2302886    0.0130899    -0.0092255    0.8031657    -0.0122267    0.8029692    -0.2272941    0.0008893 
   1.340000000    -0.2369576    0.0349824     0.0531518    0.7966473     0.0512531    0.7979719    -0.2387053    0.0198709 
   1.350000000    -0.2348407    0.0496928     0.1157345    0.7904358     0.1140446    0.7891828    -0.2402814    0.0385907 
   1.360000000    -0.2404787    0.0614065     0.1791060    0.7767420     0.1780187    0.7759849    -0.2407310    0.0509101 
   1.370000000    -0.2455271    0.0835492     0.2407659    0.7570215     0.2366932    0.7575732    -0.2462615    0.0667477 
   1.380000000    -0.2385984    0.1060727     0.2979158    0.7312118     0.2968136    0.7348003    -0.2480188    0.0883307 
   1.390000000    -0.2304311    0.1184311     0.3541358    0.7069798     0.3533023    0.7076290    -0.2408825    0.1062848 
   1.400000000    -0.2285705    0.1313534     0.4082784    0.6750476     0.4077113    0.6770521    -0.2344537    0.1183225 
   1.410000000    -0.2208399    0.1518393     0.4606714    0.6420171     0.4566500    0.6418530    -0.2286692    0.1319323 
   1.420000000    -0.2034977    0.1650289     0.5087071    0.6010429     0.5075510    0.6048747    -0.2192675    0.1487407 
   1.430000000    -0.1897556    0.1726669     0.5539742    0.5598374     0.5533966    0.5619028    -0.2032237    0.1620917 
   1.440000000    -0.1783687    0.1829048     0.5973457    0.5147842     0.5946250    0.5158853    -0.1897146    0.1697736 
   1.450000000    -0.1605768    0.1948369     0.6364440    0.4638615     0.6352677    0.4680502    -0.1793584    0.1783061 
   1.460000000    -0.1413882    0.1973276     0.6695484    0.4136072     0.6713148    0.4172429    -0.1646092    0.1878392 
   1.470000000    -0.1274693    0.1974275     0.7013100    0.3607891     0.7031916    0.3598563    -0.1443469    0.1906370 
   1.480000000    -0.1118823    0.2004176     0.7312883    0.3035084     0.7299845    0.3045831    -0.1288276    0.1870997 
   1.490000000    -0.0897286    0.1988415     0.7530004    0.2438958     0.7530692    0.2462715    -0.1153104    0.1868056 
   1.500000000    -0.0720125    0.1881761     0.7709537    0.1818182     0.7744229    0.1847530    -0.0974999    0.1873812 
   1.510000000    -0.0610904    0.1813243     0.7842457    0.1195003     0.7869592    0.1200395    -0.0777492    0.1806305 
   1.520000000    -0.0463345    0.1767437     0.7951232    0.0574715     0.7937074    0.0576969    -0.0666571    0.1685086 
