! 2/21/2025 7:25:46 AM
! Z:\OQC\AD5\613\LOT-141-0825\SINGLE\3-L20-8.S2P
! CHANNEL.1
! TR.MEASUREMENT
! CORRECTED.DATA
! RF.CORRECTION: FULL.FOUR.PORT.CAL.PORT.1.2.3.4
! AVERAGING.OFF
! IF.BANDWIDTH: 1KHZ
! SWEEPTYPE:  FREQ.SWEEP(Linear)
! Reference Plane Port Info
! PORT:              PORT1              PORT2             
! DISTANCE:          0  m               0  m              
! TIME:              0  s               0  s              
! PHASE.OFFSET:      0 °                0 °               
! LOSS:              0  dB              0  dB             
! REF.LOSS:          0  dB              0  dB             
! REF.FREQ:          0  Hz              0  Hz             
! Power Info
! POWER:             -10  dBm           -10  dBm          
! EFF.POWER:         -10  dBm           -10  dBm          
! SOURCE.ATTEN:      0  dB              0  dB             
! TEST.ATTEN:        0  dB              0  dB             
# GHZ S RI R 50.0
! FREQ.GHZ         S11RE         S11IM         S21RE         S21IM         S12RE         S12IM         S22RE         S22IM         
!; PortSelection: Port_12
   0.010000000     0.0177941   -0.0145097     0.9771106   -0.0873345     0.9761133   -0.0872832     0.0180949   -0.0143722 
   0.020000000     0.0172405   -0.0333682     0.9625009   -0.1734475     0.9622330   -0.1737147     0.0176514   -0.0330271 
   0.030000000     0.0106547   -0.0521764     0.9393067   -0.2567112     0.9400963   -0.2566059     0.0112432   -0.0518965 
   0.040000000     0.0014458   -0.0674822     0.9107359   -0.3368692     0.9111541   -0.3366162     0.0019263   -0.0673571 
   0.050000000    -0.0084246   -0.0823949     0.8744473   -0.4125293     0.8752242   -0.4129240    -0.0077590   -0.0820751 
   0.060000000    -0.0216309   -0.0970454     0.8331988   -0.4852023     0.8329824   -0.4852927    -0.0205688   -0.0968442 
   0.070000000    -0.0386526   -0.1087017     0.7845285   -0.5527505     0.7847707   -0.5527915    -0.0372273   -0.1086051 
   0.080000000    -0.0564056   -0.1160008     0.7315912   -0.6147558     0.7320815   -0.6151709    -0.0549698   -0.1161515 
   0.090000000    -0.0739593   -0.1210811     0.6738583   -0.6713034     0.6742871   -0.6722738    -0.0722280   -0.1211747 
   0.100000000    -0.0926594   -0.1245054     0.6116975   -0.7221798     0.6117877   -0.7227663    -0.0909147   -0.1246794 
   0.110000000    -0.1134569   -0.1242040     0.5456122   -0.7679739     0.5469091   -0.7685996    -0.1112967   -0.1247276 
   0.120000000    -0.1325450   -0.1192438     0.4779940   -0.8081224     0.4777723   -0.8073866    -0.1306664   -0.1201416 
   0.130000000    -0.1494888   -0.1126992     0.4067777   -0.8406688     0.4075263   -0.8399794    -0.1469883   -0.1144429 
   0.140000000    -0.1657951   -0.1050251     0.3357603   -0.8681169     0.3356914   -0.8670887    -0.1638372   -0.1075417 
   0.150000000    -0.1818535   -0.0932845     0.2604944   -0.8874967     0.2605535   -0.8878891    -0.1803702   -0.0961902 
   0.160000000    -0.1950863   -0.0784028     0.1873482   -0.9028063     0.1880265   -0.9021927    -0.1932989   -0.0815650 
   0.170000000    -0.2044020   -0.0623845     0.1134213   -0.9114279     0.1130989   -0.9110635    -0.2032628   -0.0664444 
   0.180000000    -0.2122015   -0.0464984     0.0390286   -0.9138963     0.0388544   -0.9143367    -0.2114494   -0.0510012 
   0.190000000    -0.2188275   -0.0296401    -0.0348559   -0.9113217    -0.0352273   -0.9105265    -0.2182200   -0.0340812 
   0.200000000    -0.2224520   -0.0105875    -0.1070035   -0.9029607    -0.1082340   -0.9032032    -0.2223494   -0.0164050 
   0.210000000    -0.2209948    0.0076390    -0.1793349   -0.8887551    -0.1784331   -0.8884974    -0.2224734    0.0014734 
   0.220000000    -0.2182858    0.0236690    -0.2493672   -0.8696653    -0.2499278   -0.8694078    -0.2199065    0.0185627 
   0.230000000    -0.2147811    0.0408757    -0.3174644   -0.8440631    -0.3186850   -0.8446131    -0.2159329    0.0347710 
   0.240000000    -0.2064247    0.0588768    -0.3830557   -0.8153064    -0.3842813   -0.8156588    -0.2087766    0.0514247 
   0.250000000    -0.1943628    0.0726086    -0.4465870   -0.7822903    -0.4454991   -0.7818527    -0.1986760    0.0657785 
   0.260000000    -0.1837289    0.0831488    -0.5068834   -0.7434464    -0.5080312   -0.7424973    -0.1881075    0.0777490 
   0.270000000    -0.1719853    0.0948444    -0.5644678   -0.6990598    -0.5654938   -0.6992606    -0.1760545    0.0885306 
   0.280000000    -0.1562689    0.1046103    -0.6182430   -0.6515630    -0.6192201   -0.6514113    -0.1623343    0.0975353 
   0.290000000    -0.1388773    0.1098506    -0.6701982   -0.5995593    -0.6704038   -0.5985595    -0.1466244    0.1039747 
   0.300000000    -0.1232323    0.1120572    -0.7155964   -0.5445794    -0.7157962   -0.5435089    -0.1306615    0.1078693 
   0.310000000    -0.1072474    0.1138130    -0.7583950   -0.4837460    -0.7585441   -0.4835579    -0.1146987    0.1081485 
   0.320000000    -0.0897744    0.1124669    -0.7955398   -0.4197588    -0.7957170   -0.4193016    -0.0987916    0.1067963 
   0.330000000    -0.0726494    0.1060623    -0.8275691   -0.3531083    -0.8273293   -0.3533118    -0.0837537    0.1026467 
   0.340000000    -0.0601013    0.0984081    -0.8542788   -0.2849898    -0.8559409   -0.2844789    -0.0699140    0.0958903 
   0.350000000    -0.0467737    0.0912324    -0.8747383   -0.2138433    -0.8760388   -0.2122912    -0.0575126    0.0879488 
   0.360000000    -0.0331246    0.0802192    -0.8897028   -0.1413500    -0.8901412   -0.1420837    -0.0460690    0.0778375 
   0.370000000    -0.0240332    0.0651831    -0.8989764   -0.0659648    -0.8996353   -0.0659500    -0.0364873    0.0654726 
   0.380000000    -0.0179706    0.0511411    -0.9014189    0.0078174    -0.9017627    0.0087162    -0.0297082    0.0518940 
   0.390000000    -0.0129771    0.0358085    -0.8983215    0.0835411    -0.8984417    0.0837793    -0.0253212    0.0364495 
   0.400000000    -0.0114352    0.0187578    -0.8881673    0.1579578    -0.8879253    0.1564971    -0.0251241    0.0209038 
   0.410000000    -0.0123224    0.0038506    -0.8708755    0.2308098    -0.8710337    0.2318157    -0.0256209    0.0083315 
   0.420000000    -0.0142590   -0.0116965    -0.8477677    0.3033208    -0.8468885    0.3020632    -0.0271565   -0.0063448 
   0.430000000    -0.0205128   -0.0272013    -0.8176145    0.3712264    -0.8184408    0.3716778    -0.0331827   -0.0216158 
   0.440000000    -0.0296577   -0.0398028    -0.7826738    0.4389257    -0.7837349    0.4380782    -0.0422437   -0.0330763 
   0.450000000    -0.0393917   -0.0520389    -0.7431334    0.5002247    -0.7425565    0.5014331    -0.0518832   -0.0437280 
   0.460000000    -0.0530333   -0.0637435    -0.6963161    0.5610997    -0.6964346    0.5612794    -0.0645216   -0.0538097 
   0.470000000    -0.0687266   -0.0718041    -0.6478276    0.6143214    -0.6462122    0.6139247    -0.0796298   -0.0611293 
   0.480000000    -0.0832498   -0.0755960    -0.5913779    0.6655744    -0.5923102    0.6645480    -0.0939212   -0.0643413 
   0.490000000    -0.0971363   -0.0792031    -0.5336532    0.7083929    -0.5332041    0.7095305    -0.1081796   -0.0660783 
   0.500000000    -0.1129287   -0.0813257    -0.4715439    0.7488159    -0.4712908    0.7491899    -0.1214876   -0.0667098 
   0.510000000    -0.1315980   -0.0795806    -0.4059007    0.7833164    -0.4067656    0.7820037    -0.1374660   -0.0655172 
   0.520000000    -0.1478516   -0.0726693    -0.3420954    0.8103905    -0.3398688    0.8111503    -0.1540893   -0.0598626 
   0.530000000    -0.1611003   -0.0657915    -0.2719660    0.8332112    -0.2724433    0.8329761    -0.1670043   -0.0493121 
   0.540000000    -0.1752031   -0.0593988    -0.2044365    0.8504510    -0.2029882    0.8501794    -0.1772145   -0.0405537 
   0.550000000    -0.1887156   -0.0467886    -0.1340037    0.8611505    -0.1334055    0.8611106    -0.1884319   -0.0311714 
   0.560000000    -0.1956586   -0.0324764    -0.0632836    0.8669211    -0.0646484    0.8670323    -0.1972654   -0.0172270 
   0.570000000    -0.2018484   -0.0214393     0.0067012    0.8659810     0.0053182    0.8670570    -0.2028558   -0.0019382 
   0.580000000    -0.2127169   -0.0073469     0.0747029    0.8604737     0.0763458    0.8614299    -0.2073941    0.0121717 
   0.590000000    -0.2166453    0.0137487     0.1433704    0.8506196     0.1452659    0.8475741    -0.2117227    0.0280959 
   0.600000000    -0.2151004    0.0290034     0.2111960    0.8344110     0.2093904    0.8342158    -0.2125863    0.0471055 
   0.610000000    -0.2148993    0.0411412     0.2757939    0.8136557     0.2768262    0.8143703    -0.2069748    0.0633960 
   0.620000000    -0.2142660    0.0572755     0.3401279    0.7873505     0.3387481    0.7866734    -0.2001816    0.0754435 
   0.630000000    -0.2067145    0.0736409     0.4008702    0.7561374     0.4005412    0.7584451    -0.1953182    0.0868861 
   0.640000000    -0.1966429    0.0858468     0.4576080    0.7213565     0.4593245    0.7230625    -0.1883637    0.1038846 
   0.650000000    -0.1900705    0.0968085     0.5140895    0.6832922     0.5136822    0.6833314    -0.1739554    0.1171169 
   0.660000000    -0.1818496    0.1116841     0.5662882    0.6403850     0.5669960    0.6396894    -0.1610227    0.1252376 
   0.670000000    -0.1670116    0.1216526     0.6164322    0.5930318     0.6146560    0.5925485    -0.1498538    0.1335421 
   0.680000000    -0.1519771    0.1247141     0.6614251    0.5399590     0.6607172    0.5417210    -0.1346338    0.1416076 
   0.690000000    -0.1416725    0.1266016     0.7015914    0.4883408     0.7039952    0.4877899    -0.1162567    0.1440576 
   0.700000000    -0.1286254    0.1331017     0.7404320    0.4301327     0.7400257    0.4302398    -0.1009409    0.1409501 
   0.710000000    -0.1095444    0.1352659     0.7713423    0.3689670     0.7726392    0.3684233    -0.0882188    0.1407410 
   0.720000000    -0.0964216    0.1308917     0.8010045    0.3048142     0.7996725    0.3057795    -0.0725023    0.1413080 
   0.730000000    -0.0850828    0.1292160     0.8234055    0.2410357     0.8230933    0.2398596    -0.0532573    0.1377869 
   0.740000000    -0.0708876    0.1258158     0.8403195    0.1718071     0.8399518    0.1704707    -0.0383342    0.1272508 
   0.750000000    -0.0589635    0.1140759     0.8523438    0.1023832     0.8515271    0.1038167    -0.0296587    0.1139516 
   0.760000000    -0.0517579    0.1037658     0.8590546    0.0328007     0.8606383    0.0339812    -0.0221316    0.1053262 
   0.770000000    -0.0437964    0.0957153     0.8578306   -0.0378652     0.8588709   -0.0389805    -0.0087429    0.0930237 
   0.780000000    -0.0364071    0.0845716     0.8551421   -0.1083585     0.8537109   -0.1066581    -0.0022638    0.0757352 
   0.790000000    -0.0323593    0.0720164     0.8422225   -0.1775950     0.8414019   -0.1782999    -0.0004928    0.0616995 
   0.800000000    -0.0314585    0.0604794     0.8248430   -0.2454170     0.8247840   -0.2466587     0.0046070    0.0497579 
   0.810000000    -0.0311653    0.0463659     0.8015793   -0.3141413     0.8014459   -0.3158647     0.0065146    0.0303529 
   0.820000000    -0.0350057    0.0316870     0.7723455   -0.3777067     0.7720964   -0.3783908     0.0006455    0.0104006 
   0.830000000    -0.0420943    0.0222930     0.7401528   -0.4428273     0.7391702   -0.4425337    -0.0101684   -0.0009782 
   0.840000000    -0.0467207    0.0154095     0.6968397   -0.5033423     0.6980298   -0.5023937    -0.0139038   -0.0103749 
   0.850000000    -0.0519285    0.0060322     0.6536456   -0.5563963     0.6539618   -0.5561333    -0.0191128   -0.0240005 
   0.860000000    -0.0640671   -0.0050227     0.6037567   -0.6089029     0.6038597   -0.6108077    -0.0326873   -0.0395804 
   0.870000000    -0.0783680   -0.0069138     0.5498743   -0.6559065     0.5495135   -0.6566480    -0.0494863   -0.0450766 
   0.880000000    -0.0866810   -0.0080473     0.4948984   -0.6981498     0.4935873   -0.6975763    -0.0614161   -0.0485965 
   0.890000000    -0.0975345   -0.0140553     0.4339448   -0.7352436     0.4326285   -0.7338049    -0.0735861   -0.0548882 
   0.900000000    -0.1141188   -0.0128591     0.3703386   -0.7661678     0.3722533   -0.7645553    -0.0925862   -0.0589750 
   0.910000000    -0.1245139   -0.0042124     0.3065379   -0.7926623     0.3074645   -0.7930431    -0.1089754   -0.0544825 
   0.920000000    -0.1302701    0.0003693     0.2385923   -0.8127130     0.2398747   -0.8131515    -0.1191557   -0.0503104 
   0.930000000    -0.1421143    0.0017976     0.1722506   -0.8271781     0.1719339   -0.8292792    -0.1298830   -0.0490800 
   0.940000000    -0.1565479    0.0131973     0.1027660   -0.8372012     0.1015806   -0.8370134    -0.1468506   -0.0443726 
   0.950000000    -0.1611301    0.0266935     0.0339183   -0.8416288     0.0361681   -0.8387477    -0.1615063   -0.0313421 
   0.960000000    -0.1640119    0.0362456    -0.0333108   -0.8395820    -0.0319665   -0.8387529    -0.1681420   -0.0165654 
   0.970000000    -0.1691882    0.0460674    -0.1019166   -0.8322913    -0.0995572   -0.8319753    -0.1733727   -0.0078914 
   0.980000000    -0.1732108    0.0616566    -0.1683323   -0.8177022    -0.1657883   -0.8206938    -0.1820457    0.0003806 
   0.990000000    -0.1696173    0.0758019    -0.2310545   -0.7995980    -0.2311089   -0.8033189    -0.1895654    0.0166271 
   1.000000000    -0.1667888    0.0847020    -0.2941558   -0.7793820    -0.2941022   -0.7785374    -0.1875734    0.0317666 
   1.010000000    -0.1676760    0.0967888    -0.3547195   -0.7515179    -0.3556409   -0.7518113    -0.1867242    0.0416977 
   1.020000000    -0.1606819    0.1141688    -0.4142363   -0.7205873    -0.4111788   -0.7188292    -0.1885982    0.0561283 
   1.030000000    -0.1474029    0.1231295    -0.4695539   -0.6824551    -0.4678564   -0.6852816    -0.1835587    0.0745284 
   1.040000000    -0.1382662    0.1285544    -0.5202137   -0.6434973    -0.5199649   -0.6465952    -0.1736022    0.0853527 
   1.050000000    -0.1324860    0.1381657    -0.5708624   -0.5992328    -0.5708659   -0.6015224    -0.1663833    0.0915561 
   1.060000000    -0.1169230    0.1483383    -0.6149217   -0.5504379    -0.6172148   -0.5528889    -0.1628530    0.0999251 
   1.070000000    -0.1021970    0.1486924    -0.6585740   -0.5009857    -0.6597273   -0.4993470    -0.1529011    0.1135030 
   1.080000000    -0.0932213    0.1509639    -0.6961457   -0.4465022    -0.6954687   -0.4471961    -0.1368121    0.1205994 
   1.090000000    -0.0791065    0.1551861    -0.7306253   -0.3898116    -0.7295989   -0.3893197    -0.1243325    0.1202263 
   1.100000000    -0.0610018    0.1526684    -0.7600377   -0.3288278    -0.7575902   -0.3307808    -0.1154457    0.1216716 
   1.110000000    -0.0481317    0.1441096    -0.7826206   -0.2672653    -0.7852368   -0.2691685    -0.1045497    0.1268550 
   1.120000000    -0.0396752    0.1397105    -0.8009577   -0.2038593    -0.8042773   -0.2032272    -0.0874830    0.1249445 
   1.130000000    -0.0275435    0.1366082    -0.8180175   -0.1382186    -0.8172916   -0.1381868    -0.0759333    0.1161902 
   1.140000000    -0.0131180    0.1259803    -0.8262262   -0.0715228    -0.8269323   -0.0726848    -0.0711208    0.1117363 
   1.150000000    -0.0060057    0.1111487    -0.8302233   -0.0040229    -0.8307200   -0.0056249    -0.0602617    0.1111108 
   1.160000000    -0.0017255    0.1017033    -0.8281315    0.0629820    -0.8292066    0.0623573    -0.0460145    0.1023005 
   1.170000000     0.0050538    0.0900800    -0.8213414    0.1314505    -0.8204381    0.1307542    -0.0401943    0.0871626 
   1.180000000     0.0083860    0.0730642    -0.8074787    0.1986994    -0.8087847    0.1962559    -0.0406493    0.0754649 
   1.190000000     0.0052786    0.0594231    -0.7881338    0.2645954    -0.7902211    0.2645268    -0.0378617    0.0696855 
   1.200000000     0.0051964    0.0488955    -0.7636272    0.3282751    -0.7650160    0.3267032    -0.0314734    0.0576287 
   1.210000000     0.0039026    0.0327760    -0.7350374    0.3909743    -0.7351471    0.3907718    -0.0320968    0.0412375 
   1.220000000    -0.0055576    0.0189068    -0.6997654    0.4503768    -0.6999310    0.4480140    -0.0386224    0.0316555 
   1.230000000    -0.0142889    0.0113755    -0.6598372    0.5062193    -0.6597656    0.5055643    -0.0419101    0.0250561 
   1.240000000    -0.0211716    0.0003998    -0.6151164    0.5572462    -0.6148279    0.5576818    -0.0457699    0.0133550 
   1.250000000    -0.0347480   -0.0113620    -0.5668270    0.6056754    -0.5661474    0.6064066    -0.0576170    0.0022297 
   1.260000000    -0.0507690   -0.0147364    -0.5146013    0.6505013    -0.5146003    0.6495872    -0.0698479   -0.0016823 
   1.270000000    -0.0605464   -0.0161892    -0.4579731    0.6885582    -0.4586047    0.6880254    -0.0769209   -0.0055109 
   1.280000000    -0.0716318   -0.0226284    -0.3991093    0.7238953    -0.3991888    0.7223069    -0.0857178   -0.0129537 
   1.290000000    -0.0906340   -0.0240445    -0.3359567    0.7522730    -0.3381059    0.7514568    -0.1007600   -0.0167599 
   1.300000000    -0.1068826   -0.0155642    -0.2746060    0.7746784    -0.2743908    0.7739708    -0.1155900   -0.0124954 
   1.310000000    -0.1147662   -0.0083376    -0.2084024    0.7944253    -0.2102304    0.7940074    -0.1242047   -0.0064469 
   1.320000000    -0.1262544   -0.0074511    -0.1422500    0.8063403    -0.1443698    0.8071085    -0.1329347   -0.0059848 
   1.330000000    -0.1442833    0.0009113    -0.0758318    0.8137337    -0.0765437    0.8131067    -0.1482045   -0.0041079 
   1.340000000    -0.1539312    0.0179238    -0.0096786    0.8134430    -0.0106624    0.8144072    -0.1622389    0.0071265 
   1.350000000    -0.1548291    0.0288714     0.0552386    0.8113857     0.0545400    0.8110729    -0.1663501    0.0196851 
   1.360000000    -0.1623565    0.0357435     0.1204979    0.8025301     0.1211206    0.8019707    -0.1696791    0.0262612 
   1.370000000    -0.1722668    0.0536575     0.1860685    0.7878677     0.1821231    0.7879917    -0.1792116    0.0356075 
   1.380000000    -0.1699746    0.0739630     0.2481364    0.7662437     0.2461653    0.7697850    -0.1866080    0.0520545 
   1.390000000    -0.1655692    0.0847093     0.3071604    0.7448071     0.3061814    0.7451383    -0.1852141    0.0665797 
   1.400000000    -0.1682313    0.0954804     0.3644397    0.7155340     0.3641211    0.7176586    -0.1842848    0.0754256 
   1.410000000    -0.1663368    0.1146408     0.4202502    0.6848825     0.4175795    0.6847833    -0.1851760    0.0863540 
   1.420000000    -0.1534660    0.1287334     0.4727303    0.6465266     0.4712894    0.6488839    -0.1830625    0.1020269 
   1.430000000    -0.1439916    0.1366186     0.5224910    0.6071200     0.5206243    0.6081308    -0.1737815    0.1153014 
   1.440000000    -0.1373059    0.1480284     0.5678472    0.5629423     0.5664555    0.5643905    -0.1664429    0.1236114 
   1.450000000    -0.1240722    0.1620229     0.6095473    0.5145802     0.6088425    0.5178763    -0.1625920    0.1334165 
   1.460000000    -0.1082184    0.1674899     0.6467842    0.4647708     0.6486070    0.4680891    -0.1551161    0.1458593 
   1.470000000    -0.0974084    0.1701961     0.6820918    0.4127869     0.6837712    0.4125820    -0.1405850    0.1528372 
   1.480000000    -0.0848796    0.1768049     0.7141937    0.3568768     0.7127721    0.3581768    -0.1297892    0.1535675 
   1.490000000    -0.0651676    0.1797922     0.7393073    0.2986243     0.7390304    0.3004385    -0.1210576    0.1580608 
   1.500000000    -0.0482603    0.1736628     0.7606085    0.2377172     0.7629355    0.2409862    -0.1076465    0.1649222 
   1.510000000    -0.0382399    0.1706202     0.7769907    0.1768126     0.7800048    0.1770389    -0.0904707    0.1654358 
   1.520000000    -0.0240296    0.1713342     0.7911199    0.1155160     0.7894824    0.1159872    -0.0807487    0.1599366 
