! 2/21/2025 7:27:39 AM
! Z:\OQC\AD5\613\LOT-141-0825\SINGLE\3-L5-8.S2P
! CHANNEL.1
! TR.MEASUREMENT
! CORRECTED.DATA
! RF.CORRECTION: FULL.FOUR.PORT.CAL.PORT.1.2.3.4
! AVERAGING.OFF
! IF.BANDWIDTH: 1KHZ
! SWEEPTYPE:  FREQ.SWEEP(Linear)
! Reference Plane Port Info
! PORT:              PORT1              PORT2             
! DISTANCE:          0  m               0  m              
! TIME:              0  s               0  s              
! PHASE.OFFSET:      0 °                0 °               
! LOSS:              0  dB              0  dB             
! REF.LOSS:          0  dB              0  dB             
! REF.FREQ:          0  Hz              0  Hz             
! Power Info
! POWER:             -10  dBm           -10  dBm          
! EFF.POWER:         -10  dBm           -10  dBm          
! SOURCE.ATTEN:      0  dB              0  dB             
! TEST.ATTEN:        0  dB              0  dB             
# GHZ S RI R 50.0
! FREQ.GHZ         S11RE         S11IM         S21RE         S21IM         S12RE         S12IM         S22RE         S22IM         
!; PortSelection: Port_12
   0.010000000     0.0153172   -0.0122293     0.9797427   -0.0886247     0.9785489   -0.0885677     0.0157822   -0.0121443 
   0.020000000     0.0154673   -0.0297094     0.9642839   -0.1752754     0.9643753   -0.1755342     0.0163398   -0.0295846 
   0.030000000     0.0095579   -0.0471495     0.9406857   -0.2585506     0.9416225   -0.2587232     0.0110806   -0.0473085 
   0.040000000     0.0010951   -0.0612801     0.9116992   -0.3392183     0.9122874   -0.3392750     0.0032027   -0.0620065 
   0.050000000    -0.0079448   -0.0751239     0.8751525   -0.4150486     0.8753433   -0.4155531    -0.0049349   -0.0761879 
   0.060000000    -0.0202561   -0.0886354     0.8333316   -0.4877923     0.8331257   -0.4876826    -0.0160395   -0.0907605 
   0.070000000    -0.0363340   -0.0996640     0.7844840   -0.5560671     0.7850516   -0.5563284    -0.0310002   -0.1027946 
   0.080000000    -0.0530741   -0.1061637     0.7315468   -0.6183281     0.7315403   -0.6180993    -0.0470054   -0.1108351 
   0.090000000    -0.0697072   -0.1104034     0.6728135   -0.6746705     0.6735077   -0.6753393    -0.0625725   -0.1166180 
   0.100000000    -0.0874473   -0.1130995     0.6103942   -0.7263565     0.6106784   -0.7263369    -0.0798226   -0.1212210 
   0.110000000    -0.1072628   -0.1121958     0.5438617   -0.7715249     0.5449502   -0.7714014    -0.0989705   -0.1226522 
   0.120000000    -0.1254008   -0.1066339     0.4758889   -0.8115363     0.4762012   -0.8108670    -0.1173205   -0.1193868 
   0.130000000    -0.1412995   -0.0993378     0.4044639   -0.8441565     0.4048581   -0.8441824    -0.1328265   -0.1152930 
   0.140000000    -0.1563887   -0.0912203     0.3327134   -0.8709393     0.3323313   -0.8715838    -0.1487399   -0.1105179 
   0.150000000    -0.1709349   -0.0791220     0.2575770   -0.8916487     0.2574968   -0.8908922    -0.1646719   -0.1012799 
   0.160000000    -0.1826636   -0.0638056     0.1827426   -0.9064857     0.1839890   -0.9061921    -0.1777387   -0.0886703 
   0.170000000    -0.1905519   -0.0477764     0.1083640   -0.9152543     0.1084032   -0.9149914    -0.1875909   -0.0757573 
   0.180000000    -0.1966309   -0.0315458     0.0330791   -0.9177077     0.0343500   -0.9185545    -0.1960601   -0.0621360 
   0.190000000    -0.2018991   -0.0148592    -0.0413350   -0.9140510    -0.0414780   -0.9141840    -0.2033386   -0.0474384 
   0.200000000    -0.2037351    0.0041032    -0.1158839   -0.9060175    -0.1147431   -0.9056642    -0.2084736   -0.0316052 
   0.210000000    -0.2006459    0.0221647    -0.1879002   -0.8908629    -0.1870398   -0.8908508    -0.2094401   -0.0156826 
   0.220000000    -0.1962423    0.0374846    -0.2581931   -0.8713508    -0.2587708   -0.8715091    -0.2082371   -0.0005211 
   0.230000000    -0.1909879    0.0540933    -0.3276863   -0.8447778    -0.3284350   -0.8451422    -0.2058840    0.0143043 
   0.240000000    -0.1810643    0.0705652    -0.3927083   -0.8154106    -0.3945133   -0.8153010    -0.2004133    0.0292739 
   0.250000000    -0.1678990    0.0832836    -0.4581527   -0.7797203    -0.4561656   -0.7804481    -0.1925434    0.0426206 
   0.260000000    -0.1554185    0.0927560    -0.5183133   -0.7404867    -0.5195259   -0.7405680    -0.1838339    0.0535138 
   0.270000000    -0.1423541    0.1028005    -0.5758804   -0.6945231    -0.5770355   -0.6957493    -0.1738990    0.0636389 
   0.280000000    -0.1257452    0.1108603    -0.6298043   -0.6469736    -0.6309102   -0.6456601    -0.1627204    0.0718061 
   0.290000000    -0.1076748    0.1139644    -0.6813953   -0.5930449    -0.6817368   -0.5916215    -0.1494983    0.0782223 
   0.300000000    -0.0914063    0.1142510    -0.7265840   -0.5357150    -0.7272458   -0.5349836    -0.1360057    0.0822035 
   0.310000000    -0.0749898    0.1140503    -0.7686883   -0.4741295    -0.7679063   -0.4741291    -0.1224666    0.0832250 
   0.320000000    -0.0576672    0.1106194    -0.8052316   -0.4085287    -0.8051721   -0.4093075    -0.1089277    0.0828431 
   0.330000000    -0.0410392    0.1023430    -0.8361101   -0.3418020    -0.8357055   -0.3409842    -0.0959744    0.0796510 
   0.340000000    -0.0289013    0.0928370    -0.8616860   -0.2722230    -0.8627650   -0.2721646    -0.0844047    0.0744880 
   0.350000000    -0.0165177    0.0841652    -0.8820269   -0.1988084    -0.8822049   -0.1978261    -0.0738607    0.0686320 
   0.360000000    -0.0039543    0.0716410    -0.8948239   -0.1264892    -0.8952248   -0.1266474    -0.0639794    0.0606742 
   0.370000000     0.0038755    0.0554180    -0.9030465   -0.0503633    -0.9020619   -0.0511968    -0.0555134    0.0510431 
   0.380000000     0.0082273    0.0402870    -0.9036716    0.0247110    -0.9036576    0.0253873    -0.0494694    0.0396103 
   0.390000000     0.0119408    0.0243009    -0.8984185    0.0998802    -0.8985722    0.0996518    -0.0451785    0.0271302 
   0.400000000     0.0118252    0.0072988    -0.8866996    0.1732564    -0.8857272    0.1745926    -0.0450632    0.0147697 
   0.410000000     0.0091226   -0.0074842    -0.8677405    0.2471299    -0.8678352    0.2472279    -0.0452140    0.0049584 
   0.420000000     0.0059525   -0.0225218    -0.8430216    0.3188303    -0.8432049    0.3179752    -0.0454401   -0.0067286 
   0.430000000    -0.0013826   -0.0374294    -0.8127341    0.3865415    -0.8127891    0.3876711    -0.0496663   -0.0192283 
   0.440000000    -0.0114884   -0.0489388    -0.7761207    0.4530479    -0.7763758    0.4543503    -0.0567951   -0.0280995 
   0.450000000    -0.0220981   -0.0596264    -0.7346895    0.5152023    -0.7340191    0.5162548    -0.0638486   -0.0365198 
   0.460000000    -0.0359634   -0.0696583    -0.6869540    0.5738850    -0.6859953    0.5763835    -0.0732686   -0.0446594 
   0.470000000    -0.0517719   -0.0762478    -0.6372598    0.6287780    -0.6369337    0.6271012    -0.0849622   -0.0506082 
   0.480000000    -0.0658201   -0.0785892    -0.5806502    0.6784295    -0.5808501    0.6774012    -0.0959466   -0.0528023 
   0.490000000    -0.0790290   -0.0804589    -0.5226040    0.7208824    -0.5194026    0.7224374    -0.1058847   -0.0547331 
   0.500000000    -0.0935730   -0.0807784    -0.4591339    0.7604031    -0.4584104    0.7607625    -0.1153573   -0.0555541 
   0.510000000    -0.1107531   -0.0773387    -0.3936282    0.7938964    -0.3933750    0.7931189    -0.1271940   -0.0553191 
   0.520000000    -0.1246474   -0.0691180    -0.3260252    0.8206260    -0.3257303    0.8211286    -0.1398141   -0.0508935 
   0.530000000    -0.1358974   -0.0612631    -0.2573649    0.8439994    -0.2572722    0.8423321    -0.1490014   -0.0425319 
   0.540000000    -0.1468842   -0.0538626    -0.1870179    0.8603212    -0.1865006    0.8593417    -0.1557722   -0.0367241 
   0.550000000    -0.1578347   -0.0409832    -0.1172991    0.8706397    -0.1164747    0.8701920    -0.1633843   -0.0306519 
   0.560000000    -0.1615930   -0.0262071    -0.0447941    0.8742530    -0.0456413    0.8750018    -0.1699016   -0.0198817 
   0.570000000    -0.1644623   -0.0163754     0.0258028    0.8736241     0.0248110    0.8745660    -0.1723402   -0.0095004 
   0.580000000    -0.1720986   -0.0024587     0.0956062    0.8671066     0.0960503    0.8680805    -0.1750121   -0.0000257 
   0.590000000    -0.1722204    0.0170321     0.1643537    0.8558992     0.1666343    0.8526533    -0.1776496    0.0111164 
   0.600000000    -0.1668310    0.0305855     0.2345261    0.8381764     0.2321249    0.8377150    -0.1772734    0.0245439 
   0.610000000    -0.1626904    0.0401819     0.3012744    0.8153973     0.3008665    0.8162199    -0.1709893    0.0352021 
   0.620000000    -0.1585662    0.0537419     0.3649264    0.7886361     0.3653157    0.7872385    -0.1646976    0.0415234 
   0.630000000    -0.1475796    0.0658602     0.4277708    0.7539979     0.4277348    0.7558300    -0.1614832    0.0472545 
   0.640000000    -0.1351469    0.0732661     0.4861609    0.7174430     0.4882327    0.7178097    -0.1557371    0.0589943 
   0.650000000    -0.1260675    0.0797738     0.5423416    0.6765388     0.5429713    0.6756020    -0.1440277    0.0662390 
   0.660000000    -0.1153453    0.0888496     0.5947750    0.6290538     0.5969776    0.6290072    -0.1343084    0.0686887 
   0.670000000    -0.0988662    0.0939099     0.6458596    0.5800708     0.6443800    0.5784500    -0.1267494    0.0721923 
   0.680000000    -0.0831431    0.0896686     0.6903029    0.5225992     0.6898776    0.5247455    -0.1165490    0.0749536 
   0.690000000    -0.0731252    0.0855933     0.7299279    0.4672416     0.7332599    0.4670802    -0.1030838    0.0724051 
   0.700000000    -0.0600119    0.0856696     0.7677959    0.4059378     0.7666200    0.4056098    -0.0936851    0.0655369 
   0.710000000    -0.0427420    0.0811195     0.7976471    0.3403633     0.7988429    0.3396564    -0.0875746    0.0631496 
   0.720000000    -0.0322475    0.0695141     0.8240693    0.2733505     0.8221389    0.2734172    -0.0784453    0.0605387 
   0.730000000    -0.0246735    0.0619808     0.8430507    0.2052290     0.8443084    0.2053484    -0.0665034    0.0544855 
   0.740000000    -0.0146453    0.0517390     0.8571092    0.1351107     0.8565022    0.1326613    -0.0594096    0.0420233 
   0.750000000    -0.0075329    0.0343979     0.8643760    0.0627395     0.8646522    0.0624456    -0.0592012    0.0294106 
   0.760000000    -0.0061225    0.0192017     0.8668456   -0.0088538     0.8679530   -0.0100370    -0.0584400    0.0227379 
   0.770000000    -0.0048162    0.0064881     0.8623571   -0.0811181     0.8625795   -0.0818864    -0.0531633    0.0113068 
   0.780000000    -0.0039098   -0.0080145     0.8535491   -0.1537711     0.8528413   -0.1521935    -0.0541905   -0.0027205 
   0.790000000    -0.0081085   -0.0237455     0.8354614   -0.2234880     0.8352305   -0.2231758    -0.0593461   -0.0124600 
   0.800000000    -0.0156979   -0.0369144     0.8142084   -0.2897379     0.8116700   -0.2921863    -0.0612182   -0.0202479 
   0.810000000    -0.0232955   -0.0512600     0.7847832   -0.3584889     0.7847084   -0.3594460    -0.0662548   -0.0337626 
   0.820000000    -0.0349062   -0.0656050     0.7504148   -0.4198293     0.7501724   -0.4199176    -0.0778187   -0.0466396 
   0.830000000    -0.0502776   -0.0739168     0.7145907   -0.4820599     0.7128085   -0.4809984    -0.0925750   -0.0509000 
   0.840000000    -0.0623462   -0.0780658     0.6674131   -0.5388915     0.6686986   -0.5382051    -0.0989549   -0.0538064 
   0.850000000    -0.0746510   -0.0844588     0.6200404   -0.5893958     0.6208931   -0.5892812    -0.1070691   -0.0596265 
   0.860000000    -0.0937868   -0.0906660     0.5669650   -0.6387244     0.5671890   -0.6384307    -0.1220403   -0.0667314 
   0.870000000    -0.1135175   -0.0872636     0.5107089   -0.6800466     0.5106123   -0.6790987    -0.1384196   -0.0638905 
   0.880000000    -0.1265693   -0.0832927     0.4541267   -0.7181205     0.4516849   -0.7183966    -0.1498321   -0.0598182 
   0.890000000    -0.1422814   -0.0832091     0.3918688   -0.7517583     0.3912275   -0.7495072    -0.1608857   -0.0586970 
   0.900000000    -0.1618439   -0.0749183     0.3276135   -0.7779011     0.3293189   -0.7759503    -0.1772317   -0.0546666 
   0.910000000    -0.1746795   -0.0595667     0.2632603   -0.7995390     0.2647835   -0.8003355    -0.1892301   -0.0439981 
   0.920000000    -0.1816070   -0.0493192     0.1953930   -0.8158472     0.1975665   -0.8165144    -0.1954191   -0.0352868 
   0.930000000    -0.1943401   -0.0408391     0.1299772   -0.8269140     0.1285464   -0.8283706    -0.2013699   -0.0287252 
   0.940000000    -0.2078984   -0.0233431     0.0620594   -0.8331746     0.0621685   -0.8323221    -0.2127590   -0.0199652 
   0.950000000    -0.2109638   -0.0036442    -0.0058010   -0.8336256    -0.0030297   -0.8313240    -0.2212592   -0.0030020 
   0.960000000    -0.2117066    0.0116747    -0.0720207   -0.8294325    -0.0700285   -0.8284990    -0.2216483    0.0141165 
   0.970000000    -0.2141931    0.0265747    -0.1387468   -0.8198019    -0.1369125   -0.8200247    -0.2209909    0.0237296 
   0.980000000    -0.2146028    0.0469276    -0.2040452   -0.8031607    -0.2003700   -0.8050432    -0.2235322    0.0327501 
   0.990000000    -0.2072864    0.0650313    -0.2647486   -0.7826067    -0.2650218   -0.7856208    -0.2252126    0.0492627 
   1.000000000    -0.2001362    0.0772071    -0.3262483   -0.7595199    -0.3256709   -0.7599856    -0.2173381    0.0628663 
   1.010000000    -0.1963981    0.0921465    -0.3852920   -0.7300118    -0.3855004   -0.7295594    -0.2116420    0.0708209 
   1.020000000    -0.1841266    0.1113875    -0.4439191   -0.6978007    -0.4410521   -0.6964459    -0.2090149    0.0830246 
   1.030000000    -0.1662574    0.1207352    -0.4981873   -0.6576705    -0.4961638   -0.6612257    -0.1990459    0.0984979 
   1.040000000    -0.1526544    0.1262904    -0.5473969   -0.6172372    -0.5485053   -0.6193733    -0.1847134    0.1049854 
   1.050000000    -0.1412969    0.1361078    -0.5973956   -0.5707825    -0.5963806   -0.5731355    -0.1757378    0.1072879 
   1.060000000    -0.1208156    0.1443344    -0.6388984   -0.5205166    -0.6413938   -0.5241404    -0.1696196    0.1110463 
   1.070000000    -0.1021032    0.1422089    -0.6803275   -0.4699252    -0.6818722   -0.4686200    -0.1579125    0.1198631 
   1.080000000    -0.0886916    0.1421889    -0.7167510   -0.4135674    -0.7162170   -0.4130340    -0.1406591    0.1217089 
   1.090000000    -0.0706573    0.1425171    -0.7496769   -0.3538924    -0.7491202   -0.3524252    -0.1285781    0.1159300 
   1.100000000    -0.0497224    0.1357040    -0.7763954   -0.2916164    -0.7748656   -0.2931288    -0.1205408    0.1136727 
   1.110000000    -0.0354312    0.1226454    -0.7973199   -0.2266563    -0.7999181   -0.2295167    -0.1110003    0.1135768 
   1.120000000    -0.0253096    0.1134610    -0.8137197   -0.1626051    -0.8157270   -0.1614242    -0.0965263    0.1065632 
   1.130000000    -0.0119256    0.1053166    -0.8266138   -0.0943868    -0.8278140   -0.0933568    -0.0887731    0.0937863 
   1.140000000     0.0020465    0.0886218    -0.8310903   -0.0247922    -0.8315805   -0.0266263    -0.0875543    0.0866609 
   1.150000000     0.0074111    0.0688657    -0.8316051    0.0430936    -0.8324426    0.0429354    -0.0803357    0.0826079 
   1.160000000     0.0098990    0.0544238    -0.8261839    0.1120226    -0.8262895    0.1113526    -0.0713975    0.0714304 
   1.170000000     0.0138222    0.0378644    -0.8140089    0.1802089    -0.8134455    0.1801820    -0.0716076    0.0548212 
   1.180000000     0.0131167    0.0162799    -0.7954251    0.2472508    -0.7967858    0.2456767    -0.0780752    0.0433908 
   1.190000000     0.0055258   -0.0006107    -0.7710800    0.3129558    -0.7725223    0.3137215    -0.0800197    0.0382190 
   1.200000000     0.0008156   -0.0141988    -0.7419317    0.3758086    -0.7423810    0.3754804    -0.0795520    0.0270836 
   1.210000000    -0.0063137   -0.0328718    -0.7072085    0.4376886    -0.7079663    0.4371397    -0.0864038    0.0132146 
   1.220000000    -0.0217753   -0.0475642    -0.6676933    0.4942984    -0.6675405    0.4926541    -0.0978155    0.0074317 
   1.230000000    -0.0361105   -0.0555576    -0.6235294    0.5478081    -0.6241947    0.5458545    -0.1051801    0.0046386 
   1.240000000    -0.0491974   -0.0661668    -0.5739259    0.5956542    -0.5739306    0.5952113    -0.1134214   -0.0025596 
   1.250000000    -0.0690347   -0.0765396    -0.5215859    0.6392100    -0.5221704    0.6388302    -0.1288499   -0.0078836 
   1.260000000    -0.0904049   -0.0771227    -0.4671519    0.6786572    -0.4668767    0.6779788    -0.1430827   -0.0057492 
   1.270000000    -0.1047912   -0.0762271    -0.4068389    0.7133190    -0.4083579    0.7123517    -0.1513701   -0.0038116 
   1.280000000    -0.1212016   -0.0790201    -0.3461978    0.7436510    -0.3462545    0.7415604    -0.1612245   -0.0048314 
   1.290000000    -0.1443674   -0.0756109    -0.2806264    0.7663962    -0.2843118    0.7647514    -0.1763561   -0.0017530 
   1.300000000    -0.1631136   -0.0625584    -0.2193017    0.7832930    -0.2195243    0.7825096    -0.1893186    0.0093480 
   1.310000000    -0.1735795   -0.0510989    -0.1529564    0.7980000    -0.1559436    0.7976667    -0.1953599    0.0209902 
   1.320000000    -0.1877571   -0.0449927    -0.0878772    0.8042848    -0.0897870    0.8047504    -0.2019287    0.0266088 
   1.330000000    -0.2068923   -0.0306875    -0.0214080    0.8064560    -0.0240855    0.8061077    -0.2137992    0.0344641 
   1.340000000    -0.2162727   -0.0085008     0.0424050    0.8016363     0.0402360    0.8025510    -0.2225180    0.0507279 
   1.350000000    -0.2166680    0.0068991     0.1051713    0.7955026     0.1044111    0.7956076    -0.2215949    0.0668487 
   1.360000000    -0.2241561    0.0191703     0.1693688    0.7827479     0.1690622    0.7822797    -0.2201214    0.0759337 
   1.370000000    -0.2320593    0.0423284     0.2324423    0.7645080     0.2276400    0.7639828    -0.2244192    0.0887119 
   1.380000000    -0.2272149    0.0661861     0.2911511    0.7393725     0.2890120    0.7434605    -0.2251793    0.1069425 
   1.390000000    -0.2209682    0.0805267     0.3463965    0.7161257     0.3459271    0.7160716    -0.2177276    0.1217647 
   1.400000000    -0.2208214    0.0951977     0.4019026    0.6839488     0.4011811    0.6857130    -0.2113481    0.1306095 
   1.410000000    -0.2148319    0.1175827     0.4550113    0.6513581     0.4515352    0.6511876    -0.2062084    0.1411461 
   1.420000000    -0.1985705    0.1331327     0.5048391    0.6099085     0.5032827    0.6134276    -0.1981998    0.1555715 
   1.430000000    -0.1856713    0.1430579     0.5513877    0.5693541     0.5499310    0.5712501    -0.1834497    0.1663390 
   1.440000000    -0.1753376    0.1560569     0.5945961    0.5233451     0.5923923    0.5252496    -0.1719951    0.1719841 
   1.450000000    -0.1577295    0.1703786     0.6337644    0.4734957     0.6329980    0.4769338    -0.1635148    0.1787825 
   1.460000000    -0.1384646    0.1754946     0.6681003    0.4227374     0.6696486    0.4266302    -0.1515688    0.1874725 
   1.470000000    -0.1240999    0.1781011     0.7008081    0.3692796     0.7018501    0.3693803    -0.1336831    0.1895711 
   1.480000000    -0.1078913    0.1838407     0.7300745    0.3120225     0.7290292    0.3134310    -0.1209524    0.1856286 
   1.490000000    -0.0848684    0.1848204     0.7524296    0.2524683     0.7515641    0.2551283    -0.1097844    0.1858994 
   1.500000000    -0.0657360    0.1765072     0.7709159    0.1905639     0.7740876    0.1949203    -0.0948538    0.1873693 
   1.510000000    -0.0535430    0.1717748     0.7839437    0.1290396     0.7873124    0.1284819    -0.0774156    0.1823594 
   1.520000000    -0.0367025    0.1693454     0.7950210    0.0670089     0.7937910    0.0669306    -0.0683331    0.1719672 
