! 2/21/2025 7:29:30 AM
! Z:\OQC\AD5\613\LOT-141-0825\SINGLE\3-L7-8.S2P
! CHANNEL.1
! TR.MEASUREMENT
! CORRECTED.DATA
! RF.CORRECTION: FULL.FOUR.PORT.CAL.PORT.1.2.3.4
! AVERAGING.OFF
! IF.BANDWIDTH: 1KHZ
! SWEEPTYPE:  FREQ.SWEEP(Linear)
! Reference Plane Port Info
! PORT:              PORT1              PORT2             
! DISTANCE:          0  m               0  m              
! TIME:              0  s               0  s              
! PHASE.OFFSET:      0 °                0 °               
! LOSS:              0  dB              0  dB             
! REF.LOSS:          0  dB              0  dB             
! REF.FREQ:          0  Hz              0  Hz             
! Power Info
! POWER:             -10  dBm           -10  dBm          
! EFF.POWER:         -10  dBm           -10  dBm          
! SOURCE.ATTEN:      0  dB              0  dB             
! TEST.ATTEN:        0  dB              0  dB             
# GHZ S RI R 50.0
! FREQ.GHZ         S11RE         S11IM         S21RE         S21IM         S12RE         S12IM         S22RE         S22IM         
!; PortSelection: Port_12
   0.010000000     0.0132940   -0.0171364     0.9802949   -0.0897123     0.9806313   -0.0896503     0.0136188   -0.0170638 
   0.020000000     0.0121932   -0.0394293     0.9653205   -0.1775080     0.9651060   -0.1779407     0.0125851   -0.0391209 
   0.030000000     0.0041553   -0.0613299     0.9412026   -0.2621911     0.9416012   -0.2619553     0.0047138   -0.0610510 
   0.040000000    -0.0070516   -0.0793040     0.9108863   -0.3431736     0.9111887   -0.3429988    -0.0065746   -0.0792362 
   0.050000000    -0.0193147   -0.0964808     0.8727677   -0.4198351     0.8732200   -0.4202625    -0.0186798   -0.0960673 
   0.060000000    -0.0354299   -0.1127405     0.8298528   -0.4925594     0.8294631   -0.4928631    -0.0343834   -0.1124711 
   0.070000000    -0.0554695   -0.1254878     0.7793992   -0.5603894     0.7796509   -0.5607122    -0.0540334   -0.1253854 
   0.080000000    -0.0763045   -0.1332703     0.7243071   -0.6212869     0.7243173   -0.6215305    -0.0748811   -0.1333127 
   0.090000000    -0.0970329   -0.1383744     0.6648315   -0.6775038     0.6653541   -0.6781363    -0.0953088   -0.1384808 
   0.100000000    -0.1189424   -0.1409444     0.6011914   -0.7272568     0.6017692   -0.7274432    -0.1171841   -0.1411881 
   0.110000000    -0.1426697   -0.1395124     0.5343857   -0.7718498     0.5350711   -0.7712773    -0.1405236   -0.1399590 
   0.120000000    -0.1642673   -0.1324021     0.4665056   -0.8085082     0.4664736   -0.8097442    -0.1623633   -0.1334664 
   0.130000000    -0.1833830   -0.1242000     0.3949913   -0.8402843     0.3944407   -0.8409581    -0.1811063   -0.1253051 
   0.140000000    -0.2015859   -0.1139252     0.3228835   -0.8668533     0.3232511   -0.8665937    -0.1995686   -0.1163011 
   0.150000000    -0.2186953   -0.0996122     0.2490805   -0.8842411     0.2490351   -0.8842443    -0.2171440   -0.1023585 
   0.160000000    -0.2324140   -0.0816517     0.1753825   -0.8979388     0.1768334   -0.8980256    -0.2306841   -0.0847704 
   0.170000000    -0.2422224   -0.0629439     0.1023047   -0.9057777     0.1025473   -0.9055525    -0.2408381   -0.0668084 
   0.180000000    -0.2495247   -0.0440759     0.0291689   -0.9077125     0.0282529   -0.9080822    -0.2488133   -0.0481538 
   0.190000000    -0.2556085   -0.0244431    -0.0444889   -0.9036981    -0.0448142   -0.9040943    -0.2550602   -0.0288538 
   0.200000000    -0.2579651   -0.0026830    -0.1155634   -0.8950548    -0.1165845   -0.8951920    -0.2577491   -0.0082540 
   0.210000000    -0.2550878    0.0179610    -0.1863956   -0.8814571    -0.1864066   -0.8812789    -0.2561030    0.0123342 
   0.220000000    -0.2502462    0.0357075    -0.2565220   -0.8612277    -0.2559324   -0.8615658    -0.2514443    0.0312591 
   0.230000000    -0.2444695    0.0547828    -0.3231347   -0.8367415    -0.3241926   -0.8371628    -0.2454059    0.0492666 
   0.240000000    -0.2335515    0.0738744    -0.3888735   -0.8074995    -0.3890013   -0.8070505    -0.2353092    0.0674149 
   0.250000000    -0.2187734    0.0884033    -0.4534198   -0.7732351    -0.4518054   -0.7727935    -0.2226365    0.0825452 
   0.260000000    -0.2052381    0.0998248    -0.5129611   -0.7346684    -0.5135431   -0.7342561    -0.2088871    0.0948917 
   0.270000000    -0.1904378    0.1116894    -0.5708431   -0.6900560    -0.5719808   -0.6907492    -0.1937181    0.1059365 
   0.280000000    -0.1715028    0.1206276    -0.6240321   -0.6432400    -0.6248931   -0.6435496    -0.1766635    0.1141920 
   0.290000000    -0.1512965    0.1247237    -0.6750821   -0.5912434    -0.6761499   -0.5901794    -0.1579956    0.1196328 
   0.300000000    -0.1328036    0.1253862    -0.7226830   -0.5345234    -0.7236701   -0.5333384    -0.1390657    0.1218481 
   0.310000000    -0.1143552    0.1253277    -0.7649517   -0.4741022    -0.7650533   -0.4741047    -0.1203657    0.1202744 
   0.320000000    -0.0945309    0.1214115    -0.8024713   -0.4086052    -0.8019805   -0.4102842    -0.1020846    0.1166228 
   0.330000000    -0.0761157    0.1123262    -0.8344916   -0.3414281    -0.8345336   -0.3418473    -0.0849220    0.1093928 
   0.340000000    -0.0620078    0.1010216    -0.8613420   -0.2726323    -0.8621050   -0.2727040    -0.0694986    0.0992218 
   0.350000000    -0.0482493    0.0905953    -0.8820849   -0.1992674    -0.8820108   -0.1987860    -0.0562008    0.0877342 
   0.360000000    -0.0343262    0.0761702    -0.8958796   -0.1249029    -0.8968776   -0.1250383    -0.0443055    0.0739752 
   0.370000000    -0.0259086    0.0577671    -0.9041682   -0.0489864    -0.9041677   -0.0488424    -0.0350471    0.0581040 
   0.380000000    -0.0214262    0.0399777    -0.9048570    0.0280240    -0.9053653    0.0284589    -0.0290820    0.0404137 
   0.390000000    -0.0179818    0.0212824    -0.8999310    0.1046189    -0.8999975    0.1032261    -0.0257425    0.0211968 
   0.400000000    -0.0188372    0.0017550    -0.8867630    0.1801164    -0.8873855    0.1803458    -0.0279306    0.0027558 
   0.410000000    -0.0226216   -0.0154151    -0.8680088    0.2546359    -0.8680894    0.2553435    -0.0312800   -0.0128779 
   0.420000000    -0.0279059   -0.0328918    -0.8417956    0.3270416    -0.8417926    0.3264300    -0.0354502   -0.0300967 
   0.430000000    -0.0380361   -0.0495664    -0.8097636    0.3957079    -0.8093738    0.3962126    -0.0449284   -0.0469960 
   0.440000000    -0.0511513   -0.0625866    -0.7706938    0.4622070    -0.7713480    0.4635471    -0.0580209   -0.0596471 
   0.450000000    -0.0647740   -0.0747721    -0.7280021    0.5245988    -0.7277300    0.5255818    -0.0713288   -0.0708748 
   0.460000000    -0.0820153   -0.0853508    -0.6785025    0.5823404    -0.6780307    0.5844039    -0.0873534   -0.0809605 
   0.470000000    -0.1015598   -0.0915721    -0.6274160    0.6351200    -0.6259268    0.6348048    -0.1062651   -0.0874817 
   0.480000000    -0.1193112   -0.0932576    -0.5683339    0.6843655    -0.5688508    0.6831343    -0.1238480   -0.0895422 
   0.490000000    -0.1358949   -0.0941072    -0.5075050    0.7264544    -0.5069196    0.7269962    -0.1405831   -0.0900699 
   0.500000000    -0.1536466   -0.0924157    -0.4447820    0.7628919    -0.4434847    0.7628163    -0.1569719   -0.0879930 
   0.510000000    -0.1739698   -0.0868592    -0.3777069    0.7938341    -0.3774152    0.7944424    -0.1750907   -0.0843153 
   0.520000000    -0.1909421   -0.0761801    -0.3119156    0.8190773    -0.3101275    0.8186151    -0.1932020   -0.0758647 
   0.530000000    -0.2047897   -0.0654734    -0.2421157    0.8391238    -0.2434134    0.8382921    -0.2070711   -0.0625827 
   0.540000000    -0.2180630   -0.0545783    -0.1740430    0.8529788    -0.1716165    0.8534611    -0.2178413   -0.0510583 
   0.550000000    -0.2308423   -0.0375877    -0.1036539    0.8617151    -0.1042160    0.8605470    -0.2291384   -0.0387059 
   0.560000000    -0.2358657   -0.0198360    -0.0342144    0.8640832    -0.0347263    0.8645035    -0.2375988   -0.0221641 
   0.570000000    -0.2395885   -0.0057739     0.0347055    0.8618808     0.0350031    0.8624279    -0.2419820   -0.0048049 
   0.580000000    -0.2478738    0.0118832     0.1032342    0.8534243     0.1047803    0.8544768    -0.2453823    0.0117471 
   0.590000000    -0.2481086    0.0357679     0.1709613    0.8416247     0.1712114    0.8386030    -0.2478993    0.0295997 
   0.600000000    -0.2424239    0.0530508     0.2378054    0.8239229     0.2360164    0.8235472    -0.2462076    0.0502948 
   0.610000000    -0.2374750    0.0672272     0.3010408    0.8015236     0.3039585    0.8013618    -0.2392581    0.0668053 
   0.620000000    -0.2322307    0.0842816     0.3652553    0.7732697     0.3639935    0.7730144    -0.2298248    0.0800032 
   0.630000000    -0.2198944    0.1007768     0.4251898    0.7410098     0.4247087    0.7425409    -0.2228418    0.0917728 
   0.640000000    -0.2059142    0.1123947     0.4813661    0.7054086     0.4836238    0.7056547    -0.2132389    0.1086071 
   0.650000000    -0.1939443    0.1221762     0.5362333    0.6649597     0.5368064    0.6660178    -0.1963715    0.1206052 
   0.660000000    -0.1807774    0.1352271     0.5891019    0.6203014     0.5892437    0.6202786    -0.1816776    0.1273527 
   0.670000000    -0.1607109    0.1425138     0.6385463    0.5711240     0.6361802    0.5708545    -0.1675538    0.1340086 
   0.680000000    -0.1423610    0.1416235     0.6823208    0.5185778     0.6817416    0.5196983    -0.1515999    0.1400886 
   0.690000000    -0.1274650    0.1400554     0.7212491    0.4632091     0.7237562    0.4637767    -0.1316767    0.1394804 
   0.700000000    -0.1111271    0.1421885     0.7601299    0.4030923     0.7596867    0.4033144    -0.1161875    0.1337264 
   0.710000000    -0.0895283    0.1393843     0.7897440    0.3411025     0.7917122    0.3404036    -0.1030983    0.1307001 
   0.720000000    -0.0739644    0.1288994     0.8177862    0.2731506     0.8167239    0.2740955    -0.0871896    0.1280309 
   0.730000000    -0.0619656    0.1218377     0.8377337    0.2061245     0.8389400    0.2064892    -0.0693423    0.1200724 
   0.740000000    -0.0466415    0.1108849     0.8538324    0.1365017     0.8532169    0.1346166    -0.0555469    0.1059954 
   0.750000000    -0.0354099    0.0935526     0.8628919    0.0636115     0.8617127    0.0644294    -0.0497035    0.0902236 
   0.760000000    -0.0302070    0.0764190     0.8664880   -0.0073387     0.8678967   -0.0074806    -0.0446149    0.0787967 
   0.770000000    -0.0244624    0.0624405     0.8626432   -0.0805067     0.8634277   -0.0816138    -0.0349403    0.0636521 
   0.780000000    -0.0198197    0.0452317     0.8548681   -0.1530589     0.8539947   -0.1514536    -0.0324406    0.0444833 
   0.790000000    -0.0204746    0.0275059     0.8373806   -0.2243404     0.8371558   -0.2242864    -0.0351595    0.0293163 
   0.800000000    -0.0245059    0.0111369     0.8159165   -0.2922259     0.8159629   -0.2925957    -0.0348103    0.0163768 
   0.810000000    -0.0303203   -0.0063878     0.7865348   -0.3614911     0.7868792   -0.3627155    -0.0391526   -0.0031476 
   0.820000000    -0.0398692   -0.0247419     0.7529349   -0.4233209     0.7523910   -0.4237225    -0.0505218   -0.0212740 
   0.830000000    -0.0539223   -0.0357615     0.7161317   -0.4869099     0.7143007   -0.4871979    -0.0660308   -0.0303002 
   0.840000000    -0.0650734   -0.0435895     0.6673574   -0.5454561     0.6685188   -0.5452412    -0.0743802   -0.0375276 
   0.850000000    -0.0769250   -0.0529271     0.6197929   -0.5964296     0.6198268   -0.5963479    -0.0840798   -0.0474986 
   0.860000000    -0.0957870   -0.0626721     0.5656273   -0.6463171     0.5650789   -0.6473226    -0.1019033   -0.0581650 
   0.870000000    -0.1158724   -0.0621400     0.5078415   -0.6879811     0.5072204   -0.6883304    -0.1213461   -0.0579435 
   0.880000000    -0.1296859   -0.0610377     0.4488401   -0.7268491     0.4480471   -0.7266145    -0.1356933   -0.0561111 
   0.890000000    -0.1462922   -0.0636345     0.3858080   -0.7593741     0.3851850   -0.7575744    -0.1501800   -0.0566106 
   0.900000000    -0.1670598   -0.0573224     0.3203519   -0.7846904     0.3214278   -0.7836527    -0.1697074   -0.0539953 
   0.910000000    -0.1803757   -0.0446001     0.2536885   -0.8069215     0.2561024   -0.8068671    -0.1852868   -0.0430579 
   0.920000000    -0.1889157   -0.0352450     0.1853500   -0.8210363     0.1886654   -0.8226354    -0.1936710   -0.0331022 
   0.930000000    -0.2037868   -0.0284167     0.1183575   -0.8318174     0.1179447   -0.8325039    -0.2030534   -0.0261779 
   0.940000000    -0.2189756   -0.0118596     0.0500625   -0.8368059     0.0510116   -0.8355325    -0.2169429   -0.0157956 
   0.950000000    -0.2232486    0.0067191    -0.0171428   -0.8352807    -0.0149286   -0.8332672    -0.2274772    0.0031928 
   0.960000000    -0.2256380    0.0214343    -0.0842917   -0.8294648    -0.0821138   -0.8289327    -0.2291478    0.0217000 
   0.970000000    -0.2298275    0.0359111    -0.1511016   -0.8188398    -0.1483528   -0.8180530    -0.2293278    0.0341340 
   0.980000000    -0.2313868    0.0558966    -0.2160219   -0.8001272    -0.2132030   -0.8035000    -0.2317523    0.0460042 
   0.990000000    -0.2251294    0.0735015    -0.2761368   -0.7790945    -0.2758414   -0.7828908    -0.2337959    0.0645323 
   1.000000000    -0.2193457    0.0856644    -0.3374572   -0.7557058    -0.3368888   -0.7549883    -0.2251188    0.0807674 
   1.010000000    -0.2173753    0.1010079    -0.3956839   -0.7256657    -0.3961703   -0.7257573    -0.2186237    0.0909082 
   1.020000000    -0.2058149    0.1204769    -0.4535799   -0.6916539    -0.4503874   -0.6908923    -0.2142162    0.1051247 
   1.030000000    -0.1893345    0.1300568    -0.5073677   -0.6508121    -0.5045472   -0.6540722    -0.2025389    0.1216893 
   1.040000000    -0.1764107    0.1353426    -0.5555285   -0.6106290    -0.5573076   -0.6123853    -0.1862034    0.1298278 
   1.050000000    -0.1656672    0.1458203    -0.6046191   -0.5638469    -0.6048511   -0.5658593    -0.1737512    0.1329651 
   1.060000000    -0.1459941    0.1544866    -0.6460839   -0.5129740    -0.6475819   -0.5165972    -0.1647816    0.1373784 
   1.070000000    -0.1276970    0.1532430    -0.6883240   -0.4603108    -0.6885590   -0.4605704    -0.1500829    0.1470784 
   1.080000000    -0.1150306    0.1536734    -0.7231141   -0.4041897    -0.7238975   -0.4031302    -0.1296565    0.1477604 
   1.090000000    -0.0972898    0.1547950    -0.7559581   -0.3453883    -0.7543186   -0.3444065    -0.1142128    0.1416587 
   1.100000000    -0.0772196    0.1482617    -0.7826667   -0.2806228    -0.7807093   -0.2830521    -0.1039894    0.1372614 
   1.110000000    -0.0629120    0.1357399    -0.8020498   -0.2164755    -0.8061500   -0.2172585    -0.0906958    0.1360547 
   1.120000000    -0.0529141    0.1273527    -0.8177285   -0.1514150    -0.8203832   -0.1505926    -0.0736441    0.1256746 
   1.130000000    -0.0397811    0.1196671    -0.8303478   -0.0824975    -0.8321644   -0.0812997    -0.0640183    0.1100500 
   1.140000000    -0.0261999    0.1032899    -0.8354615   -0.0132489    -0.8354597   -0.0131998    -0.0609829    0.0998442 
   1.150000000    -0.0212362    0.0841128    -0.8351020    0.0558884    -0.8357284    0.0560709    -0.0523154    0.0920474 
   1.160000000    -0.0189831    0.0705391    -0.8278892    0.1252108    -0.8275705    0.1254038    -0.0424582    0.0763965 
   1.170000000    -0.0150485    0.0541684    -0.8145558    0.1949820    -0.8147623    0.1938821    -0.0424727    0.0560569 
   1.180000000    -0.0160198    0.0331472    -0.7955042    0.2632019    -0.7962870    0.2621704    -0.0492521    0.0410123 
   1.190000000    -0.0243189    0.0170625    -0.7700499    0.3282684    -0.7717302    0.3291774    -0.0524181    0.0313795 
   1.200000000    -0.0289038    0.0039575    -0.7393085    0.3920842    -0.7393974    0.3917437    -0.0532228    0.0162625 
   1.210000000    -0.0364496   -0.0139472    -0.7031611    0.4531011    -0.7033131    0.4536649    -0.0622340   -0.0013551 
   1.220000000    -0.0520538   -0.0276570    -0.6615509    0.5097358    -0.6614723    0.5080786    -0.0763123   -0.0102176 
   1.230000000    -0.0663329   -0.0345156    -0.6151209    0.5640973    -0.6160168    0.5615781    -0.0865304   -0.0156833 
   1.240000000    -0.0794638   -0.0443188    -0.5644567    0.6116688    -0.5645068    0.6102718    -0.0982581   -0.0255006 
   1.250000000    -0.0993459   -0.0531167    -0.5102438    0.6537488    -0.5097207    0.6544400    -0.1174212   -0.0323809 
   1.260000000    -0.1200506   -0.0522694    -0.4529562    0.6932808    -0.4528763    0.6914193    -0.1351198   -0.0310928 
   1.270000000    -0.1336890   -0.0502456    -0.3919512    0.7253410    -0.3936026    0.7249743    -0.1471689   -0.0300206 
   1.280000000    -0.1494970   -0.0518750    -0.3295810    0.7541148    -0.3310044    0.7528203    -0.1608692   -0.0312400 
   1.290000000    -0.1715678   -0.0469547    -0.2631125    0.7756977    -0.2667181    0.7741719    -0.1797362   -0.0276652 
   1.300000000    -0.1891500   -0.0324187    -0.2010123    0.7910976    -0.2011896    0.7894571    -0.1958149   -0.0155261 
   1.310000000    -0.1977053   -0.0201121    -0.1345654    0.8037547    -0.1375313    0.8033339    -0.2049229   -0.0028235 
   1.320000000    -0.2106267   -0.0132549    -0.0673067    0.8082834    -0.0694070    0.8091548    -0.2138880    0.0041711 
   1.330000000    -0.2276532    0.0022745    -0.0018880    0.8083853    -0.0030876    0.8080789    -0.2284130    0.0142377 
   1.340000000    -0.2346073    0.0250078     0.0614479    0.8012030     0.0606053    0.8028771    -0.2386716    0.0328994 
   1.350000000    -0.2327554    0.0402505     0.1246639    0.7940927     0.1237316    0.7935882    -0.2389328    0.0509603 
   1.360000000    -0.2385786    0.0525326     0.1879276    0.7799739     0.1878413    0.7791151    -0.2388320    0.0622660 
   1.370000000    -0.2437016    0.0756953     0.2503914    0.7596837     0.2469501    0.7601235    -0.2438162    0.0774103 
   1.380000000    -0.2361668    0.0988439     0.3083515    0.7327289     0.3065733    0.7371930    -0.2444488    0.0980769 
   1.390000000    -0.2276939    0.1117593     0.3644354    0.7082394     0.3637886    0.7089407    -0.2368413    0.1146387 
   1.400000000    -0.2252287    0.1253348     0.4196337    0.6750603     0.4175036    0.6772375    -0.2302440    0.1251331 
   1.410000000    -0.2164546    0.1463753     0.4712255    0.6409819     0.4680338    0.6412379    -0.2243593    0.1376659 
   1.420000000    -0.1980997    0.1597097     0.5196374    0.5996238     0.5184545    0.6027865    -0.2150369    0.1530981 
   1.430000000    -0.1836096    0.1674606     0.5657935    0.5585755     0.5645114    0.5597617    -0.1991463    0.1647251 
   1.440000000    -0.1714297    0.1779256     0.6087475    0.5114478     0.6067547    0.5132489    -0.1863065    0.1709719 
   1.450000000    -0.1521444    0.1893378     0.6462200    0.4602014     0.6459913    0.4642128    -0.1765967    0.1781791 
   1.460000000    -0.1314853    0.1914017     0.6809546    0.4082810     0.6831462    0.4122286    -0.1630299    0.1865877 
   1.470000000    -0.1163861    0.1908261     0.7121316    0.3546690     0.7140164    0.3536847    -0.1440168    0.1878173 
   1.480000000    -0.0994501    0.1931429     0.7414370    0.2954749     0.7401224    0.2978842    -0.1300502    0.1831544 
   1.490000000    -0.0760199    0.1903641     0.7629850    0.2354646     0.7632335    0.2374722    -0.1180537    0.1819614 
   1.500000000    -0.0573942    0.1781186     0.7802491    0.1720023     0.7835453    0.1756727    -0.1021762    0.1819800 
   1.510000000    -0.0457142    0.1696919     0.7929624    0.1098830     0.7955748    0.1093142    -0.0845702    0.1745906 
   1.520000000    -0.0300541    0.1633833     0.8026392    0.0457000     0.8018817    0.0459385    -0.0756164    0.1622086 
