! MS46524B
! 2118201/M1: 21072234/M2: 20492244
! 4/20/2024 10:33:06 AM
! C:\VNA DATA\LC3-SMK\22VAD5613G\LOT801\40OHM\3-L7-4.S2P
! CHANNEL.1
! TR.MEASUREMENT
! CORRECTED.DATA
# GHZ S RI R 50.0
! FREQ.GHZ         S11RE         S11IM         S21RE         S21IM         S12RE         S12IM         S22RE         S22IM         
!; PortSelection: Port_12
   0.040000000     0.0057962   -0.0364744     0.9688513   -0.1857426     0.9683691   -0.1860983     0.0054424   -0.0364503 
   0.080000000    -0.0098517   -0.0752322     0.9116744   -0.3577425     0.9117103   -0.3575949    -0.0102648   -0.0752187 
   0.120000000    -0.0387243   -0.1062120     0.8251386   -0.5124125     0.8252864   -0.5117984    -0.0436134   -0.1031684 
   0.160000000    -0.0766800   -0.1268604     0.7138217   -0.6454415     0.7140710   -0.6447229    -0.0840170   -0.1206794 
   0.200000000    -0.1181689   -0.1327214     0.5839253   -0.7544538     0.5839990   -0.7539788    -0.1262264   -0.1222060 
   0.240000000    -0.1615888   -0.1250110     0.4411578   -0.8353227     0.4394925   -0.8360411    -0.1715496   -0.1092144 
   0.280000000    -0.1987531   -0.1072606     0.2871962   -0.8914649     0.2859342   -0.8911037    -0.2067340   -0.0833341 
   0.320000000    -0.2264835   -0.0783410     0.1292346   -0.9195938     0.1300070   -0.9201421    -0.2296149   -0.0450374 
   0.360000000    -0.2448084   -0.0420112    -0.0277719   -0.9223061    -0.0272965   -0.9217089    -0.2449614   -0.0019529 
   0.400000000    -0.2511220   -0.0042392    -0.1807432   -0.9006504    -0.1813971   -0.9009829    -0.2418529    0.0408816 
   0.440000000    -0.2454469    0.0347499    -0.3283612   -0.8551032    -0.3278156   -0.8551614    -0.2258862    0.0843962 
   0.480000000    -0.2310833    0.0673222    -0.4668504   -0.7867714    -0.4670294   -0.7862735    -0.2009127    0.1195559 
   0.520000000    -0.2066870    0.0929930    -0.5917740   -0.6969309    -0.5920625   -0.6972110    -0.1643454    0.1442494 
   0.560000000    -0.1764296    0.1098268    -0.7027920   -0.5875360    -0.7021527   -0.5871367    -0.1194829    0.1570050 
   0.600000000    -0.1446986    0.1154901    -0.7938469   -0.4606284    -0.7944316   -0.4605339    -0.0748542    0.1559900 
   0.640000000    -0.1120552    0.1098088    -0.8641254   -0.3175715    -0.8632629   -0.3174347    -0.0345720    0.1402253 
   0.680000000    -0.0867057    0.0951959    -0.9082019   -0.1638693    -0.9080359   -0.1628345     0.0002182    0.1106906 
   0.720000000    -0.0679876    0.0713041    -0.9246263   -0.0023365    -0.9239510   -0.0025396     0.0249049    0.0729573 
   0.760000000    -0.0592431    0.0433737    -0.9111990    0.1609363    -0.9107689    0.1605088     0.0316195    0.0296270 
   0.800000000    -0.0603485    0.0146535    -0.8676234    0.3187358    -0.8678316    0.3183939     0.0259745   -0.0151905 
   0.840000000    -0.0741494   -0.0098589    -0.7960783    0.4665460    -0.7959461    0.4657723     0.0055393   -0.0533609 
   0.880000000    -0.0973781   -0.0291168    -0.6986259    0.5973204    -0.6992582    0.5967394    -0.0285655   -0.0852207 
   0.920000000    -0.1248468   -0.0394538    -0.5805555    0.7069985    -0.5801991    0.7068990    -0.0668965   -0.1024784 
   0.960000000    -0.1567048   -0.0385397    -0.4457971    0.7922950    -0.4464751    0.7927595    -0.1140113   -0.1029231 
   1.000000000    -0.1853909   -0.0281150    -0.3000851    0.8528370    -0.2995214    0.8517216    -0.1568316   -0.0937360 
   1.040000000    -0.2084357   -0.0048801    -0.1489241    0.8853301    -0.1481413    0.8858317    -0.1918418   -0.0692940 
   1.080000000    -0.2282878    0.0214187     0.0036542    0.8918709     0.0033193    0.8913988    -0.2206223   -0.0327204 
   1.120000000    -0.2329563    0.0522602     0.1520747    0.8742964     0.1537736    0.8733045    -0.2359288    0.0061866 
   1.160000000    -0.2306066    0.0883853     0.2962267    0.8324929     0.2960808    0.8329235    -0.2357456    0.0496729 
   1.200000000    -0.2196886    0.1191804     0.4292377    0.7681603     0.4297503    0.7677670    -0.2256290    0.0917146 
   1.240000000    -0.1968794    0.1465077     0.5517993    0.6853004     0.5516313    0.6856635    -0.2038666    0.1259269 
   1.280000000    -0.1696745    0.1659401     0.6580311    0.5832046     0.6573566    0.5827540    -0.1724381    0.1537427 
   1.320000000    -0.1379936    0.1756271     0.7474707    0.4657031     0.7478291    0.4652412    -0.1327561    0.1689266 
   1.360000000    -0.1054238    0.1743384     0.8170732    0.3336698     0.8163510    0.3336776    -0.0930405    0.1733163 
   1.400000000    -0.0715479    0.1630839     0.8654578    0.1897177     0.8641536    0.1899801    -0.0562154    0.1612580 
   1.440000000    -0.0469398    0.1467576     0.8874885    0.0393439     0.8874340    0.0389362    -0.0199093    0.1410970 
   1.480000000    -0.0314041    0.1185056     0.8839885   -0.1155067     0.8834339   -0.1144123     0.0035323    0.1099340 
   1.520000000    -0.0216366    0.0872419     0.8520579   -0.2683678     0.8517446   -0.2686849     0.0142135    0.0713289 
   1.560000000    -0.0248687    0.0582056     0.7921288   -0.4137765     0.7923896   -0.4138947     0.0147743    0.0344411 
   1.600000000    -0.0402509    0.0300080     0.7075061   -0.5471704     0.7070324   -0.5466565    -0.0022402   -0.0019960 
   1.640000000    -0.0623134    0.0111373     0.5987384   -0.6620697     0.5988728   -0.6611578    -0.0263417   -0.0323374 
   1.680000000    -0.0927565    0.0009492     0.4718187   -0.7538708     0.4714735   -0.7537806    -0.0610784   -0.0479931 
   1.720000000    -0.1242131   -0.0007893     0.3312358   -0.8210869     0.3312973   -0.8209279    -0.1017352   -0.0545175 
   1.760000000    -0.1514083    0.0121264     0.1830874   -0.8611985     0.1822368   -0.8605245    -0.1383442   -0.0483449 
   1.800000000    -0.1782831    0.0337955     0.0308677   -0.8752164     0.0316603   -0.8749437    -0.1715402   -0.0246313 
   1.840000000    -0.1944057    0.0606690    -0.1188013   -0.8610711    -0.1183875   -0.8601136    -0.1993930    0.0048284 
   1.880000000    -0.2010287    0.0954951    -0.2613946   -0.8243778    -0.2618845   -0.8244546    -0.2145678    0.0401163 
   1.920000000    -0.1986853    0.1286264    -0.3946852   -0.7628120    -0.3938597   -0.7631302    -0.2176821    0.0804513 
   1.960000000    -0.1842992    0.1611358    -0.5138243   -0.6854787    -0.5136877   -0.6845549    -0.2083420    0.1193179 
   2.000000000    -0.1614603    0.1887429    -0.6194632   -0.5874170    -0.6187258   -0.5872616    -0.1925657    0.1539490 
   2.040000000    -0.1304539    0.2091264    -0.7072083   -0.4760852    -0.7057238   -0.4765423    -0.1655170    0.1790112 
   2.080000000    -0.0993207    0.2198197    -0.7769020   -0.3523114    -0.7764831   -0.3517916    -0.1294049    0.1993694 
   2.120000000    -0.0620877    0.2172067    -0.8258038   -0.2182737    -0.8244445   -0.2181775    -0.0943560    0.2051522 
   2.160000000    -0.0257666    0.2094339    -0.8525763   -0.0765130    -0.8513978   -0.0754740    -0.0559191    0.2006447 
   2.200000000     0.0007668    0.1900443    -0.8551332    0.0687915    -0.8548097    0.0687598    -0.0228861    0.1876899 
   2.240000000     0.0243523    0.1608668    -0.8348234    0.2148754    -0.8332263    0.2142288     0.0025153    0.1637000 
   2.280000000     0.0361704    0.1311382    -0.7878473    0.3554328    -0.7865716    0.3551551     0.0208543    0.1341450 
   2.320000000     0.0362143    0.0964315    -0.7159570    0.4883735    -0.7155144    0.4873481     0.0266334    0.1010621 
   2.360000000     0.0283730    0.0641294    -0.6217130    0.6075504    -0.6208233    0.6063066     0.0196129    0.0682003 
   2.400000000     0.0093565    0.0399632    -0.5054523    0.7068167    -0.5061799    0.7058626     0.0065329    0.0407379 
   2.440000000    -0.0174973    0.0218462    -0.3748821    0.7848282    -0.3743209    0.7837131    -0.0170492    0.0200711 
   2.480000000    -0.0465362    0.0151165    -0.2300458    0.8358907    -0.2310864    0.8355749    -0.0467608    0.0102338 
   2.520000000    -0.0752280    0.0192841    -0.0813214    0.8617952    -0.0812417    0.8609322    -0.0765667    0.0101171 
   2.560000000    -0.1021643    0.0333657     0.0702102    0.8583675     0.0690273    0.8584293    -0.1033891    0.0206719 
   2.600000000    -0.1218760    0.0545373     0.2161630    0.8302406     0.2152754    0.8295418    -0.1270675    0.0419291 
   2.640000000    -0.1311892    0.0831889     0.3536147    0.7776935     0.3528769    0.7769280    -0.1423099    0.0642003 
   2.680000000    -0.1344621    0.1121570     0.4785254    0.7024010     0.4778591    0.7025461    -0.1448680    0.0937624 
   2.720000000    -0.1240675    0.1384863     0.5891355    0.6098620     0.5877963    0.6087590    -0.1420576    0.1251618 
   2.760000000    -0.1039650    0.1627472     0.6805522    0.4986201     0.6794286    0.4993035    -0.1306648    0.1480257 
   2.800000000    -0.0810817    0.1812536     0.7534921    0.3775740     0.7529284    0.3766800    -0.1094894    0.1666160 
   2.840000000    -0.0521751    0.1869848     0.8049045    0.2448567     0.8041714    0.2452758    -0.0848074    0.1818476 
   2.880000000    -0.0187056    0.1846497     0.8353785    0.1061590     0.8340540    0.1062647    -0.0605130    0.1848184 
   2.920000000     0.0090011    0.1756193     0.8415425   -0.0354312     0.8399193   -0.0358936    -0.0336067    0.1820627 
   2.960000000     0.0333025    0.1531072     0.8248409   -0.1780107     0.8240486   -0.1778484    -0.0111894    0.1680666 
   3.000000000     0.0513061    0.1244188     0.7836351   -0.3176526     0.7825391   -0.3162844     0.0040958    0.1504128 
   3.040000000     0.0586687    0.0946534     0.7179615   -0.4474474     0.7186654   -0.4469916     0.0134276    0.1277223 
   3.080000000     0.0533101    0.0601422     0.6310458   -0.5670171     0.6313738   -0.5652803     0.0133376    0.1053956 
   3.120000000     0.0407554    0.0287596     0.5243362   -0.6679298     0.5246327   -0.6672597     0.0026063    0.0851798 
   3.160000000     0.0164335    0.0060400     0.3993994   -0.7495118     0.3999255   -0.7482102    -0.0114153    0.0679248 
   3.200000000    -0.0146701   -0.0117158     0.2618358   -0.8069272     0.2635396   -0.8060700    -0.0321394    0.0608609 
   3.240000000    -0.0472573   -0.0171129     0.1172014   -0.8383949     0.1182178   -0.8378800    -0.0557554    0.0619122 
   3.280000000    -0.0824501   -0.0096091    -0.0305591   -0.8430266    -0.0291170   -0.8431451    -0.0772923    0.0692259 
   3.320000000    -0.1152951    0.0053269    -0.1748313   -0.8208327    -0.1733530   -0.8215999    -0.0937344    0.0896086 
   3.360000000    -0.1368811    0.0295794    -0.3119549   -0.7758071    -0.3115196   -0.7753037    -0.1053959    0.1116804 
   3.400000000    -0.1533253    0.0640120    -0.4385818   -0.7065173    -0.4375749   -0.7078878    -0.1066132    0.1367770 
   3.440000000    -0.1604486    0.0964503    -0.5490255   -0.6203198    -0.5485736   -0.6198863    -0.0999410    0.1664940 
   3.480000000    -0.1534997    0.1291813    -0.6431965   -0.5152580    -0.6420619   -0.5166954    -0.0833722    0.1898276 
   3.520000000    -0.1376536    0.1610957    -0.7185071   -0.4001827    -0.7172503   -0.3995010    -0.0617518    0.2081405 
   3.560000000    -0.1187150    0.1859664    -0.7726687   -0.2712590    -0.7725042   -0.2727530    -0.0312893    0.2193429 
   3.600000000    -0.0891511    0.1992381    -0.8075067   -0.1405335    -0.8052313   -0.1398626    -0.0022430    0.2217378 
   3.640000000    -0.0576021    0.2087675    -0.8169917   -0.0014338    -0.8174208   -0.0028784     0.0303592    0.2148685 
   3.680000000    -0.0291167    0.2066593    -0.8076066    0.1340090    -0.8066424    0.1333365     0.0591017    0.1966336 
   3.720000000    -0.0015337    0.1932766    -0.7748532    0.2691182    -0.7740506    0.2677774     0.0805921    0.1738910 
   3.760000000     0.0215746    0.1758903    -0.7190074    0.3967655    -0.7193890    0.3963379     0.0937777    0.1439406 
   3.800000000     0.0331685    0.1533908    -0.6430281    0.5158132    -0.6427572    0.5139856     0.0988940    0.1103323 
   3.840000000     0.0377231    0.1241580    -0.5460873    0.6198497    -0.5462054    0.6188548     0.0909077    0.0792796 
   3.880000000     0.0345058    0.1012317    -0.4312363    0.7066613    -0.4321737    0.7054040     0.0727232    0.0490220 
   3.920000000     0.0191017    0.0793403    -0.3020346    0.7722397    -0.3034194    0.7707887     0.0488954    0.0280918 
   3.960000000    -0.0011750    0.0643261    -0.1632819    0.8130996    -0.1642243    0.8128859     0.0162364    0.0163405 
   4.000000000    -0.0247579    0.0575266    -0.0187371    0.8290316    -0.0194624    0.8280545    -0.0174216    0.0151994 
   4.040000000    -0.0512723    0.0630846     0.1265002    0.8165566     0.1254473    0.8173038    -0.0499244    0.0248625 
   4.080000000    -0.0754177    0.0727854     0.2654919    0.7814492     0.2653377    0.7800045    -0.0770752    0.0488638 
   4.120000000    -0.0901411    0.0968662     0.3969457    0.7175428     0.3946103    0.7187735    -0.0977467    0.0747021 
   4.160000000    -0.1019811    0.1240893     0.5107211    0.6397560     0.5102428    0.6371059    -0.1052090    0.1098313 
   4.200000000    -0.1041978    0.1518389     0.6110478    0.5379663     0.6094166    0.5381087    -0.1034854    0.1459654 
   4.240000000    -0.0925809    0.1805148     0.6877309    0.4254144     0.6874670    0.4253715    -0.0899409    0.1792501 
   4.280000000    -0.0771621    0.2095129     0.7463418    0.3015986     0.7457677    0.3004963    -0.0670904    0.2071579 
   4.320000000    -0.0537223    0.2258210     0.7821850    0.1708276     0.7816797    0.1719041    -0.0348887    0.2274381 
   4.360000000    -0.0211458    0.2379836     0.7989520    0.0384795     0.7968246    0.0385621    -0.0026498    0.2395990 
   4.400000000     0.0106898    0.2428625     0.7916682   -0.0950548     0.7902914   -0.0941306     0.0315715    0.2367603 
   4.440000000     0.0391330    0.2368217     0.7648622   -0.2244728     0.7638695   -0.2238651     0.0688270    0.2267385 
   4.480000000     0.0717896    0.2208248     0.7177034   -0.3500937     0.7154806   -0.3473506     0.0973292    0.2082082 
   4.520000000     0.0947976    0.2014191     0.6492596   -0.4648219     0.6491907   -0.4638594     0.1197949    0.1806898 
   4.560000000     0.1102260    0.1724832     0.5640253   -0.5706770     0.5633598   -0.5673581     0.1353868    0.1490466 
   4.600000000     0.1180204    0.1422391     0.4595830   -0.6581169     0.4610989   -0.6564242     0.1353189    0.1154274 
   4.640000000     0.1158828    0.1114215     0.3429736   -0.7312388     0.3439828   -0.7284236     0.1325091    0.0828256 
   4.680000000     0.1036908    0.0846850     0.2120392   -0.7812579     0.2142173   -0.7793702     0.1126914    0.0557116 
   4.720000000     0.0832759    0.0597413     0.0746892   -0.8078998     0.0767882   -0.8080064     0.0904809    0.0336563 
   4.760000000     0.0611343    0.0484574    -0.0665345   -0.8111987    -0.0645963   -0.8098391     0.0608376    0.0242421 
   4.800000000     0.0307133    0.0434076    -0.2075687   -0.7856765    -0.2049350   -0.7872298     0.0319712    0.0211839 
   4.840000000     0.0048042    0.0463547    -0.3405003   -0.7387017    -0.3394233   -0.7380533     0.0054320    0.0330905 
   4.880000000    -0.0178340    0.0615598    -0.4634080   -0.6650574    -0.4619292   -0.6668459    -0.0157033    0.0502202 
   4.920000000    -0.0373366    0.0821815    -0.5701710   -0.5747691    -0.5694225   -0.5745018    -0.0285646    0.0749498 
   4.960000000    -0.0452213    0.1041592    -0.6588170   -0.4648753    -0.6575330   -0.4663005    -0.0292782    0.1038703 
   5.000000000    -0.0442388    0.1327033    -0.7257007   -0.3430574    -0.7255656   -0.3442905    -0.0251827    0.1285211 
   5.040000000    -0.0370354    0.1576350    -0.7715502   -0.2142529    -0.7695385   -0.2143241    -0.0092204    0.1526846 
   5.080000000    -0.0215889    0.1775624    -0.7917171   -0.0778006    -0.7923163   -0.0796527     0.0113073    0.1688400 
   5.120000000     0.0017595    0.1912062    -0.7933292    0.0537706    -0.7910959    0.0554484     0.0421864    0.1778687 
   5.160000000     0.0249857    0.2026508    -0.7679882    0.1898467    -0.7681228    0.1865406     0.0693217    0.1795563 
   5.200000000     0.0484473    0.1963124    -0.7279351    0.3108268    -0.7257101    0.3134966     0.0982301    0.1681774 
   5.240000000     0.0765513    0.1924683    -0.6628792    0.4319034    -0.6602920    0.4288059     0.1183158    0.1513224 
   5.280000000     0.0921975    0.1773361    -0.5817675    0.5344015    -0.5804909    0.5349268     0.1390709    0.1244012 
   5.320000000     0.1056629    0.1583737    -0.4831129    0.6285353    -0.4825193    0.6238788     0.1441796    0.0958511 
   5.360000000     0.1126619    0.1335239    -0.3704521    0.6998310    -0.3709065    0.6995756     0.1438705    0.0639996 
   5.400000000     0.1124170    0.1149185    -0.2467376    0.7558959    -0.2471753    0.7529668     0.1316632    0.0354903 
   5.440000000     0.1030888    0.0933038    -0.1125283    0.7875245    -0.1145634    0.7865174     0.1117907    0.0096890 
   5.480000000     0.0905781    0.0787874     0.0238926    0.7974119     0.0224176    0.7958452     0.0851260   -0.0041569 
   5.520000000     0.0706506    0.0697893     0.1619790    0.7814848     0.1596783    0.7801620     0.0547132   -0.0123114 
   5.560000000     0.0491620    0.0696946     0.2953665    0.7412867     0.2934120    0.7418646     0.0227304   -0.0083734 
   5.600000000     0.0321177    0.0735002     0.4193375    0.6790776     0.4172820    0.6785290    -0.0035015    0.0061228 
   5.640000000     0.0160410    0.0926869     0.5312471    0.5932717     0.5286896    0.5947017    -0.0286009    0.0311290 
   5.680000000     0.0042466    0.1071197     0.6225101    0.4922523     0.6222079    0.4920337    -0.0388241    0.0582129 
   5.720000000     0.0041453    0.1309236     0.6970161    0.3755364     0.6957713    0.3753206    -0.0418522    0.0908398 
   5.760000000     0.0089041    0.1539726     0.7472264    0.2491105     0.7464672    0.2493804    -0.0323610    0.1230027 
   5.800000000     0.0207601    0.1747375     0.7769077    0.1178025     0.7739669    0.1170878    -0.0154261    0.1518559 
   5.840000000     0.0391162    0.1862498     0.7807283   -0.0169667     0.7799176   -0.0152947     0.0116842    0.1680898 
   5.880000000     0.0662364    0.2008232     0.7646277   -0.1465724     0.7610749   -0.1468378     0.0427009    0.1862458 
   5.920000000     0.0863421    0.2008901     0.7246562   -0.2729287     0.7246457   -0.2714562     0.0754540    0.1838304 
   5.960000000     0.1142761    0.1970531     0.6701697   -0.3884538     0.6664122   -0.3882141     0.1089224    0.1746794 
   6.000000000     0.1355502    0.1848100     0.5901600   -0.4946728     0.5920840   -0.4924751     0.1385220    0.1552164 
   6.040000000     0.1544658    0.1705622     0.5018430   -0.5852254     0.5003973   -0.5837227     0.1600564    0.1309467 
   6.080000000     0.1646845    0.1455840     0.3948472   -0.6630022     0.3957397   -0.6602532     0.1706892    0.0949549 
   6.120000000     0.1751779    0.1252641     0.2791121   -0.7184308     0.2799479   -0.7186750     0.1754348    0.0614195 
   6.160000000     0.1683690    0.1033828     0.1541094   -0.7582523     0.1540725   -0.7564737     0.1659794    0.0220868 
   6.200000000     0.1647194    0.0839551     0.0228318   -0.7743999     0.0249373   -0.7741482     0.1495062   -0.0030156 
   6.240000000     0.1494477    0.0685289    -0.1098596   -0.7689159    -0.1095463   -0.7683247     0.1171121   -0.0283021 
   6.280000000     0.1366586    0.0626651    -0.2414737   -0.7398505    -0.2397665   -0.7399796     0.0852136   -0.0424892 
   6.320000000     0.1177057    0.0586776    -0.3670771   -0.6882994    -0.3654143   -0.6884949     0.0478463   -0.0448299 
