! MS46524B
! 2118201/M1: 21072234/M2: 20492244
! 4/20/2024 10:33:44 AM
! C:\VNA DATA\LC3-SMK\22VAD5613G\LOT801\40OHM\3-L7-8.S2P
! CHANNEL.1
! TR.MEASUREMENT
! CORRECTED.DATA
# GHZ S RI R 50.0
! FREQ.GHZ         S11RE         S11IM         S21RE         S21IM         S12RE         S12IM         S22RE         S22IM         
!; PortSelection: Port_12
   0.040000000    -0.0008538   -0.0702814     0.9089501   -0.3425796     0.9091401   -0.3431793     0.0005339   -0.0707850 
   0.080000000    -0.0623916   -0.1212624     0.7246512   -0.6211569     0.7250834   -0.6208473    -0.0604607   -0.1239382 
   0.120000000    -0.1419923   -0.1237774     0.4678943   -0.8100492     0.4680524   -0.8096421    -0.1415000   -0.1258963 
   0.160000000    -0.2057970   -0.0785664     0.1767901   -0.9004595     0.1767830   -0.8998837    -0.2058204   -0.0839858 
   0.200000000    -0.2314574   -0.0064889    -0.1178285   -0.8974193    -0.1177620   -0.8969992    -0.2337518   -0.0165769 
   0.240000000    -0.2117923    0.0656962    -0.3897595   -0.8084054    -0.3911657   -0.8075913    -0.2190116    0.0541836 
   0.280000000    -0.1552390    0.1109951    -0.6258675   -0.6413912    -0.6253293   -0.6402090    -0.1691970    0.0992052 
   0.320000000    -0.0828163    0.1135585    -0.8004273   -0.4070477    -0.8001049   -0.4069607    -0.1058977    0.1019532 
   0.360000000    -0.0214960    0.0743182    -0.8912785   -0.1244434    -0.8909833   -0.1247551    -0.0559607    0.0711123 
   0.400000000     0.0006143    0.0065195    -0.8823856    0.1765101    -0.8823109    0.1758090    -0.0431290    0.0170300 
   0.440000000    -0.0215943   -0.0621113    -0.7698004    0.4553719    -0.7696952    0.4550419    -0.0681225   -0.0338226 
   0.480000000    -0.0786280   -0.1025487    -0.5715117    0.6761072    -0.5719723    0.6760632    -0.1195044   -0.0531157 
   0.520000000    -0.1486211   -0.1008209    -0.3172977    0.8145705    -0.3179288    0.8151280    -0.1754119   -0.0351840 
   0.560000000    -0.2034556   -0.0616687    -0.0399553    0.8635777    -0.0394122    0.8630945    -0.2067057    0.0161478 
   0.600000000    -0.2264136   -0.0013072     0.2321917    0.8241473     0.2323290    0.8250000    -0.2045837    0.0807526 
   0.640000000    -0.2099472    0.0575023     0.4790913    0.7063122     0.4784081    0.7056350    -0.1668994    0.1293885 
   0.680000000    -0.1669641    0.0967665     0.6775918    0.5195460     0.6780234    0.5183263    -0.1029521    0.1500841 
   0.720000000    -0.1127519    0.1016189     0.8106167    0.2769222     0.8101619    0.2766401    -0.0383644    0.1338221 
   0.760000000    -0.0676465    0.0724771     0.8590639   -0.0011658     0.8582945   -0.0011909    -0.0003021    0.0813484 
   0.800000000    -0.0500192    0.0250614     0.8115534   -0.2819903     0.8114887   -0.2820554     0.0016909    0.0165625 
   0.840000000    -0.0679746   -0.0206645     0.6719794   -0.5315743     0.6715971   -0.5307360    -0.0358768   -0.0321364 
   0.880000000    -0.1117072   -0.0464818     0.4574014   -0.7164436     0.4577091   -0.7159181    -0.0967163   -0.0491038 
   0.920000000    -0.1606229   -0.0423701     0.1994967   -0.8177687     0.1990175   -0.8171597    -0.1503350   -0.0235989 
   0.960000000    -0.1986425   -0.0094487    -0.0716118   -0.8300006    -0.0716058   -0.8307073    -0.1794553    0.0358708 
   1.000000000    -0.2120735    0.0350967    -0.3286873   -0.7588463    -0.3281624   -0.7579182    -0.1703659    0.0977760 
   1.040000000    -0.1977112    0.0777344    -0.5492707   -0.6143895    -0.5497360   -0.6133910    -0.1206736    0.1444471 
   1.080000000    -0.1698150    0.1053327    -0.7146864   -0.4087885    -0.7142029   -0.4087007    -0.0496576    0.1591997 
   1.120000000    -0.1348133    0.1075415    -0.8093991   -0.1600574    -0.8083296   -0.1591337     0.0169234    0.1297978 
   1.160000000    -0.1092078    0.0950594    -0.8187504    0.1101535    -0.8187434    0.1095509     0.0599508    0.0656004 
   1.200000000    -0.1031197    0.0753203    -0.7393154    0.3697958    -0.7380385    0.3688596     0.0621235   -0.0094404 
   1.240000000    -0.1145856    0.0621677    -0.5764630    0.5880830    -0.5769637    0.5870034     0.0226250   -0.0753764 
   1.280000000    -0.1306647    0.0671927    -0.3531353    0.7384570    -0.3536440    0.7381027    -0.0407689   -0.1094243 
   1.320000000    -0.1418113    0.0882213    -0.0965007    0.8075545    -0.0970721    0.8080118    -0.1078261   -0.1007236 
   1.360000000    -0.1321080    0.1131982     0.1655665    0.7918310     0.1651867    0.7911461    -0.1567040   -0.0640963 
   1.400000000    -0.0979519    0.1358014     0.4075138    0.6960850     0.4069991    0.6957417    -0.1701956   -0.0178882 
   1.440000000    -0.0570608    0.1374840     0.6070959    0.5292274     0.6075712    0.5295135    -0.1546633    0.0252795 
   1.480000000    -0.0172665    0.1054272     0.7459137    0.3075534     0.7456625    0.3078203    -0.1240284    0.0417028 
   1.520000000     0.0059971    0.0530731     0.8059049    0.0484553     0.8059625    0.0486151    -0.0956723    0.0263659 
   1.560000000    -0.0084885   -0.0054753     0.7765079   -0.2170117     0.7761235   -0.2166433    -0.0866519   -0.0046218 
   1.600000000    -0.0581445   -0.0523202     0.6583270   -0.4564834     0.6581295   -0.4562660    -0.1103586   -0.0392151 
   1.640000000    -0.1271279   -0.0634969     0.4682872   -0.6398817     0.4689583   -0.6394714    -0.1556647   -0.0552129 
   1.680000000    -0.1964164   -0.0338943     0.2347552   -0.7463120     0.2341020   -0.7458740    -0.2101183   -0.0367034 
   1.720000000    -0.2409805    0.0263258    -0.0130373   -0.7717100    -0.0134372   -0.7713916    -0.2529477    0.0098197 
   1.760000000    -0.2433988    0.1024511    -0.2506183   -0.7212939    -0.2503383   -0.7198474    -0.2655385    0.0711112 
   1.800000000    -0.2116979    0.1736255    -0.4582194   -0.6058134    -0.4591610   -0.6054212    -0.2421000    0.1383139 
   1.840000000    -0.1496173    0.2127223    -0.6227173   -0.4325841    -0.6213897   -0.4326468    -0.1968039    0.1853570 
   1.880000000    -0.0730066    0.2164154    -0.7314286   -0.2187099    -0.7308318   -0.2175557    -0.1350952    0.1984761 
   1.920000000    -0.0115352    0.1817957    -0.7672388    0.0250807    -0.7670011    0.0239850    -0.0762799    0.1821572 
   1.960000000     0.0207116    0.1164388    -0.7256682    0.2726793    -0.7246068    0.2720125    -0.0436467    0.1384245 
   2.000000000     0.0119778    0.0504483    -0.5993023    0.4966931    -0.5988885    0.4953588    -0.0425987    0.0875337 
   2.040000000    -0.0359083    0.0055087    -0.4027083    0.6647914    -0.4032068    0.6640791    -0.0709525    0.0527792 
   2.080000000    -0.0991257   -0.0044144    -0.1624824    0.7562801    -0.1628896    0.7556506    -0.1156028    0.0464537 
   2.120000000    -0.1500801    0.0258897     0.0900397    0.7603076     0.0891376    0.7602661    -0.1525231    0.0698626 
   2.160000000    -0.1732858    0.0822927     0.3245443    0.6860343     0.3251201    0.6857504    -0.1643505    0.1138815 
   2.200000000    -0.1627933    0.1373852     0.5200559    0.5440659     0.5203658    0.5442882    -0.1496275    0.1595122 
   2.240000000    -0.1186547    0.1747041     0.6631278    0.3531785     0.6623976    0.3525981    -0.1122946    0.1878253 
   2.280000000    -0.0635121    0.1831416     0.7410587    0.1270341     0.7406495    0.1266953    -0.0627008    0.1900419 
   2.320000000    -0.0175618    0.1571366     0.7454330   -0.1153548     0.7455263   -0.1143651    -0.0211696    0.1651485 
   2.360000000     0.0072861    0.1070050     0.6727718   -0.3510645     0.6722288   -0.3501662    -0.0041943    0.1211695 
   2.400000000    -0.0035847    0.0568688     0.5227970   -0.5510651     0.5234671   -0.5504351    -0.0149099    0.0767120 
   2.440000000    -0.0458005    0.0213746     0.3141514   -0.6914489     0.3141695   -0.6905205    -0.0513789    0.0504744 
   2.480000000    -0.0982235    0.0195233     0.0702884   -0.7502545     0.0714824   -0.7502852    -0.0970546    0.0536828 
   2.520000000    -0.1411120    0.0514264    -0.1733089   -0.7270932    -0.1731860   -0.7274206    -0.1306750    0.0853571 
   2.560000000    -0.1600761    0.1031074    -0.3926345   -0.6273915    -0.3921184   -0.6278114    -0.1379740    0.1336689 
   2.600000000    -0.1454202    0.1542024    -0.5662547   -0.4686377    -0.5648004   -0.4689202    -0.1178118    0.1805630 
   2.640000000    -0.1040208    0.1899549    -0.6820498   -0.2668337    -0.6807195   -0.2671275    -0.0754122    0.2043205 
   2.680000000    -0.0537112    0.1979591    -0.7303749   -0.0400323    -0.7307161   -0.0403073    -0.0208320    0.2027721 
   2.720000000    -0.0073679    0.1747092    -0.7090563    0.1936704    -0.7085945    0.1923777     0.0218161    0.1746832 
   2.760000000     0.0188191    0.1328656    -0.6120042    0.4114501    -0.6127750    0.4105642     0.0395907    0.1283519 
   2.800000000     0.0136779    0.0865749    -0.4494023    0.5889265    -0.4489633    0.5888436     0.0298731    0.0803971 
   2.840000000    -0.0158808    0.0528280    -0.2327843    0.7033404    -0.2337252    0.7029642    -0.0052734    0.0518912 
   2.880000000    -0.0566532    0.0466180     0.0079230    0.7392961     0.0075003    0.7391178    -0.0491548    0.0491876 
   2.920000000    -0.0931276    0.0666799     0.2451359    0.6929079     0.2446092    0.6925538    -0.0809007    0.0740082 
   2.960000000    -0.1097004    0.1000074     0.4510451    0.5739622     0.4504495    0.5742631    -0.0892724    0.1137868 
   3.000000000    -0.0976805    0.1375057     0.6074829    0.3986022     0.6064191    0.3984881    -0.0729355    0.1484211 
   3.040000000    -0.0721466    0.1615750     0.6984301    0.1850528     0.6989982    0.1857377    -0.0334127    0.1632585 
   3.080000000    -0.0394230    0.1615263     0.7219768   -0.0459090     0.7211915   -0.0449696     0.0072769    0.1551776 
   3.120000000    -0.0117067    0.1423516     0.6704307   -0.2729409     0.6705526   -0.2731350     0.0335012    0.1196056 
   3.160000000    -0.0047759    0.1148282     0.5480129   -0.4755664     0.5485126   -0.4746459     0.0371001    0.0721640 
   3.200000000    -0.0202648    0.0890994     0.3650309   -0.6271533     0.3656258   -0.6265966     0.0105426    0.0313871 
   3.240000000    -0.0466349    0.0804849     0.1416097   -0.7103721     0.1422455   -0.7097390    -0.0375296    0.0124561 
   3.280000000    -0.0752043    0.0964600    -0.0963408   -0.7133299    -0.0948329   -0.7131263    -0.0889069    0.0214926 
   3.320000000    -0.0905984    0.1267757    -0.3168595   -0.6399226    -0.3160157   -0.6404694    -0.1238964    0.0607765 
   3.360000000    -0.0778870    0.1621093    -0.5010138   -0.5029350    -0.4999627   -0.5025176    -0.1356268    0.1109884 
   3.400000000    -0.0466318    0.1913932    -0.6293020   -0.3160326    -0.6290931   -0.3173997    -0.1178560    0.1557546 
   3.440000000    -0.0052553    0.1940726    -0.6965070   -0.1021099    -0.6950895   -0.1030790    -0.0793923    0.1835051 
   3.480000000     0.0356546    0.1702446    -0.6925158    0.1222274    -0.6930709    0.1203984    -0.0376372    0.1834923 
   3.520000000     0.0590604    0.1295095    -0.6197539    0.3380795    -0.6201361    0.3356265    -0.0082120    0.1609958 
   3.560000000     0.0491049    0.0826440    -0.4797298    0.5202887    -0.4807009    0.5188814     0.0020770    0.1265598 
   3.600000000     0.0150249    0.0435260    -0.2857806    0.6485367    -0.2870118    0.6473318    -0.0173042    0.0984024 
   3.640000000    -0.0355373    0.0374218    -0.0588350    0.7054272    -0.0607954    0.7037847    -0.0486865    0.0876298 
   3.680000000    -0.0848756    0.0602570     0.1712684    0.6816213     0.1701970    0.6823522    -0.0817893    0.1066542 
   3.720000000    -0.1114703    0.1064292     0.3779766    0.5854093     0.3775463    0.5858748    -0.0995979    0.1457585 
   3.760000000    -0.1060446    0.1639707     0.5386109    0.4298862     0.5386136    0.4313557    -0.0903851    0.1904481 
   3.800000000    -0.0752675    0.2091303     0.6420082    0.2377726     0.6410347    0.2383035    -0.0559695    0.2262863 
   3.840000000    -0.0224553    0.2292650     0.6813452    0.0256512     0.6802349    0.0261505    -0.0068250    0.2397096 
   3.880000000     0.0319967    0.2224112     0.6544365   -0.1875170     0.6548610   -0.1864948     0.0437669    0.2246150 
   3.920000000     0.0697987    0.1886456     0.5650477   -0.3857901     0.5648907   -0.3837370     0.0801131    0.1855640 
   3.960000000     0.0827886    0.1411009     0.4158989   -0.5472957     0.4171491   -0.5467740     0.0893484    0.1342303 
   4.000000000     0.0707504    0.0977669     0.2190811   -0.6560546     0.2204040   -0.6549412     0.0694967    0.0888737 
   4.040000000     0.0340939    0.0769731    -0.0053501   -0.6928098    -0.0040884   -0.6932991     0.0300111    0.0618239 
   4.080000000    -0.0046393    0.0774097    -0.2305186   -0.6546271    -0.2298085   -0.6533715    -0.0163419    0.0698113 
   4.120000000    -0.0278147    0.1089712    -0.4283304   -0.5392907    -0.4267002   -0.5411327    -0.0508703    0.0956710 
   4.160000000    -0.0307521    0.1465444    -0.5750203   -0.3734938    -0.5747535   -0.3722481    -0.0553265    0.1397765 
   4.200000000    -0.0074332    0.1769319    -0.6594518   -0.1677213    -0.6576031   -0.1689995    -0.0381312    0.1774032 
   4.240000000     0.0321815    0.1869557    -0.6751223    0.0471172    -0.6744395    0.0462324    -0.0002265    0.1963908 
   4.280000000     0.0706544    0.1769518    -0.6247934    0.2569952    -0.6235352    0.2559399     0.0399192    0.1898844 
   4.320000000     0.0925865    0.1405457    -0.5113693    0.4415337    -0.5124537    0.4396477     0.0695639    0.1628706 
   4.360000000     0.0944569    0.0987277    -0.3455054    0.5837793    -0.3464606    0.5817851     0.0748141    0.1251746 
   4.400000000     0.0714057    0.0680536    -0.1401725    0.6653315    -0.1416128    0.6643053     0.0573382    0.0905587 
   4.440000000     0.0304135    0.0574414     0.0829470    0.6750830     0.0815100    0.6752089     0.0214990    0.0744843 
   4.480000000    -0.0030609    0.0728154     0.2974823    0.6106388     0.2955971    0.6099839    -0.0161554    0.0867118 
   4.520000000    -0.0222522    0.1124411     0.4752013    0.4775488     0.4749105    0.4787018    -0.0420016    0.1165629 
   4.560000000    -0.0146890    0.1506344     0.6000432    0.2985663     0.5977501    0.2980358    -0.0390979    0.1602689 
   4.600000000     0.0207916    0.1823230     0.6571305    0.0903519     0.6567078    0.0924711    -0.0201881    0.1946878 
   4.640000000     0.0677409    0.1865479     0.6509533   -0.1187634     0.6483682   -0.1182374     0.0215590    0.2167018 
   4.680000000     0.1100088    0.1677059     0.5772284   -0.3184088     0.5769735   -0.3148992     0.0590278    0.2090972 
   4.720000000     0.1336625    0.1172781     0.4499475   -0.4824854     0.4502806   -0.4809400     0.0945315    0.1852648 
   4.760000000     0.1338962    0.0698619     0.2743386   -0.6019130     0.2757883   -0.5991310     0.1045974    0.1550667 
   4.800000000     0.0974070    0.0270613     0.0673471   -0.6593565     0.0700247   -0.6591981     0.0986496    0.1224638 
   4.840000000     0.0475781    0.0091526    -0.1490025   -0.6473495    -0.1470462   -0.6467727     0.0759278    0.1107956 
   4.880000000    -0.0046893    0.0269479    -0.3507070   -0.5619485    -0.3488271   -0.5639367     0.0537054    0.1150570 
   4.920000000    -0.0411286    0.0714872    -0.5109565   -0.4174029    -0.5102533   -0.4177910     0.0451648    0.1380546 
   4.960000000    -0.0442885    0.1248995    -0.6131730   -0.2281922    -0.6125256   -0.2300183     0.0597856    0.1673189 
   5.000000000    -0.0162568    0.1771307    -0.6481899   -0.0212684    -0.6481072   -0.0224801     0.0875953    0.1822900 
   5.040000000     0.0317627    0.2063400    -0.6180390    0.1821660    -0.6167123    0.1806107     0.1315361    0.1795146 
   5.080000000     0.0865737    0.2063744    -0.5258951    0.3637090    -0.5264162    0.3626116     0.1685603    0.1530825 
   5.120000000     0.1364134    0.1789335    -0.3880754    0.5095007    -0.3867977    0.5079873     0.1970723    0.1075879 
   5.160000000     0.1637392    0.1405733    -0.2078232    0.6058432    -0.2097014    0.6034908     0.1959425    0.0543270 
   5.200000000     0.1651839    0.0891078    -0.0080043    0.6437675    -0.0085716    0.6436305     0.1738548    0.0034544 
   5.240000000     0.1515594    0.0543003     0.1981245    0.6174063     0.1962946    0.6146922     0.1282590   -0.0262186 
   5.280000000     0.1198756    0.0332501     0.3864443    0.5220752     0.3862262    0.5235771     0.0771967   -0.0372173 
   5.320000000     0.0919409    0.0300539     0.5379814    0.3727208     0.5340291    0.3712560     0.0337531   -0.0184810 
   5.360000000     0.0753886    0.0382910     0.6269372    0.1775022     0.6274002    0.1797764     0.0098405    0.0111540 
   5.400000000     0.0698689    0.0555259     0.6526966   -0.0329729     0.6500091   -0.0320967     0.0026204    0.0450000 
   5.440000000     0.0724516    0.0598663     0.6036516   -0.2421849     0.6047840   -0.2394757     0.0178606    0.0657887 
   5.480000000     0.0822774    0.0591276     0.4951934   -0.4213427     0.4939790   -0.4190241     0.0340348    0.0730241 
   5.520000000     0.0824558    0.0505393     0.3321310   -0.5567167     0.3340437   -0.5543723     0.0480173    0.0620297 
   5.560000000     0.0732539    0.0418222     0.1371890   -0.6328248     0.1385386   -0.6317996     0.0462781    0.0455601 
   5.600000000     0.0606131    0.0363911    -0.0738329   -0.6431303    -0.0714422   -0.6418648     0.0328410    0.0326605 
   5.640000000     0.0458253    0.0511906    -0.2766555   -0.5831858    -0.2742300   -0.5837875     0.0031580    0.0336791 
   5.680000000     0.0368775    0.0662311    -0.4473285   -0.4623581    -0.4463039   -0.4626017    -0.0199475    0.0489869 
   5.720000000     0.0477961    0.0910878    -0.5709204   -0.2925515    -0.5686814   -0.2927911    -0.0355615    0.0811955 
   5.760000000     0.0689775    0.1044671    -0.6303522   -0.0946440    -0.6293523   -0.0955569    -0.0312423    0.1166340 
   5.800000000     0.1002569    0.1056318    -0.6256600    0.1109257    -0.6225307    0.1092174    -0.0139446    0.1490284 
   5.840000000     0.1259706    0.0806335    -0.5542585    0.3012468    -0.5549216    0.2993870     0.0167360    0.1631910 
   5.880000000     0.1443026    0.0496259    -0.4306743    0.4604461    -0.4289735    0.4570002     0.0487474    0.1703033 
   5.920000000     0.1302099    0.0083022    -0.2613441    0.5719783    -0.2632926    0.5703968     0.0722633    0.1544357 
   5.960000000     0.1029650   -0.0222691    -0.0665236    0.6270000    -0.0677866    0.6236430     0.0850567    0.1400789 
   6.000000000     0.0564029   -0.0332276     0.1377451    0.6128773     0.1356613    0.6143958     0.0834695    0.1239546 
   6.040000000     0.0125039   -0.0150805     0.3270557    0.5361935     0.3246636    0.5376752     0.0764713    0.1200152 
   6.080000000    -0.0195130    0.0212075     0.4815163    0.4015569     0.4800853    0.4027743     0.0703806    0.1238192 
   6.120000000    -0.0196859    0.0768318     0.5804082    0.2241104     0.5812092    0.2269125     0.0752160    0.1411827 
   6.160000000    -0.0005445    0.1199880     0.6189030    0.0274757     0.6184020    0.0273041     0.0914970    0.1518509 
   6.200000000     0.0480030    0.1472708     0.5908198   -0.1696156     0.5923818   -0.1677013     0.1218172    0.1597609 
   6.240000000     0.0975604    0.1465623     0.5056943   -0.3450412     0.5048743   -0.3450010     0.1491126    0.1458560 
   6.280000000     0.1441871    0.1251512     0.3698776   -0.4850044     0.3715383   -0.4835242     0.1786121    0.1218796 
   6.320000000     0.1640634    0.0803386     0.1992456   -0.5773052     0.2002519   -0.5755707     0.1861519    0.0796667 
