! 7/15/2021 6:45:01 PM
! C:\USERS\VECTORSTARUSER\DESKTOP\SAMPLE\2021\PD7\18VPD7094DY\1-L16-4.S4P
! CHANNEL.1
! TR.MEASUREMENT
! CORRECTED.DATA
! RF.CORRECTION: FULL.FOUR.PORT.CAL.PORT.1.2.3.4
! AVERAGING.OFF
! IF.BANDWIDTH: 1KHZ
! SWEEPTYPE:  FREQ.SWEEP(Linear)
! Reference Plane Port Info
! PORT:              PORT1              PORT2              PORT3              PORT4             
! DISTANCE:          0  m               0  m               0  m               0  m              
! TIME:              0  s               0  s               0  s               0  s              
! PHASE.OFFSET:      0 째                0 째                0 째                0 째               
! LOSS:              0  dB              0  dB              0  dB              0  dB             
! REF.LOSS:          0  dB              0  dB              0  dB              0  dB             
! REF.FREQ:          0  Hz              0  Hz              0  Hz              0  Hz             
! Power Info
! POWER:             -10  dBm           -10  dBm           -10  dBm           -10  dBm          
! EFF.POWER:         -10  dBm           -10  dBm           -10  dBm           -10  dBm          
# GHZ S RI R 50.0
! FREQ.GHZ         S11RE        S11IM         S12RE        S12IM         S13RE        S13IM         S14RE        S14IM         
!		       S21RE        S21IM         S22RE        S22IM         S23RE        S23IM         S24RE        S24IM         
!		       S31RE        S31IM         S32RE        S32IM         S33RE        S33IM         S34RE        S34IM         
!		       S41RE        S41IM         S42RE        S42IM         S43RE        S43IM         S44RE        S44IM         
!; PortSelection: Port_1234
   0.040000000     0.0219139    0.0049861     0.9607189   -0.1761531     0.0011880    0.0040923    -0.0004858   -0.0001774 
 		       0.9596030   -0.1758193     0.0229764    0.0026506    -0.0005153   -0.0001787     0.0012261    0.0040978
 		       0.0011963    0.0041234    -0.0004925   -0.0001433     0.0222296    0.0034469     0.9622830   -0.1749530
 		      -0.0005590   -0.0001836     0.0012009    0.0041146     0.9622172   -0.1732937     0.0230336    0.0021849
   0.080000000     0.0282895   -0.0009535     0.9106786   -0.3365737     0.0033450    0.0074244    -0.0006342    0.0000298 
 		       0.9099277   -0.3367366     0.0272299   -0.0002595    -0.0006782   -0.0000181     0.0033588    0.0074394
 		       0.0033342    0.0074455    -0.0006651   -0.0000320     0.0293582   -0.0011980     0.9132418   -0.3334712
 		      -0.0006725   -0.0000177     0.0033717    0.0074616     0.9129022   -0.3325827     0.0294045   -0.0004457
   0.120000000     0.0309921   -0.0093013     0.8361049   -0.4828232     0.0064337    0.0099102    -0.0007068    0.0001438 
 		       0.8339474   -0.4822705     0.0310756   -0.0049821    -0.0007461    0.0001274     0.0064706    0.0099512
 		       0.0064214    0.0099737    -0.0007233    0.0001358     0.0298199   -0.0084171     0.8395776   -0.4790904
 		      -0.0006709    0.0000945     0.0064906    0.0099335     0.8391372   -0.4800747     0.0297508   -0.0075547
   0.160000000     0.0316433   -0.0178456     0.7401108   -0.6125427     0.0101512    0.0113141    -0.0005402    0.0005385 
 		       0.7388090   -0.6120887     0.0324988   -0.0171117    -0.0005716    0.0004654     0.0102415    0.0112707
 		       0.0101987    0.0113393    -0.0005462    0.0005525     0.0331986   -0.0168258     0.7453412   -0.6116317
 		      -0.0004777    0.0004918     0.0102590    0.0113606     0.7444894   -0.6113811     0.0301044   -0.0177282
   0.200000000     0.0286282   -0.0236271     0.6224539   -0.7243161     0.0141817    0.0114378    -0.0005330    0.0003600 
 		       0.6212658   -0.7237026     0.0273062   -0.0227998    -0.0004724    0.0002965     0.0143228    0.0113830
 		       0.0142958    0.0115582    -0.0005258    0.0002764     0.0263575   -0.0231725     0.6277411   -0.7232202
 		      -0.0004947    0.0004475     0.0144126    0.0113975     0.6287922   -0.7229334     0.0274589   -0.0227107
   0.240000000     0.0193971   -0.0310118     0.4916215   -0.8141819     0.0181820    0.0103883    -0.0002346    0.0003888 
 		       0.4907927   -0.8131162     0.0203471   -0.0292824    -0.0003726    0.0005035     0.0182820    0.0102190
 		       0.0182053    0.0104752    -0.0003467    0.0005208     0.0201485   -0.0321504     0.4968136   -0.8150866
 		      -0.0002862    0.0003859     0.0183298    0.0102513     0.4977666   -0.8137933     0.0167680   -0.0291443
   0.280000000     0.0120646   -0.0364028     0.3476880   -0.8822225     0.0216926    0.0082061     0.0001140    0.0002931 
 		       0.3465816   -0.8819721     0.0152600   -0.0340136     0.0001840    0.0000780     0.0219538    0.0079256
 		       0.0217040    0.0082530     0.0001556    0.0001447     0.0144041   -0.0363476     0.3543598   -0.8828191
 		       0.0000325    0.0002341     0.0219454    0.0079215     0.3526848   -0.8825594     0.0113025   -0.0337743
   0.320000000     0.0019104   -0.0380834     0.1966236   -0.9234312     0.0245504    0.0049398    -0.0001410   -0.0002285 
 		       0.1953767   -0.9222970     0.0041289   -0.0334305    -0.0000754    0.0002077     0.0246743    0.0046981
 		       0.0245928    0.0049927    -0.0001902    0.0002480     0.0027515   -0.0372219     0.2013408   -0.9257384
 		      -0.0001487   -0.0001709     0.0247090    0.0045918     0.2020771   -0.9251024     0.0037093   -0.0334639
   0.360000000    -0.0052783   -0.0375357     0.0429027   -0.9388251     0.0263673    0.0011107     0.0004068    0.0004964 
 		       0.0404538   -0.9388151    -0.0024949   -0.0336693     0.0000966    0.0004061     0.0264443    0.0006693
 		       0.0264159    0.0011707     0.0000760    0.0003255    -0.0048218   -0.0377416     0.0452592   -0.9449915
 		       0.0003429    0.0004050     0.0264271    0.0006589     0.0472805   -0.9438897    -0.0045603   -0.0289748
   0.400000000    -0.0127761   -0.0321002    -0.1167354   -0.9276304     0.0269434   -0.0031198    -0.0009268   -0.0009954 
 		      -0.1152533   -0.9280457    -0.0089087   -0.0270203    -0.0005508   -0.0009840     0.0269807   -0.0036655
 		       0.0270249   -0.0031187    -0.0005440   -0.0010070    -0.0122606   -0.0349074    -0.1121652   -0.9334720
 		      -0.0009064   -0.0010055     0.0270131   -0.0036623    -0.1112859   -0.9337161    -0.0102886   -0.0258012
   0.440000000    -0.0200847   -0.0262762    -0.2658277   -0.8946403     0.0264789   -0.0074761    -0.0003647    0.0004486 
 		      -0.2657877   -0.8930417    -0.0160898   -0.0228844    -0.0006941    0.0003884     0.0263524   -0.0080747
 		       0.0266275   -0.0073021    -0.0006668    0.0004222    -0.0216273   -0.0272223    -0.2592332   -0.9020842
 		      -0.0004283    0.0003363     0.0264401   -0.0080197    -0.2607069   -0.9007875    -0.0190958   -0.0182579
   0.480000000    -0.0242764   -0.0211563    -0.4091263   -0.8370900     0.0247716   -0.0114104    -0.0009916   -0.0015192 
 		      -0.4102105   -0.8339050    -0.0165988   -0.0179434    -0.0000471   -0.0014516     0.0244658   -0.0121066
 		       0.0250018   -0.0114028    -0.0000074   -0.0014920    -0.0237745   -0.0257554    -0.4076060   -0.8414355
 		      -0.0009546   -0.0014673     0.0246741   -0.0121186    -0.4070846   -0.8431858    -0.0156312   -0.0158234
   0.520000000    -0.0239154   -0.0133328    -0.5374802   -0.7562676     0.0223119   -0.0147605    -0.0017060    0.0007617 
 		      -0.5370730   -0.7541503    -0.0174910   -0.0089688    -0.0021033    0.0013632     0.0220012   -0.0155251
 		       0.0224002   -0.0148243    -0.0021041    0.0013314    -0.0254171   -0.0158428    -0.5370787   -0.7620141
 		      -0.0016420    0.0007632     0.0219972   -0.0154493    -0.5371153   -0.7613170    -0.0156200   -0.0072155
   0.560000000    -0.0232702   -0.0069274    -0.6542119   -0.6552019     0.0187385   -0.0171410    -0.0003295   -0.0002435 
 		      -0.6541085   -0.6551853    -0.0161826   -0.0047420    -0.0002832   -0.0003976     0.0183147   -0.0177783
 		       0.0190254   -0.0172886    -0.0001385   -0.0005145    -0.0257703   -0.0082467    -0.6556870   -0.6614200
 		      -0.0002674   -0.0000699     0.0183141   -0.0180569    -0.6548786   -0.6613453    -0.0116962    0.0005086
   0.600000000    -0.0197297   -0.0004214    -0.7493092   -0.5332986     0.0152460   -0.0185608    -0.0033135    0.0013588 
 		      -0.7499230   -0.5339721    -0.0110220    0.0018120    -0.0035031    0.0012055     0.0144601   -0.0192269
 		       0.0152388   -0.0187399    -0.0035032    0.0010668    -0.0241888   -0.0070897    -0.7519233   -0.5407982
 		      -0.0031658    0.0011888     0.0147273   -0.0190395    -0.7495453   -0.5437790    -0.0106021   -0.0009120
   0.640000000    -0.0180561    0.0008672    -0.8266430   -0.4058780     0.0108419   -0.0187695     0.0000667    0.0015188 
 		      -0.8260954   -0.4017729    -0.0079479    0.0013214     0.0004277    0.0010904     0.0100033   -0.0193847
 		       0.0112804   -0.0191002     0.0004595    0.0009827    -0.0189946    0.0013498    -0.8289854   -0.4131065
 		       0.0000153    0.0014100     0.0102820   -0.0195486    -0.8287183   -0.4124559    -0.0064810    0.0045410
   0.680000000    -0.0136442    0.0025602    -0.8793263   -0.2617036     0.0073435   -0.0179542    -0.0028971    0.0008162 
 		      -0.8776548   -0.2611270    -0.0023162    0.0004700    -0.0023863    0.0012048     0.0062773   -0.0182456
 		       0.0075844   -0.0179725    -0.0023857    0.0012291    -0.0170136   -0.0011763    -0.8836079   -0.2684574
 		      -0.0031237    0.0009774     0.0066326   -0.0183351    -0.8834383   -0.2708625     0.0010448   -0.0070292
   0.720000000    -0.0104580    0.0004541    -0.9064009   -0.1140590     0.0039406   -0.0164642     0.0005841    0.0029279 
 		      -0.9052634   -0.1131695     0.0032602   -0.0005227     0.0000131    0.0034201     0.0028823   -0.0167334
 		       0.0040812   -0.0165615     0.0001565    0.0031621    -0.0141031    0.0003162    -0.9113219   -0.1237165
 		       0.0007458    0.0030993     0.0029199   -0.0168893    -0.9121395   -0.1209923     0.0044795   -0.0006025
   0.760000000    -0.0097448   -0.0011554    -0.9116668    0.0348464     0.0018437   -0.0136954    -0.0009810    0.0018146 
 		      -0.9094255    0.0349336     0.0038767   -0.0067537    -0.0009064    0.0014882     0.0007443   -0.0137085
 		       0.0019627   -0.0138932    -0.0008380    0.0014715    -0.0080733   -0.0018560    -0.9179214    0.0298195
 		      -0.0009093    0.0016409     0.0007547   -0.0137302    -0.9171882    0.0284748     0.0075856   -0.0083639
   0.800000000    -0.0065647   -0.0076148    -0.8892695    0.1844997     0.0000819   -0.0110014     0.0002296    0.0034071 
 		      -0.8897753    0.1846077     0.0071663   -0.0122315    -0.0000706    0.0029555    -0.0008150   -0.0109456
 		       0.0002236   -0.0110955    -0.0001629    0.0030166    -0.0104778   -0.0071395    -0.8969924    0.1811044
 		       0.0001927    0.0033089    -0.0007759   -0.0108477    -0.8988378    0.1800895    -0.0023514   -0.0130990
   0.840000000    -0.0088092   -0.0059886    -0.8457501    0.3232971    -0.0003847   -0.0072883     0.0007641    0.0017557 
 		      -0.8440966    0.3237252     0.0018449   -0.0156413     0.0010615    0.0016609    -0.0014157   -0.0070853
 		      -0.0001207   -0.0074101     0.0009999    0.0017816    -0.0104518   -0.0098870    -0.8552251    0.3237972
 		       0.0008210    0.0017529    -0.0013374   -0.0070422    -0.8536753    0.3239293     0.0018959   -0.0256805
   0.880000000    -0.0139079   -0.0136583    -0.7805929    0.4604774     0.0004406   -0.0045922     0.0006797    0.0022199 
 		      -0.7813389    0.4590578    -0.0026823   -0.0273855     0.0007164    0.0024085    -0.0005310   -0.0041403
 		       0.0005220   -0.0045926     0.0005503    0.0023600    -0.0119996   -0.0175500    -0.7898124    0.4572680
 		       0.0006858    0.0022655    -0.0004236   -0.0042382    -0.7917472    0.4613434    -0.0049726   -0.0270772
   0.920000000    -0.0173964   -0.0120421    -0.6910797    0.5780383     0.0014758   -0.0015871     0.0015156    0.0021466 
 		      -0.6887118    0.5786530    -0.0072746   -0.0268264     0.0013701    0.0020477     0.0008334   -0.0011308
 		       0.0014758   -0.0015644     0.0014811    0.0022392    -0.0210518   -0.0144336    -0.6983302    0.5766522
 		       0.0014696    0.0021935     0.0007378   -0.0012384    -0.6972426    0.5798443    -0.0126202   -0.0221442
   0.960000000    -0.0267231   -0.0135549    -0.5910012    0.6852490     0.0043035    0.0001962     0.0016950    0.0014056 
 		      -0.5876265    0.6863126    -0.0213450   -0.0295978     0.0020320    0.0014203     0.0038256    0.0007933
 		       0.0042541    0.0002555     0.0020368    0.0014151    -0.0275709   -0.0217894    -0.5990427    0.6900437
 		       0.0016540    0.0014123     0.0037817    0.0008213    -0.5988154    0.6853485    -0.0302212   -0.0284724
   1.000000000    -0.0325082   -0.0145016    -0.4632407    0.7700202     0.0065752    0.0013374     0.0012211    0.0018696 
 		      -0.4589430    0.7713647    -0.0257501   -0.0313190     0.0011335    0.0018132     0.0062705    0.0019432
 		       0.0065479    0.0014491     0.0011308    0.0018115    -0.0343926   -0.0198432    -0.4676734    0.7751821
 		       0.0012304    0.0018924     0.0061191    0.0019598    -0.4649983    0.7711106    -0.0363544   -0.0250023
   1.040000000    -0.0367534   -0.0064752    -0.3328703    0.8297479     0.0102721    0.0016503     0.0028837    0.0009817 
 		      -0.3368717    0.8297943    -0.0372549   -0.0232160     0.0028208    0.0015280     0.0098061    0.0021627
 		       0.0102068    0.0018727     0.0027609    0.0016233    -0.0448200   -0.0128874    -0.3409495    0.8395683
 		       0.0029664    0.0009312     0.0096879    0.0023028    -0.3445474    0.8353866    -0.0426366   -0.0226816
   1.080000000    -0.0488079   -0.0010543    -0.1823004    0.8766627     0.0126660    0.0006504     0.0015063    0.0015883 
 		      -0.1851478    0.8754950    -0.0480503   -0.0211936     0.0008593    0.0008363     0.0126384    0.0009479
 		       0.0127148    0.0008903     0.0008307    0.0008589    -0.0524439   -0.0107845    -0.1949040    0.8796714
 		       0.0016181    0.0015399     0.0125782    0.0009437    -0.1917085    0.8796907    -0.0500307   -0.0057280
   1.120000000    -0.0470973    0.0085583    -0.0459725    0.8870308     0.0154054   -0.0006143     0.0027700    0.0018310 
 		      -0.0434182    0.8873500    -0.0486316   -0.0069053     0.0032697    0.0014354     0.0153644   -0.0005375
 		       0.0155800   -0.0005710     0.0031278    0.0013418    -0.0525478    0.0010957    -0.0491083    0.8958914
 		       0.0028984    0.0018327     0.0154454   -0.0003760    -0.0539144    0.8965235    -0.0521797    0.0042453
   1.160000000    -0.0535161    0.0197090     0.0992051    0.8887452     0.0173649   -0.0032152     0.0020995   -0.0001244 
 		       0.1099790    0.8864605    -0.0584730    0.0067391     0.0024880    0.0002665     0.0176215   -0.0035302
 		       0.0174499   -0.0034053     0.0025805    0.0001865    -0.0623534    0.0155637     0.0948612    0.8949817
 		       0.0022313    0.0000018     0.0175764   -0.0035051     0.1003547    0.8912367    -0.0659660    0.0190497
   1.200000000    -0.0469399    0.0267574     0.2432116    0.8464149     0.0185821   -0.0061364     0.0035605    0.0014307 
 		       0.2415003    0.8495947    -0.0537441    0.0134319     0.0033584    0.0016370     0.0183172   -0.0061051
 		       0.0186692   -0.0062194     0.0033721    0.0016563    -0.0576979    0.0176979     0.2427876    0.8554667
 		       0.0034956    0.0013444     0.0182880   -0.0061799     0.2412962    0.8634875    -0.0506462    0.0171966
   1.240000000    -0.0457085    0.0406025     0.3831272    0.8002123     0.0189915   -0.0095475     0.0035520   -0.0012213 
 		       0.3796578    0.8000864    -0.0513332    0.0321211     0.0032279    0.0004773     0.0188026   -0.0100406
 		       0.0192202   -0.0094910     0.0031698    0.0005289    -0.0544984    0.0393776     0.3757454    0.8145153
 		       0.0037349   -0.0014132     0.0187667   -0.0101274     0.3767460    0.8062529    -0.0440769    0.0438760
   1.280000000    -0.0406830    0.0487702     0.5054408    0.7259891     0.0182688   -0.0128154     0.0049942    0.0009311 
 		       0.5007284    0.7204900    -0.0472785    0.0393946     0.0027313   -0.0007869     0.0177011   -0.0131045
 		       0.0184735   -0.0126014     0.0028403   -0.0007330    -0.0514118    0.0442717     0.5018217    0.7294126
 		       0.0050253    0.0011071     0.0179699   -0.0132915     0.5060460    0.7348869    -0.0408681    0.0511599
   1.320000000    -0.0312151    0.0531765     0.6110582    0.6375546     0.0168301   -0.0154407     0.0030278   -0.0016604 
 		       0.6142449    0.6276462    -0.0300864    0.0473886     0.0050617   -0.0015969     0.0163741   -0.0166133
 		       0.0168720   -0.0157305     0.0051103   -0.0015653    -0.0392477    0.0495881     0.6174653    0.6465141
 		       0.0028527   -0.0015907     0.0162593   -0.0166027     0.6108791    0.6395900    -0.0313588    0.0569159
   1.360000000    -0.0226708    0.0620937     0.7003527    0.5198776     0.0142141   -0.0180735     0.0043542   -0.0016604 
 		       0.7098242    0.5213588    -0.0232207    0.0571030     0.0044720   -0.0018305     0.0138331   -0.0185267
 		       0.0144834   -0.0181994     0.0043817   -0.0017470    -0.0272699    0.0622367     0.7049878    0.5279387
 		       0.0040933   -0.0016346     0.0140290   -0.0186287     0.7127429    0.5323079    -0.0215894    0.0560641
   1.400000000    -0.0116473    0.0546721     0.7829969    0.3953213     0.0119720   -0.0202648     0.0023608   -0.0045505 
 		       0.7814778    0.4044876    -0.0084901    0.0526407     0.0042588   -0.0021061     0.0106493   -0.0206594
 		       0.0120089   -0.0202227     0.0040874   -0.0022783    -0.0203474    0.0558668     0.7903030    0.4086910
 		       0.0021592   -0.0047065     0.0101937   -0.0202393     0.7825635    0.4086425     0.0008332    0.0522656
   1.440000000     0.0018080    0.0617427     0.8366224    0.2650983     0.0085105   -0.0208531     0.0053443   -0.0045370 
 		       0.8273007    0.2658792     0.0068470    0.0555442     0.0018492   -0.0036217     0.0070198   -0.0212507
 		       0.0089093   -0.0204535     0.0021170   -0.0036362    -0.0035092    0.0577103     0.8370445    0.2765986
 		       0.0053269   -0.0046089     0.0071403   -0.0215176     0.8437185    0.2704447     0.0080480    0.0584212
   1.480000000     0.0081112    0.0533077     0.8669053    0.1322669     0.0059041   -0.0208771     0.0026160   -0.0042792 
 		       0.8614092    0.1261918     0.0154085    0.0452934     0.0032383   -0.0068241     0.0034636   -0.0212625
 		       0.0057961   -0.0207692     0.0033209   -0.0066054     0.0061681    0.0517709     0.8738602    0.1304015
 		       0.0026576   -0.0041887     0.0038038   -0.0210568     0.8693956    0.1365211     0.0152367    0.0475975
   1.520000000     0.0143146    0.0495243     0.8696071   -0.0155186     0.0016974   -0.0192872     0.0004033   -0.0047485 
 		       0.8717878   -0.0215750     0.0265044    0.0374677     0.0014639   -0.0046106     0.0002438   -0.0199558
 		       0.0021502   -0.0196002     0.0014462   -0.0045401     0.0113041    0.0424642     0.8830592   -0.0096311
 		       0.0005757   -0.0048573     0.0006390   -0.0201373     0.8847783   -0.0153078     0.0134685    0.0385549
   1.560000000     0.0201673    0.0368324     0.8548469   -0.1592088    -0.0000579   -0.0187038     0.0004130   -0.0065317 
 		       0.8600208   -0.1548836     0.0306367    0.0294395     0.0022602   -0.0066870    -0.0020323   -0.0176965
 		       0.0004146   -0.0188825     0.0022204   -0.0066575     0.0182611    0.0312746     0.8641967   -0.1528097
 		       0.0004920   -0.0064855    -0.0017304   -0.0176410     0.8646703   -0.1476728     0.0233116    0.0138126
