! 7/15/2021 6:49:23 PM
! C:\USERS\VECTORSTARUSER\DESKTOP\SAMPLE\2021\PD7\18VPD7094DY\1-L14-8.S4P
! CHANNEL.1
! TR.MEASUREMENT
! CORRECTED.DATA
! RF.CORRECTION: FULL.FOUR.PORT.CAL.PORT.1.2.3.4
! AVERAGING.OFF
! IF.BANDWIDTH: 1KHZ
! SWEEPTYPE:  FREQ.SWEEP(Linear)
! Reference Plane Port Info
! PORT:              PORT1              PORT2              PORT3              PORT4             
! DISTANCE:          0  m               0  m               0  m               0  m              
! TIME:              0  s               0  s               0  s               0  s              
! PHASE.OFFSET:      0 째                0 째                0 째                0 째               
! LOSS:              0  dB              0  dB              0  dB              0  dB             
! REF.LOSS:          0  dB              0  dB              0  dB              0  dB             
! REF.FREQ:          0  Hz              0  Hz              0  Hz              0  Hz             
! Power Info
! POWER:             -10  dBm           -10  dBm           -10  dBm           -10  dBm          
! EFF.POWER:         -10  dBm           -10  dBm           -10  dBm           -10  dBm          
# GHZ S RI R 50.0
! FREQ.GHZ         S11RE        S11IM         S12RE        S12IM         S13RE        S13IM         S14RE        S14IM         
!		       S21RE        S21IM         S22RE        S22IM         S23RE        S23IM         S24RE        S24IM         
!		       S31RE        S31IM         S32RE        S32IM         S33RE        S33IM         S34RE        S34IM         
!		       S41RE        S41IM         S42RE        S42IM         S43RE        S43IM         S44RE        S44IM         
!; PortSelection: Port_1234
   0.040000000     0.0262828   -0.0457084     0.8923092   -0.3391263    -0.0000294   -0.0000084     0.0070230    0.0072227 
 		       0.8918243   -0.3384196     0.0267673   -0.0473758    -0.0000116    0.0000162     0.0045479    0.0095517
 		      -0.0000263    0.0000381    -0.0000185    0.0000095     0.9984602   -0.0217162     0.0016581    0.0037054
 		       0.0069992    0.0072816     0.0045623    0.0096141     0.0016103    0.0037321     0.6923575   -0.7065654
   0.080000000    -0.0135030   -0.0844705     0.7119082   -0.6171631    -0.0000981    0.0001460     0.0180026    0.0012402 
 		       0.7114991   -0.6168543    -0.0132287   -0.0838062     0.0000053    0.0000305     0.0139640    0.0120651
 		      -0.0000770    0.0001485    -0.0000072    0.0000463     0.9999480   -0.0430236     0.0055596    0.0053970
 		       0.0180527    0.0011989     0.0141067    0.0120407     0.0055975    0.0053696     0.0232456   -0.9598595
   0.120000000    -0.0686487   -0.0899867     0.4552353   -0.8105743    -0.0000964    0.0002232     0.0188147   -0.0132975 
 		       0.4553704   -0.8102711    -0.0678323   -0.0893395     0.0000152    0.0000479     0.0210489    0.0081672
 		      -0.0001032    0.0002653     0.0000318    0.0000108     0.9957777   -0.0656581     0.0098839    0.0043253
 		       0.0188909   -0.0131902     0.0210083    0.0082587     0.0098705    0.0044070    -0.5675604   -0.7289116
   0.160000000    -0.1121477   -0.0625519     0.1555228   -0.9052518    -0.0000358    0.0003444     0.0080087   -0.0243878 
 		       0.1552219   -0.9045212    -0.1132233   -0.0648913     0.0000888   -0.0000025     0.0240349    0.0021250
 		      -0.0000266    0.0004105     0.0000521    0.0000108     0.9984894   -0.0850469     0.0137766    0.0014846
 		       0.0078383   -0.0245946     0.0241378    0.0018983     0.0136534    0.0012781    -0.8501961   -0.2418893
   0.200000000    -0.1312017   -0.0152532    -0.1492210   -0.8945867     0.0000820    0.0005063    -0.0078582   -0.0250360 
 		      -0.1501831   -0.8951545    -0.1321367   -0.0150824     0.0000389   -0.0000063     0.0243132   -0.0031034
 		       0.0001096    0.0004610     0.0001173   -0.0000074     0.9939878   -0.1058692     0.0162295   -0.0035089
 		      -0.0076010   -0.0251420     0.0243837   -0.0028490     0.0163826   -0.0031869    -0.8008949    0.2765953
   0.240000000    -0.1199697    0.0303737    -0.4309328   -0.7886017     0.0002363    0.0005765    -0.0199076   -0.0154364 
 		      -0.4310345   -0.7891588    -0.1207723    0.0294023     0.0001030   -0.0000626     0.0226689   -0.0081253
 		       0.0002117    0.0005186     0.0000392   -0.0000334     0.9897177   -0.1325356     0.0176192   -0.0097167
 		      -0.0201518   -0.0152212     0.0225680   -0.0083361     0.0172601   -0.0099465    -0.4763215    0.6575027
   0.280000000    -0.0839563    0.0548932    -0.6609285   -0.5970230     0.0003791    0.0004301    -0.0227863   -0.0013650 
 		      -0.6612986   -0.5983835    -0.0834749    0.0555605     0.0000124   -0.0001784     0.0186833   -0.0123306
 		       0.0003753    0.0004051    -0.0000139   -0.0001283     0.9906736   -0.1484397     0.0162748   -0.0172855
 		      -0.0229766   -0.0017092     0.0189148   -0.0122916     0.0165888   -0.0173120     0.0218041    0.7807755
   0.320000000    -0.0429556    0.0533611    -0.8191873   -0.3454252     0.0004780    0.0002478    -0.0157096    0.0093721 
 		      -0.8187451   -0.3458793    -0.0446180    0.0541444    -0.0000905   -0.0000950     0.0121950   -0.0145355
 		       0.0004359    0.0002770    -0.0000779   -0.0000766     0.9846507   -0.1724269     0.0109458   -0.0261991
 		      -0.0157341    0.0094346     0.0120667   -0.0146295     0.0111783   -0.0257906     0.5098088    0.5655084
   0.360000000    -0.0163125    0.0230481    -0.8826340   -0.0551981     0.0003088    0.0001293    -0.0058519    0.0102728 
 		      -0.8828118   -0.0545606    -0.0164849    0.0234040    -0.0001300   -0.0000798     0.0051208   -0.0113901
 		       0.0003073    0.0001380    -0.0001019   -0.0000699     0.9781876   -0.1966216     0.0023869   -0.0314201
 		      -0.0059590    0.0102527     0.0051818   -0.0113590     0.0016956   -0.0321725     0.7537256    0.0524032
   0.400000000    -0.0140374   -0.0135854    -0.8450784    0.2407084     0.0001413    0.0000959    -0.0023475    0.0051248 
 		      -0.8461453    0.2393142    -0.0133197   -0.0131927    -0.0001144    0.0000395     0.0023062   -0.0043765
 		       0.0001077    0.0001436    -0.0001102   -0.0000069     0.9800763   -0.2118747    -0.0127317   -0.0349348
 		      -0.0023418    0.0051669     0.0023094   -0.0044757    -0.0119762   -0.0345038     0.5799940   -0.4993742
   0.440000000    -0.0417343   -0.0444064    -0.7133303    0.5017316    -0.0001524    0.0003169    -0.0064522    0.0029468 
 		      -0.7135605    0.5014046    -0.0412355   -0.0449633    -0.0000285    0.0000395     0.0053492    0.0025043
 		      -0.0001225    0.0002633    -0.0000799    0.0000785     0.9703642   -0.2356180    -0.0237844   -0.0282285
 		      -0.0063086    0.0028266     0.0051302    0.0025275    -0.0238862   -0.0290160     0.0831362   -0.7733638
   0.480000000    -0.0793653   -0.0501042    -0.5003287    0.7075929    -0.0002600    0.0007322    -0.0102600    0.0085011 
 		      -0.4980761    0.7068513    -0.0766981   -0.0527000    -0.0000613    0.0000715     0.0119111    0.0047862
 		      -0.0002825    0.0006976    -0.0000735   -0.0000402     0.9629640   -0.2601030    -0.0357725   -0.0212754
 		      -0.0104036    0.0090155     0.0123567    0.0047364    -0.0364591   -0.0194885    -0.4313974   -0.6602765
   0.520000000    -0.1146853   -0.0285844    -0.2459463    0.8172192    -0.0001701    0.0009618    -0.0059040    0.0174063 
 		      -0.2431915    0.8203840    -0.1148138   -0.0327382    -0.0003017    0.0000737     0.0166928    0.0038448
 		      -0.0001119    0.0009590    -0.0001296    0.0001674     0.9646167   -0.2753552    -0.0413713   -0.0068227
 		      -0.0063676    0.0162034     0.0157781    0.0042386    -0.0388187   -0.0092612    -0.7331641   -0.2746078
   0.560000000    -0.1279617    0.0122812     0.0436221    0.8529163     0.0000164    0.0011277     0.0042000    0.0213620 
 		       0.0436920    0.8554901    -0.1327914    0.0038028    -0.0002740   -0.0000705     0.0215000   -0.0005682
 		       0.0002402    0.0012009    -0.0001482    0.0001912     0.9516725   -0.3015836    -0.0414040    0.0037628
 		       0.0053544    0.0215935     0.0219423   -0.0015249    -0.0448852    0.0071976    -0.7491903    0.1788173
   0.600000000    -0.1171246    0.0517443     0.3105619    0.7713879     0.0003388    0.0012681     0.0175767    0.0178617 
 		       0.3061585    0.7778558    -0.1231653    0.0440411    -0.0002914    0.0002086     0.0221527   -0.0045291
 		       0.0004816    0.0013914    -0.0002228    0.0003347     0.9437535   -0.3224612    -0.0463097    0.0210523
 		       0.0156732    0.0174366     0.0211276   -0.0033506    -0.0412175    0.0154108    -0.5066822    0.5465910
   0.640000000    -0.0851721    0.0734798     0.5513028    0.6414276     0.0010571    0.0011314     0.0243393    0.0055861 
 		       0.5496985    0.6381336    -0.0950265    0.0678226     0.0000683    0.0002763     0.0228194   -0.0125280
 		       0.0010411    0.0009895     0.0002262    0.0004759     0.9429241   -0.3399408    -0.0337817    0.0336122
 		       0.0248899    0.0040283     0.0224367   -0.0138814    -0.0372190    0.0364961    -0.0933593    0.7088966
   0.680000000    -0.0486265    0.0699285     0.7234187    0.4181375     0.0010911    0.0007777     0.0224624   -0.0072147 
 		       0.7194130    0.4143231    -0.0583809    0.0682462     0.0000532    0.0004591     0.0172704   -0.0166024
 		       0.0010397    0.0010913     0.0000941    0.0005256     0.9281835   -0.3634513    -0.0353217    0.0492595
 		       0.0226058   -0.0057416     0.0179144   -0.0152340    -0.0284702    0.0448633     0.3517369    0.5870057
   0.720000000    -0.0198163    0.0465829     0.8172369    0.1671541     0.0013099    0.0005840     0.0119261   -0.0166691 
 		       0.8192841    0.1661372    -0.0292627    0.0490071     0.0004579    0.0001104     0.0104097   -0.0205973
 		       0.0014518    0.0005242     0.0005339    0.0002924     0.9191908   -0.3798676    -0.0051494    0.0595235
 		       0.0116016   -0.0182155     0.0099427   -0.0218187    -0.0080641    0.0611944     0.6331305    0.1906703
   0.760000000    -0.0182183    0.0077689     0.8225778   -0.1159565     0.0008952    0.0002452     0.0024107   -0.0149578 
 		       0.8225662   -0.1160770    -0.0250581    0.0100383     0.0002612   -0.0000187     0.0025782   -0.0154721
 		       0.0007834    0.0003348     0.0003958    0.0001146     0.9182512   -0.3999038     0.0074790    0.0609269
 		       0.0032292   -0.0144654     0.0030520   -0.0150498     0.0097145    0.0621916     0.5759031   -0.3155128
   0.800000000    -0.0362748   -0.0236745     0.7323598   -0.3805670     0.0004957    0.0001416    -0.0012486   -0.0101342 
 		       0.7306933   -0.3795714    -0.0403770   -0.0197405     0.0004741   -0.0001395    -0.0008604   -0.0083969
 		       0.0004376    0.0001769     0.0004735   -0.0000808     0.9013347   -0.4200766     0.0392647    0.0586343
 		      -0.0014217   -0.0104420    -0.0007902   -0.0084581     0.0391021    0.0560393     0.1930995   -0.6432383
   0.840000000    -0.0742591   -0.0326866     0.5702351   -0.5844827     0.0001643    0.0005630     0.0008951   -0.0078802 
 		       0.5726361   -0.5930218    -0.0784344   -0.0310609     0.0004456   -0.0002461     0.0017936   -0.0003567
 		       0.0000901    0.0005194     0.0003109   -0.0001880     0.8901784   -0.4388358     0.0546048    0.0359890
 		       0.0011259   -0.0074663     0.0016780   -0.0003040     0.0503933    0.0397357    -0.2933866   -0.6289062
   0.880000000    -0.1118413   -0.0180369     0.3310690   -0.7441853     0.0000569    0.0009861     0.0016768   -0.0115887 
 		       0.3342566   -0.7450923    -0.1144795   -0.0198553     0.0002823   -0.0001605     0.0084262    0.0022613
 		       0.0000000    0.0010077     0.0002776   -0.0002190     0.8913859   -0.4599249     0.0612667    0.0284289
 		       0.0012621   -0.0122124     0.0088856    0.0019757     0.0696605    0.0180307    -0.6241079   -0.3311657
   0.920000000    -0.1270249    0.0184959     0.0784200   -0.7926738     0.0001508    0.0013660    -0.0039640   -0.0167091 
 		       0.0901851   -0.7937356    -0.1302918    0.0203698     0.0004435   -0.0004059     0.0138524    0.0025358
 		       0.0004175    0.0013924     0.0003614   -0.0004284     0.8698895   -0.4747609     0.0711219   -0.0079530
 		      -0.0030798   -0.0156196     0.0125534    0.0026348     0.0626561    0.0024007    -0.7053511    0.0834879
   0.960000000    -0.1276640    0.0584563    -0.1923355   -0.7958433     0.0008612    0.0017100    -0.0129855   -0.0162337 
 		      -0.1961870   -0.7805377    -0.1311847    0.0584350     0.0000057   -0.0003823     0.0207128   -0.0028011
 		       0.0005591    0.0015004     0.0000280   -0.0003221     0.8608888   -0.4996222     0.0595746   -0.0144912
 		      -0.0141592   -0.0159235     0.0214476   -0.0039386     0.0693136   -0.0277435    -0.5406593    0.4441504
   1.000000000    -0.1014958    0.0842817    -0.4214300   -0.6680217     0.0010574    0.0016883    -0.0223461   -0.0095441 
 		      -0.4212775   -0.6637422    -0.0992175    0.0868125     0.0002009   -0.0008117     0.0223343   -0.0067334
 		       0.0012350    0.0018194     0.0001286   -0.0008492     0.8583013   -0.5160141     0.0636418   -0.0510510
 		      -0.0199109   -0.0102023     0.0211654   -0.0048885     0.0578859   -0.0356388    -0.1952205    0.6450256
   1.040000000    -0.0668367    0.0988524    -0.6162790   -0.5071710     0.0019335    0.0014596    -0.0242168    0.0050328 
 		      -0.6319334   -0.5076122    -0.0616173    0.1014305    -0.0005129   -0.0006496     0.0234507   -0.0163336
 		       0.0018398    0.0013589    -0.0004824   -0.0005626     0.8340452   -0.5318998     0.0426192   -0.0586322
 		      -0.0247892    0.0073798     0.0229111   -0.0185875     0.0441602   -0.0679806     0.2032978    0.6104481
   1.080000000    -0.0372485    0.0807475    -0.7426445   -0.2593555     0.0020972    0.0011395    -0.0201370    0.0166035 
 		      -0.7415318   -0.2689623    -0.0260414    0.0764119    -0.0004765   -0.0006916     0.0166073   -0.0210708
 		       0.0020083    0.0011799    -0.0004765   -0.0007849     0.8241563   -0.5555317     0.0282217   -0.0817467
 		      -0.0209332    0.0148961     0.0175702   -0.0197280     0.0294525   -0.0755502     0.5167739    0.3183186
   1.120000000    -0.0223986    0.0533146    -0.7918880   -0.0139942     0.0021795    0.0002632    -0.0067961    0.0230705 
 		      -0.7930796   -0.0146925    -0.0049188    0.0429972    -0.0010205   -0.0001376     0.0064150   -0.0255128
 		       0.0021900    0.0002720    -0.0010421   -0.0001292     0.8226020   -0.5680849    -0.0068756   -0.0908004
 		      -0.0059422    0.0235426     0.0053409   -0.0258538    -0.0086504   -0.0883856     0.5762237   -0.1230026
   1.160000000    -0.0335941    0.0242444    -0.7517043    0.2483038     0.0015900   -0.0000875     0.0028958    0.0183824 
 		      -0.7504727    0.2514893    -0.0189619    0.0037897    -0.0008788    0.0002241    -0.0027061   -0.0193864
 		       0.0015035   -0.0000912    -0.0007848    0.0001339     0.7929220   -0.5857735    -0.0366261   -0.0772720
 		       0.0022508    0.0190099    -0.0020610   -0.0199388    -0.0363626   -0.0866456     0.3110048   -0.5001719
   1.200000000    -0.0603814    0.0076038    -0.6170158    0.4783526     0.0009602   -0.0001375     0.0074976    0.0115490 
 		      -0.6211218    0.4769716    -0.0475322   -0.0253417    -0.0008076    0.0005459    -0.0060978   -0.0109867
 		       0.0010279   -0.0001456    -0.0009169    0.0005654     0.7884588   -0.6058564    -0.0715600   -0.0746046
 		       0.0074803    0.0116692    -0.0061000   -0.0110551    -0.0639325   -0.0653205    -0.1237562   -0.6030750
   1.240000000    -0.0898146    0.0161390    -0.4277841    0.6569830     0.0005161    0.0002729     0.0059881    0.0086343 
 		      -0.4307924    0.6523855    -0.0877276   -0.0187198    -0.0004409    0.0006987    -0.0021392   -0.0024104
 		       0.0004094    0.0002442    -0.0004052    0.0006229     0.7831041   -0.6181077    -0.0785290   -0.0321999
 		       0.0061685    0.0084850    -0.0021683   -0.0023285    -0.0843904   -0.0368175    -0.4977575   -0.3983612
   1.280000000    -0.1157309    0.0410310    -0.1909647    0.7556876     0.0004854    0.0009630     0.0060109    0.0100132 
 		      -0.1841648    0.7453671    -0.1249078    0.0042071    -0.0002818    0.0007145     0.0047788    0.0016170
 		       0.0003974    0.0009911    -0.0003487    0.0008058     0.7513117   -0.6387122    -0.1000082   -0.0153331
 		       0.0059181    0.0103834     0.0049612    0.0017628    -0.0940582   -0.0114655    -0.6588358   -0.0387275
   1.320000000    -0.1123888    0.0763193     0.0507297    0.7651140     0.0006988    0.0014150     0.0101192    0.0110644 
 		       0.0693679    0.7694404    -0.1297421    0.0463325    -0.0002153    0.0009380     0.0119669    0.0018450
 		       0.0007309    0.0012674    -0.0001677    0.0008626     0.7501805   -0.6540864    -0.0833813    0.0194386
 		       0.0100598    0.0105300     0.0116657    0.0017634    -0.0879067    0.0176010    -0.5728828    0.3236594
   1.360000000    -0.0970365    0.1117213     0.3010905    0.6877561     0.0013665    0.0017641     0.0173101    0.0078319 
 		       0.3102646    0.7068654    -0.1185518    0.0890852    -0.0000155    0.0010398     0.0175627   -0.0022807
 		       0.0014777    0.0019976    -0.0000922    0.0011377     0.7372588   -0.6720651    -0.0927405    0.0490190
 		       0.0180504    0.0083410     0.0180059   -0.0023097    -0.0861343    0.0460945    -0.3075111    0.5701946
   1.400000000    -0.0602629    0.1208972     0.5193725    0.5577263     0.0019984    0.0018037     0.0242363   -0.0015700 
 		       0.5038083    0.5758405    -0.0804659    0.1080879     0.0002148    0.0010856     0.0212016   -0.0095053
 		       0.0018008    0.0017392     0.0001974    0.0009799     0.7056583   -0.6854331    -0.0635849    0.0649219
 		       0.0233025   -0.0006952     0.0203277   -0.0091020    -0.0676355    0.0674408     0.0497356    0.6155585
   1.440000000    -0.0246303    0.1182774     0.6697870    0.3675725     0.0027393    0.0012845     0.0234210   -0.0118781 
 		       0.6547432    0.3603039    -0.0393787    0.1101953     0.0009427    0.0008570     0.0196466   -0.0190104
 		       0.0028860    0.0013788     0.0011558    0.0009272     0.7041276   -0.7021959    -0.0471575    0.1028325
 		       0.0229627   -0.0125947     0.0195367   -0.0201349    -0.0425840    0.0970012     0.3828877    0.4354379
   1.480000000    -0.0021486    0.0888127     0.7478819    0.1386587     0.0030705    0.0007461     0.0135524   -0.0225158 
 		       0.7440055    0.1301865    -0.0120773    0.0831845     0.0016522    0.0007682     0.0137444   -0.0273918
 		       0.0028996    0.0008018     0.0014814    0.0007481     0.6859794   -0.7183526    -0.0152990    0.1053174
 		       0.0154220   -0.0225509     0.0159598   -0.0275329    -0.0187358    0.1145037     0.5360719    0.0716070
   1.520000000     0.0012788    0.0569727     0.7448879   -0.1198696     0.0025592   -0.0004466    -0.0011266   -0.0230359 
 		       0.7511370   -0.1238030    -0.0013940    0.0480354     0.0014954   -0.0000718     0.0034265   -0.0277751
 		       0.0025490   -0.0006306     0.0016030   -0.0001761     0.6597717   -0.7266734     0.0361006    0.1132439
 		      -0.0013842   -0.0219116     0.0026727   -0.0261675     0.0304507    0.1035083     0.4075950   -0.3241929
   1.560000000    -0.0198470    0.0282945     0.6651182   -0.3594966     0.0023820   -0.0009512    -0.0113918   -0.0184930 
 		       0.6667846   -0.3554448    -0.0205603    0.0188243     0.0018196   -0.0006149    -0.0056500   -0.0211898
 		       0.0024243   -0.0006169     0.0018763   -0.0003697     0.6555636   -0.7449688     0.0584224    0.1040469
 		      -0.0124032   -0.0206488    -0.0065833   -0.0234746     0.0807238    0.1060084     0.0428316   -0.5295177
