! 7/15/2021 6:41:02 PM
! C:\USERS\VECTORSTARUSER\DESKTOP\SAMPLE\2021\PD7\18VPD7094DY\1-L16-8.S4P
! CHANNEL.1
! TR.MEASUREMENT
! CORRECTED.DATA
! RF.CORRECTION: FULL.FOUR.PORT.CAL.PORT.1.2.3.4
! AVERAGING.OFF
! IF.BANDWIDTH: 1KHZ
! SWEEPTYPE:  FREQ.SWEEP(Linear)
! Reference Plane Port Info
! PORT:              PORT1              PORT2              PORT3              PORT4             
! DISTANCE:          0  m               0  m               0  m               0  m              
! TIME:              0  s               0  s               0  s               0  s              
! PHASE.OFFSET:      0 째                0 째                0 째                0 째               
! LOSS:              0  dB              0  dB              0  dB              0  dB             
! REF.LOSS:          0  dB              0  dB              0  dB              0  dB             
! REF.FREQ:          0  Hz              0  Hz              0  Hz              0  Hz             
! Power Info
! POWER:             -10  dBm           -10  dBm           -10  dBm           -10  dBm          
! EFF.POWER:         -10  dBm           -10  dBm           -10  dBm           -10  dBm          
# GHZ S RI R 50.0
! FREQ.GHZ         S11RE        S11IM         S12RE        S12IM         S13RE        S13IM         S14RE        S14IM         
!		       S21RE        S21IM         S22RE        S22IM         S23RE        S23IM         S24RE        S24IM         
!		       S31RE        S31IM         S32RE        S32IM         S33RE        S33IM         S34RE        S34IM         
!		       S41RE        S41IM         S42RE        S42IM         S43RE        S43IM         S44RE        S44IM         
!; PortSelection: Port_1234
   0.040000000     0.0410499   -0.0006638     0.8993010   -0.3290086     0.0037446    0.0078808    -0.0010048    0.0000479 
 		       0.8977633   -0.3286065     0.0422428   -0.0034994    -0.0009825    0.0000337     0.0038325    0.0078605
 		       0.0038136    0.0078715    -0.0009999    0.0000416     0.0426543   -0.0018503     0.9001957   -0.3278568
 		      -0.0009930    0.0000518     0.0038401    0.0078850     0.8995012   -0.3261288     0.0429107   -0.0031100
   0.080000000     0.0435989   -0.0219404     0.7295371   -0.6005079     0.0108335    0.0117836    -0.0008219    0.0006956 
 		       0.7293907   -0.6004351     0.0448490   -0.0198596    -0.0007671    0.0006652     0.0108970    0.0117381
 		       0.0108761    0.0117708    -0.0007837    0.0006723     0.0461487   -0.0202168     0.7340461   -0.5989580
 		      -0.0007894    0.0006862     0.0109826    0.0117410     0.7338488   -0.5980870     0.0472286   -0.0195277
   0.120000000     0.0345205   -0.0407584     0.4884658   -0.7983402     0.0187821    0.0107453    -0.0003089    0.0007679 
 		       0.4877973   -0.7973661     0.0353376   -0.0374655    -0.0003349    0.0007818     0.0189104    0.0105504
 		       0.0187737    0.0106815    -0.0003441    0.0007749     0.0346954   -0.0380806     0.4930263   -0.7965289
 		      -0.0003439    0.0007515     0.0189309    0.0105344     0.4938197   -0.7963719     0.0362688   -0.0372638
   0.160000000     0.0174896   -0.0467310     0.2017083   -0.9051801     0.0246876    0.0052590     0.0004866    0.0004251 
 		       0.2008726   -0.9042588     0.0159676   -0.0498506     0.0005021    0.0005051     0.0247604    0.0049245
 		       0.0247045    0.0052520     0.0005669    0.0004767     0.0194627   -0.0486310     0.2066472   -0.9068384
 		       0.0004580    0.0003634     0.0248130    0.0048736     0.2062894   -0.9063178     0.0188739   -0.0476437
   0.200000000    -0.0047164   -0.0430261    -0.1005238   -0.9114649     0.0263759   -0.0024556    -0.0000699    0.0000005 
 		      -0.1002809   -0.9114852    -0.0027754   -0.0441744    -0.0002068   -0.0000410     0.0263346   -0.0031136
 		       0.0263532   -0.0025683    -0.0002423   -0.0000438    -0.0030525   -0.0430211    -0.0971685   -0.9142309
 		       0.0000362    0.0000136     0.0263808   -0.0031699    -0.0956597   -0.9140334    -0.0010265   -0.0458190
   0.240000000    -0.0191984   -0.0329306    -0.3853647   -0.8232741     0.0235849   -0.0096851    -0.0005725   -0.0002798 
 		      -0.3843255   -0.8229758    -0.0170847   -0.0345073    -0.0004280   -0.0001764     0.0231910   -0.0104567
 		       0.0234466   -0.0097669    -0.0004525   -0.0003081    -0.0166546   -0.0353301    -0.3832808   -0.8278297
 		      -0.0005388   -0.0002459     0.0232502   -0.0104511    -0.3817991   -0.8288780    -0.0140218   -0.0349223
   0.280000000    -0.0202737   -0.0202220    -0.6249856   -0.6500450     0.0173239   -0.0138732    -0.0013295   -0.0000238 
 		      -0.6241309   -0.6504693    -0.0196388   -0.0193251    -0.0014564    0.0000219     0.0167326   -0.0147002
 		       0.0172730   -0.0139381    -0.0014698   -0.0000098    -0.0198200   -0.0198188    -0.6217411   -0.6579228
 		      -0.0012883    0.0000373     0.0166599   -0.0146951    -0.6210915   -0.6566617    -0.0176156   -0.0195051
   0.320000000    -0.0150171   -0.0060832    -0.7939040   -0.4139270     0.0102594   -0.0139508    -0.0013929    0.0012161 
 		      -0.7934808   -0.4137421    -0.0161699   -0.0073715    -0.0011755    0.0010182     0.0091906   -0.0145192
 		       0.0102699   -0.0138627    -0.0012524    0.0010206    -0.0158569   -0.0063792    -0.7934873   -0.4209607
 		      -0.0013822    0.0011844     0.0092351   -0.0145015    -0.7929654   -0.4206887    -0.0163778   -0.0082204
   0.360000000    -0.0080019   -0.0058695    -0.8777484   -0.1391406     0.0049160   -0.0099739    -0.0008587    0.0014688 
 		      -0.8777946   -0.1386658    -0.0069570   -0.0070147    -0.0007876    0.0016118     0.0035465   -0.0101440
 		       0.0048974   -0.0100178    -0.0008834    0.0016467    -0.0096418   -0.0073870    -0.8814155   -0.1445790
 		      -0.0008600    0.0015057     0.0035588   -0.0102099    -0.8809552   -0.1457307    -0.0052837   -0.0084288
   0.400000000    -0.0004286   -0.0095854    -0.8698475    0.1493012     0.0029460   -0.0040075     0.0000064    0.0022703 
 		      -0.8701190    0.1489704     0.0017187   -0.0105604    -0.0000242    0.0022389     0.0015024   -0.0037501
 		       0.0029504   -0.0039695    -0.0000312    0.0022715     0.0025321   -0.0084829    -0.8753037    0.1429266
 		       0.0000367    0.0022387     0.0015472   -0.0038161    -0.8741566    0.1436419     0.0022974   -0.0106127
   0.440000000    -0.0016347   -0.0203476    -0.7726345    0.4154661     0.0051404    0.0019341     0.0009295    0.0020604 
 		      -0.7723560    0.4149508    -0.0009824   -0.0199335     0.0009033    0.0020548     0.0038587    0.0025750
 		       0.0051353    0.0018824     0.0009256    0.0021008    -0.0022265   -0.0168487    -0.7801632    0.4107420
 		       0.0009525    0.0020196     0.0039191    0.0024782    -0.7793317    0.4107265     0.0048623   -0.0202072
   0.480000000    -0.0084599   -0.0249765    -0.5976862    0.6369876     0.0103109    0.0050797     0.0009805    0.0014383 
 		      -0.5960373    0.6379697    -0.0054393   -0.0291712     0.0010862    0.0012485     0.0093874    0.0059848
 		       0.0103556    0.0049349     0.0010587    0.0012684    -0.0076619   -0.0266935    -0.6030199    0.6355022
 		       0.0009632    0.0013770     0.0093517    0.0060401    -0.6060000    0.6364166    -0.0056380   -0.0260187
   0.520000000    -0.0223888   -0.0264890    -0.3607467    0.7865834     0.0164724    0.0046479     0.0021522    0.0016709 
 		      -0.3608583    0.7865003    -0.0209069   -0.0278735     0.0022880    0.0021999     0.0159698    0.0056813
 		       0.0164404    0.0045378     0.0023427    0.0022787    -0.0182925   -0.0259424    -0.3673888    0.7885512
 		       0.0020926    0.0018067     0.0159510    0.0057429    -0.3665688    0.7875994    -0.0160385   -0.0306093
   0.560000000    -0.0342292   -0.0161124    -0.0903415    0.8589503     0.0212986    0.0002756     0.0018552    0.0000898 
 		      -0.0916066    0.8602320    -0.0348037   -0.0244130     0.0017686    0.0001260     0.0210777    0.0012913
 		       0.0213567    0.0001285     0.0018480    0.0000193    -0.0346859   -0.0174302    -0.0984740    0.8638530
 		       0.0020025   -0.0000313     0.0213222    0.0012830    -0.0979487    0.8631476    -0.0340583   -0.0200644
   0.600000000    -0.0407169   -0.0036361     0.1886604    0.8317301     0.0229530   -0.0057831     0.0035447    0.0020507 
 		       0.1872229    0.8342736    -0.0441556   -0.0086205     0.0035066    0.0024929     0.0228106   -0.0050241
 		       0.0227629   -0.0056276     0.0036476    0.0022980    -0.0393185   -0.0071254     0.1831206    0.8401761
 		       0.0037086    0.0020436     0.0225845   -0.0048906     0.1787348    0.8374790    -0.0405319   -0.0125920
   0.640000000    -0.0369613    0.0131883     0.4399708    0.7330372     0.0206321   -0.0125010     0.0029563   -0.0020313 
 		       0.4401752    0.7303634    -0.0429755    0.0054199     0.0025139   -0.0018792     0.0207540   -0.0118176
 		       0.0205495   -0.0121002     0.0027058   -0.0019104    -0.0373061    0.0109763     0.4360774    0.7392062
 		       0.0031322   -0.0017321     0.0209936   -0.0115875     0.4355046    0.7422505    -0.0407691    0.0050169
   0.680000000    -0.0271056    0.0199959     0.6472152    0.5489442     0.0154905   -0.0157004     0.0038502    0.0000224 
 		       0.6447686    0.5458564    -0.0347512    0.0180057     0.0038172   -0.0007626     0.0153247   -0.0155382
 		       0.0156809   -0.0153871     0.0038101   -0.0007743    -0.0275447    0.0233627     0.6433436    0.5545622
 		       0.0040506   -0.0001792     0.0154644   -0.0153541     0.6422630    0.5584315    -0.0261866    0.0171361
   0.720000000    -0.0112644    0.0250537     0.7806549    0.3171324     0.0094975   -0.0164236     0.0019023   -0.0050346 
 		       0.7817912    0.3179992    -0.0186758    0.0253484     0.0027544   -0.0050485     0.0090388   -0.0165433
 		       0.0095351   -0.0165310     0.0026914   -0.0051133    -0.0142215    0.0251715     0.7830670    0.3274178
 		       0.0020098   -0.0051456     0.0091981   -0.0167731     0.7838631    0.3268631    -0.0175814    0.0273656
   0.760000000    -0.0005196    0.0162611     0.8365536    0.0512210     0.0047335   -0.0127669     0.0014569   -0.0038631 
 		       0.8366154    0.0505567    -0.0097081    0.0209780     0.0014617   -0.0038510     0.0039372   -0.0125021
 		       0.0046541   -0.0128877     0.0014542   -0.0037606     0.0036501    0.0222443     0.8399597    0.0596837
 		       0.0015231   -0.0039700     0.0037745   -0.0126462     0.8411712    0.0606738    -0.0015604    0.0224859
   0.800000000     0.0068624    0.0045941     0.8057336   -0.2136722     0.0025967   -0.0084298    -0.0004426   -0.0054811 
 		       0.8063007   -0.2144116     0.0009754    0.0095306    -0.0003279   -0.0052593     0.0016376   -0.0078035
 		       0.0024234   -0.0082365    -0.0003038   -0.0052482     0.0074769    0.0074876     0.8144929   -0.2089263
 		      -0.0004560   -0.0053631     0.0014685   -0.0076048     0.8137949   -0.2073988    -0.0008444    0.0136796
   0.840000000     0.0026681   -0.0079990     0.6935738   -0.4550924     0.0040628   -0.0024730    -0.0025642   -0.0042360 
 		       0.6942181   -0.4578097    -0.0059444    0.0013752    -0.0027409   -0.0044019     0.0025592   -0.0013746
 		       0.0039258   -0.0024064    -0.0026742   -0.0044039     0.0057259   -0.0074793     0.7023731   -0.4544831
 		      -0.0025698   -0.0042981     0.0025770   -0.0013680     0.7037644   -0.4553104     0.0027031   -0.0055754
   0.880000000    -0.0111377   -0.0173477     0.5109185   -0.6519771     0.0079813   -0.0000822    -0.0031603   -0.0027028 
 		       0.5124739   -0.6514544    -0.0145905   -0.0118687    -0.0030817   -0.0028116     0.0068883    0.0016260
 		       0.0080709    0.0000334    -0.0031554   -0.0029107    -0.0042643   -0.0200644     0.5239025   -0.6485628
 		      -0.0031837   -0.0028122     0.0071012    0.0016480     0.5211427   -0.6533620    -0.0046251   -0.0106642
   0.920000000    -0.0214921   -0.0176539     0.2755203   -0.7744970     0.0132167    0.0009471    -0.0047910   -0.0034869 
 		       0.2783844   -0.7728352    -0.0246876   -0.0039603    -0.0042196   -0.0034835     0.0124261    0.0028380
 		       0.0132051    0.0007628    -0.0041953   -0.0036072    -0.0216170   -0.0145597     0.2867832   -0.7741871
 		      -0.0048560   -0.0035910     0.0125865    0.0028430     0.2864943   -0.7769153    -0.0136539   -0.0065875
   0.960000000    -0.0389644   -0.0063063     0.0182794   -0.8260470     0.0176734   -0.0034549    -0.0037034    0.0003045 
 		       0.0136708   -0.8216658    -0.0375077    0.0030909    -0.0045315    0.0010909     0.0177174   -0.0014175
 		       0.0174574   -0.0033450    -0.0044024    0.0011226    -0.0385262   -0.0131020     0.0240968   -0.8313338
 		      -0.0036279    0.0003121     0.0178299   -0.0011990     0.0256538   -0.8288553    -0.0300561    0.0031544
   1.000000000    -0.0424890    0.0026566    -0.2454073   -0.7767521     0.0188868   -0.0081325    -0.0057498   -0.0013104 
 		      -0.2437923   -0.7743643    -0.0356981    0.0166527    -0.0058482   -0.0017186     0.0199115   -0.0057688
 		       0.0189487   -0.0079277    -0.0060235   -0.0015625    -0.0416438    0.0062823    -0.2391972   -0.7821755
 		      -0.0058892   -0.0014319     0.0201250   -0.0054237    -0.2333136   -0.7824318    -0.0286151    0.0168124
   1.040000000    -0.0412171    0.0243684    -0.4713573   -0.6609515     0.0170354   -0.0144380    -0.0042330    0.0038771 
 		      -0.4781716   -0.6644824    -0.0298760    0.0350242    -0.0053245    0.0038936     0.0190306   -0.0122965
 		       0.0172746   -0.0145901    -0.0055290    0.0039917    -0.0436196    0.0247996    -0.4722044   -0.6706861
 		      -0.0041131    0.0037874     0.0194153   -0.0123292    -0.4723982   -0.6738756    -0.0306260    0.0317105
   1.080000000    -0.0320831    0.0309477    -0.6565397   -0.4665157     0.0130739   -0.0170937    -0.0056881    0.0032387 
 		      -0.6552312   -0.4704703    -0.0182706    0.0366807    -0.0053545    0.0019376     0.0147495   -0.0156098
 		       0.0130580   -0.0170985    -0.0054593    0.0019373    -0.0328867    0.0307493    -0.6539778   -0.4826274
 		      -0.0055775    0.0033454     0.0149160   -0.0157255    -0.6518407   -0.4821564    -0.0104164    0.0312199
   1.120000000    -0.0173026    0.0353861    -0.7680388   -0.2415540     0.0072874   -0.0183784    -0.0036595    0.0067084 
 		      -0.7690176   -0.2423425     0.0030301    0.0341065    -0.0028014    0.0068685     0.0095376   -0.0176145
 		       0.0070690   -0.0183541    -0.0028189    0.0068078    -0.0124337    0.0390159    -0.7705489   -0.2512169
 		      -0.0035082    0.0068455     0.0095761   -0.0177127    -0.7727380   -0.2520188     0.0073193    0.0339203
   1.160000000    -0.0085118    0.0307252    -0.8035400    0.0162793     0.0026426   -0.0149884    -0.0010463    0.0059839 
 		      -0.8001383    0.0172478     0.0077633    0.0237305    -0.0009451    0.0064878     0.0040339   -0.0150321
 		       0.0026664   -0.0149030    -0.0008896    0.0064900    -0.0079474    0.0337469    -0.8094846    0.0056000
 		      -0.0011034    0.0060859     0.0042763   -0.0149787    -0.8058990    0.0050532     0.0215208    0.0251326
   1.200000000    -0.0039034    0.0181960    -0.7527613    0.2647926    -0.0001763   -0.0102931     0.0016802    0.0074422 
 		      -0.7532609    0.2675271     0.0138594    0.0013559     0.0015683    0.0074645     0.0018122   -0.0116138
 		      -0.0001651   -0.0103195     0.0015917    0.0075931     0.0028494    0.0179167    -0.7619747    0.2586904
 		       0.0016345    0.0074226     0.0018972   -0.0116579    -0.7631210    0.2587748     0.0170215    0.0114033
   1.240000000    -0.0032187    0.0102353    -0.6276489    0.4914352     0.0009592   -0.0051154     0.0040648    0.0057127 
 		      -0.6271975    0.4898780     0.0059282   -0.0053822     0.0037429    0.0061133     0.0024065   -0.0057471
 		       0.0009141   -0.0050449     0.0038418    0.0061535     0.0012737    0.0115580    -0.6386148    0.4858657
 		       0.0040645    0.0057509     0.0024515   -0.0057603    -0.6402609    0.4849698     0.0118150   -0.0061973
   1.280000000    -0.0171281    0.0038698    -0.4381343    0.6608024     0.0046730   -0.0015359     0.0052762    0.0046446 
 		      -0.4374671    0.6620808    -0.0158585   -0.0148886     0.0055754    0.0041825     0.0055073   -0.0026974
 		       0.0047384   -0.0015713     0.0055440    0.0042506    -0.0163087    0.0037607    -0.4498004    0.6596703
 		       0.0051648    0.0046324     0.0055063   -0.0026808    -0.4524153    0.6603953    -0.0088136   -0.0136480
   1.320000000    -0.0242140    0.0058957    -0.2098417    0.7612375     0.0099344   -0.0011321     0.0065822    0.0020831 
 		      -0.2057429    0.7630987    -0.0267902   -0.0078411     0.0065972    0.0029925     0.0108391   -0.0016089
 		       0.0100007   -0.0010928     0.0066961    0.0030887    -0.0222008    0.0015451    -0.2208264    0.7677890
 		       0.0066243    0.0020039     0.0109354   -0.0015272    -0.2183843    0.7666219    -0.0195338   -0.0154854
   1.360000000    -0.0392503    0.0176262     0.0472075    0.7806934     0.0149839   -0.0040109     0.0065985    0.0008145 
 		       0.0442026    0.7893700    -0.0420666    0.0100538     0.0070639    0.0009811     0.0145931   -0.0041002
 		       0.0148545   -0.0040007     0.0070297    0.0009999    -0.0355405    0.0193447     0.0383149    0.7906566
 		       0.0067041    0.0007082     0.0146608   -0.0040427     0.0331958    0.7940939    -0.0270054    0.0044793
   1.400000000    -0.0383140    0.0264731     0.2934516    0.7290931     0.0176640   -0.0085907     0.0078330   -0.0025894 
 		       0.2849100    0.7273555    -0.0391503    0.0239944     0.0067502   -0.0007761     0.0171358   -0.0094594
 		       0.0175698   -0.0087498     0.0068650   -0.0010078    -0.0391790    0.0291590     0.2836296    0.7408218
 		       0.0079492   -0.0028242     0.0170731   -0.0097245     0.2821731    0.7368073    -0.0304891    0.0279038
   1.440000000    -0.0310930    0.0444264     0.5034986    0.5978435     0.0164177   -0.0143193     0.0080537   -0.0022419 
 		       0.5000631    0.5913293    -0.0252691    0.0432549     0.0061458   -0.0045909     0.0164774   -0.0147973
 		       0.0163167   -0.0141188     0.0062252   -0.0044189    -0.0301970    0.0439970     0.4952937    0.6065305
 		       0.0080463   -0.0021323     0.0166803   -0.0148610     0.5026926    0.6098131    -0.0238561    0.0420061
   1.480000000    -0.0199824    0.0521984     0.6589097    0.4101129     0.0133320   -0.0183315     0.0054972   -0.0053917 
 		       0.6606331    0.4044840    -0.0080762    0.0476127     0.0076367   -0.0068545     0.0127020   -0.0192719
 		       0.0128525   -0.0183194     0.0075597   -0.0067064    -0.0160051    0.0570982     0.6653338    0.4171497
 		       0.0054919   -0.0052193     0.0126914   -0.0190104     0.6580362    0.4187281    -0.0045898    0.0498866
   1.520000000    -0.0063438    0.0513794     0.7501110    0.1748135     0.0062208   -0.0200920     0.0025540   -0.0080727 
 		       0.7559313    0.1725386     0.0124920    0.0419287     0.0031650   -0.0077284     0.0072035   -0.0207632
 		       0.0063648   -0.0199549     0.0032076   -0.0076367    -0.0042352    0.0533592     0.7585592    0.1897527
 		       0.0026306   -0.0079386     0.0075559   -0.0208837     0.7627140    0.1857156     0.0096919    0.0419509
   1.560000000     0.0064586    0.0420793     0.7660363   -0.0726416     0.0023021   -0.0197225     0.0009443   -0.0099379 
 		       0.7704190   -0.0671146     0.0219035    0.0292410     0.0024235   -0.0095817     0.0020458   -0.0188104
 		       0.0025068   -0.0193512     0.0024958   -0.0096026     0.0110678    0.0447647     0.7727990   -0.0606059
 		       0.0011321   -0.0098649     0.0024158   -0.0185506     0.7731709   -0.0525551     0.0308760    0.0188700
