! 7/15/2021 6:53:34 PM
! C:\USERS\VECTORSTARUSER\DESKTOP\SAMPLE\2021\PD7\18VPD7094DY\1-L14-4.S4P
! CHANNEL.1
! TR.MEASUREMENT
! CORRECTED.DATA
! RF.CORRECTION: FULL.FOUR.PORT.CAL.PORT.1.2.3.4
! AVERAGING.OFF
! IF.BANDWIDTH: 1KHZ
! SWEEPTYPE:  FREQ.SWEEP(Linear)
! Reference Plane Port Info
! PORT:              PORT1              PORT2              PORT3              PORT4             
! DISTANCE:          0  m               0  m               0  m               0  m              
! TIME:              0  s               0  s               0  s               0  s              
! PHASE.OFFSET:      0 째                0 째                0 째                0 째               
! LOSS:              0  dB              0  dB              0  dB              0  dB             
! REF.LOSS:          0  dB              0  dB              0  dB              0  dB             
! REF.FREQ:          0  Hz              0  Hz              0  Hz              0  Hz             
! Power Info
! POWER:             -10  dBm           -10  dBm           -10  dBm           -10  dBm          
! EFF.POWER:         -10  dBm           -10  dBm           -10  dBm           -10  dBm          
# GHZ S RI R 50.0
! FREQ.GHZ         S11RE        S11IM         S12RE        S12IM         S13RE        S13IM         S14RE        S14IM         
!		       S21RE        S21IM         S22RE        S22IM         S23RE        S23IM         S24RE        S24IM         
!		       S31RE        S31IM         S32RE        S32IM         S33RE        S33IM         S34RE        S34IM         
!		       S41RE        S41IM         S42RE        S42IM         S43RE        S43IM         S44RE        S44IM         
!; PortSelection: Port_1234
   0.040000000     0.0175205   -0.0207552     0.9612999   -0.1810535     0.0012332    0.0045216    -0.0002167    0.0004953 
 		       0.9592677   -0.1793493     0.0179571   -0.0215199    -0.0002252    0.0005022     0.0012612    0.0044969
 		       0.0012643    0.0045411    -0.0002140    0.0005032     0.0177458   -0.0211997     0.9607750   -0.1795744
 		      -0.0002081    0.0005123     0.0012706    0.0045385     0.9607315   -0.1788167     0.0185437   -0.0225066
   0.080000000     0.0085700   -0.0453492     0.9079806   -0.3474509     0.0037147    0.0082307     0.0002753    0.0010492 
 		       0.9068124   -0.3468379     0.0096091   -0.0461267     0.0003370    0.0010607     0.0036992    0.0082775
 		       0.0037131    0.0082500     0.0003039    0.0010392     0.0097314   -0.0453065     0.9090863   -0.3451350
 		       0.0002872    0.0010463     0.0037645    0.0082801     0.9084810   -0.3447117     0.0106302   -0.0451638
   0.120000000    -0.0107554   -0.0660667     0.8282375   -0.4983367     0.0073147    0.0108913     0.0010815    0.0010280 
 		       0.8272623   -0.4981225    -0.0090332   -0.0658910     0.0010748    0.0011158     0.0072656    0.0109194
 		       0.0072794    0.0109228     0.0011100    0.0010592    -0.0113204   -0.0655912     0.8295130   -0.4950782
 		       0.0010673    0.0010633     0.0072847    0.0109386     0.8292250   -0.4961193    -0.0091726   -0.0653988
   0.160000000    -0.0344578   -0.0784509     0.7247220   -0.6324955     0.0116086    0.0122296     0.0020662    0.0009931 
 		       0.7234412   -0.6328157    -0.0312998   -0.0812073     0.0019636    0.0009659     0.0115748    0.0122007
 		       0.0116026    0.0122914     0.0019490    0.0009830    -0.0313937   -0.0782672     0.7269692   -0.6318496
 		       0.0020290    0.0009373     0.0116602    0.0122570     0.7270878   -0.6313164    -0.0322011   -0.0807182
   0.200000000    -0.0611731   -0.0797477     0.6001427   -0.7428880     0.0160229    0.0120081     0.0024624   -0.0001000 
 		       0.5994384   -0.7426592    -0.0590008   -0.0848067     0.0025227   -0.0001634     0.0161132    0.0119898
 		       0.0160740    0.0120550     0.0025340   -0.0002157    -0.0634608   -0.0790039     0.6013331   -0.7420249
 		       0.0024376   -0.0000463     0.0161101    0.0120177     0.6016059   -0.7411987    -0.0585679   -0.0828676
   0.240000000    -0.0919597   -0.0729068     0.4594010   -0.8292928     0.0202956    0.0105726     0.0027603   -0.0011469 
 		       0.4603488   -0.8290259    -0.0891657   -0.0815596     0.0027459   -0.0009756     0.0203654    0.0104166
 		       0.0203707    0.0104209     0.0027895   -0.0010401    -0.0912360   -0.0757086     0.4600698   -0.8300994
 		       0.0028201   -0.0011798     0.0204817    0.0103785     0.4626248   -0.8309949    -0.0904423   -0.0787565
   0.280000000    -0.1148963   -0.0587261     0.3053708   -0.8917147     0.0238715    0.0075476     0.0026955   -0.0024329 
 		       0.3070595   -0.8909448    -0.1117777   -0.0677918     0.0028081   -0.0026002     0.0239504    0.0074732
 		       0.0240300    0.0075990     0.0028251   -0.0026084    -0.1129656   -0.0601006     0.3110075   -0.8921908
 		       0.0027268   -0.0025050     0.0239538    0.0075096     0.3088494   -0.8897813    -0.1130266   -0.0666556
   0.320000000    -0.1337752   -0.0372463     0.1517420   -0.9260337     0.0265227    0.0039307     0.0015510   -0.0037658 
 		       0.1508147   -0.9246454    -0.1323488   -0.0462585     0.0015753   -0.0034259     0.0265170    0.0037497
 		       0.0264219    0.0039321     0.0015982   -0.0033826    -0.1342506   -0.0361371     0.1530813   -0.9234442
 		       0.0015489   -0.0038215     0.0265225    0.0037979     0.1535359   -0.9259191    -0.1314516   -0.0451881
   0.360000000    -0.1407689   -0.0104572    -0.0069601   -0.9356925     0.0281577   -0.0003969     0.0010651   -0.0036554 
 		      -0.0109068   -0.9353627    -0.1428152   -0.0235167     0.0006686   -0.0037545     0.0281838   -0.0006551
 		       0.0281715   -0.0004589     0.0006149   -0.0038853    -0.1432795   -0.0118286    -0.0092812   -0.9379930
 		       0.0010280   -0.0036471     0.0280917   -0.0006151    -0.0059725   -0.9354516    -0.1430863   -0.0179665
   0.400000000    -0.1417610    0.0178540    -0.1621172   -0.9075606     0.0279825   -0.0046332    -0.0017228   -0.0050859 
 		      -0.1613749   -0.9104070    -0.1455624    0.0072282    -0.0013938   -0.0051793     0.0278685   -0.0049261
 		       0.0279040   -0.0046647    -0.0014054   -0.0052313    -0.1430653    0.0172218    -0.1612138   -0.9098011
 		      -0.0017360   -0.0051158     0.0279090   -0.0050302    -0.1640294   -0.9101453    -0.1455291    0.0087504
   0.440000000    -0.1357966    0.0456207    -0.3151086   -0.8714520     0.0273862   -0.0092810    -0.0022946   -0.0032154 
 		      -0.3139690   -0.8716233    -0.1424378    0.0323584    -0.0027111   -0.0032994     0.0272320   -0.0096134
 		       0.0275068   -0.0093052    -0.0027198   -0.0033287    -0.1379739    0.0475627    -0.3154598   -0.8757858
 		      -0.0022364   -0.0032850     0.0273320   -0.0094586    -0.3104551   -0.8749132    -0.1441276    0.0378493
   0.480000000    -0.1199722    0.0652769    -0.4582624   -0.7958759     0.0245606   -0.0132491    -0.0040056   -0.0041916 
 		      -0.4555458   -0.7931162    -0.1281059    0.0533963    -0.0032667   -0.0044163     0.0243775   -0.0135188
 		       0.0247886   -0.0131329    -0.0032344   -0.0044221    -0.1216375    0.0642431    -0.4538074   -0.7971907
 		      -0.0039782   -0.0042939     0.0245249   -0.0135694    -0.4584129   -0.7971160    -0.1270877    0.0555184
   0.520000000    -0.0985351    0.0828099    -0.5782359   -0.7182474     0.0225124   -0.0160899    -0.0051454   -0.0008735 
 		      -0.5792820   -0.7159082    -0.1098041    0.0732804    -0.0056778   -0.0002907     0.0221483   -0.0165541
 		       0.0224493   -0.0163566    -0.0056735   -0.0001537    -0.0980304    0.0834322    -0.5800543   -0.7160794
 		      -0.0050753   -0.0010494     0.0221044   -0.0164135    -0.5751536   -0.7191254    -0.1077041    0.0747026
   0.560000000    -0.0726659    0.0883209    -0.6949911   -0.6005268     0.0180285   -0.0186182    -0.0041236   -0.0008318 
 		      -0.6975239   -0.6007110    -0.0858430    0.0797216    -0.0039013   -0.0010033     0.0178030   -0.0189441
 		       0.0181920   -0.0187560    -0.0040340   -0.0011563    -0.0752213    0.0914864    -0.6969224   -0.6006429
 		      -0.0041241   -0.0006839     0.0176967   -0.0191170    -0.6971660   -0.5987906    -0.0835539    0.0849605
   0.600000000    -0.0484551    0.0875927    -0.7737229   -0.4754865     0.0147727   -0.0194333    -0.0063271    0.0021379 
 		      -0.7765880   -0.4796232    -0.0605155    0.0815133    -0.0067010    0.0021113     0.0141573   -0.0192094
 		       0.0148012   -0.0194522    -0.0068634    0.0018002    -0.0489419    0.0840113    -0.7755704   -0.4782360
 		      -0.0065009    0.0022176     0.0145055   -0.0193268    -0.7725637   -0.4821523    -0.0614271    0.0818057
   0.640000000    -0.0257277    0.0774786    -0.8557505   -0.3356437     0.0095856   -0.0193557    -0.0028254    0.0025442 
 		      -0.8541361   -0.3348774    -0.0402798    0.0739876    -0.0026427    0.0022105     0.0091731   -0.0194835
 		       0.0098991   -0.0194978    -0.0025309    0.0020097    -0.0235713    0.0790412    -0.8569255   -0.3374732
 		      -0.0028884    0.0024911     0.0093421   -0.0199974    -0.8583454   -0.3362660    -0.0389122    0.0794802
   0.680000000    -0.0102602    0.0618845    -0.8926564   -0.1836401     0.0063235   -0.0175587    -0.0047826    0.0028919 
 		      -0.8883900   -0.1831904    -0.0215880    0.0607942    -0.0041664    0.0032348     0.0055408   -0.0175188
 		       0.0066967   -0.0178672    -0.0041886    0.0031670    -0.0079492    0.0603269    -0.8889714   -0.1890313
 		      -0.0049988    0.0029104     0.0060047   -0.0177652    -0.8904273   -0.1904359    -0.0200414    0.0559098
   0.720000000     0.0001829    0.0420191    -0.9129064   -0.0360190     0.0027909   -0.0157231    -0.0003208    0.0046278 
 		      -0.9138766   -0.0345849    -0.0098649    0.0431353    -0.0008201    0.0051150     0.0020774   -0.0159200
 		       0.0027423   -0.0161638    -0.0009842    0.0053449    -0.0000513    0.0400451    -0.9154782   -0.0363753
 		      -0.0005134    0.0046445     0.0022861   -0.0161559    -0.9157125   -0.0360221    -0.0083142    0.0471226
   0.760000000    -0.0013129    0.0171019    -0.9014629    0.1230960     0.0010109   -0.0123922    -0.0011867    0.0034424 
 		      -0.9015787    0.1235775    -0.0095705    0.0189856    -0.0011017    0.0033923     0.0005410   -0.0121906
 		       0.0011259   -0.0123061    -0.0013299    0.0033388     0.0053435    0.0175474    -0.9018951    0.1219115
 		      -0.0012912    0.0036163     0.0005003   -0.0120914    -0.9028737    0.1212917    -0.0050618    0.0230233
   0.800000000    -0.0062514   -0.0048104    -0.8648645    0.2750947    -0.0000491   -0.0093292     0.0003243    0.0044644 
 		      -0.8646765    0.2737031    -0.0116583   -0.0019312    -0.0000932    0.0043394    -0.0005527   -0.0087653
 		       0.0001049   -0.0092276    -0.0000185    0.0043229    -0.0069535   -0.0055030    -0.8677012    0.2740148
 		       0.0003239    0.0043935    -0.0005991   -0.0087718    -0.8676832    0.2724621    -0.0189617    0.0053882
   0.840000000    -0.0215944   -0.0194518    -0.8036593    0.4118232     0.0003560   -0.0050209     0.0009008    0.0027286 
 		      -0.8076717    0.4140535    -0.0273685   -0.0176774     0.0011527    0.0028299    -0.0004987   -0.0046325
 		       0.0003764   -0.0050533     0.0011183    0.0028109    -0.0213371   -0.0226974    -0.8059334    0.4154458
 		       0.0008663    0.0028507    -0.0004406   -0.0046692    -0.8072213    0.4151631    -0.0260002   -0.0205069
   0.880000000    -0.0448794   -0.0318580    -0.7202801    0.5505757     0.0020324   -0.0022892     0.0007941    0.0025781 
 		      -0.7217639    0.5494965    -0.0464339   -0.0339689     0.0008681    0.0026902     0.0013422   -0.0018291
 		       0.0020427   -0.0023121     0.0008113    0.0026657    -0.0389114   -0.0364916    -0.7243433    0.5476004
 		       0.0007560    0.0026190     0.0013240   -0.0018132    -0.7230074    0.5530173    -0.0434419   -0.0277375
   0.920000000    -0.0644508   -0.0319325    -0.6089294    0.6558353     0.0039639    0.0004034     0.0009264    0.0028128 
 		      -0.6111727    0.6486889    -0.0668177   -0.0331366     0.0009054    0.0026166     0.0034120    0.0008891
 		       0.0040012    0.0005112     0.0007864    0.0025768    -0.0690294   -0.0311758    -0.6097194    0.6497114
 		       0.0009973    0.0027638     0.0034347    0.0010193    -0.6107858    0.6515043    -0.0647405   -0.0234705
   0.960000000    -0.0932659   -0.0244062    -0.5036920    0.7567655     0.0077752    0.0016118     0.0011760    0.0014675 
 		      -0.4917856    0.7595047    -0.0956239   -0.0307557     0.0017934    0.0014718     0.0073927    0.0024257
 		       0.0077149    0.0016177     0.0016641    0.0014145    -0.0913425   -0.0329422    -0.5003577    0.7618217
 		       0.0011896    0.0014908     0.0072944    0.0025804    -0.5015669    0.7581143    -0.0965565   -0.0237814
   1.000000000    -0.1100893   -0.0146025    -0.3480645    0.8169003     0.0106897    0.0016907     0.0001840    0.0029639 
 		      -0.3443003    0.8175431    -0.1116126   -0.0229525     0.0000803    0.0029706     0.0103514    0.0025409
 		       0.0104797    0.0017638     0.0000536    0.0029108    -0.1104670   -0.0173609    -0.3466599    0.8146034
 		       0.0001333    0.0029688     0.0101368    0.0026933    -0.3422033    0.8091837    -0.1135694   -0.0122305
   1.040000000    -0.1245315    0.0072191    -0.2179296    0.8564013     0.0145531    0.0011431     0.0025639    0.0020072 
 		      -0.2279928    0.8701792    -0.1294758   -0.0026266     0.0024506    0.0026603     0.0143450    0.0022527
 		       0.0146840    0.0014313     0.0024768    0.0027500    -0.1287674    0.0065232    -0.2173420    0.8707108
 		       0.0023481    0.0019399     0.0141440    0.0024152    -0.2262952    0.8703878    -0.1278920    0.0005032
   1.080000000    -0.1351879    0.0321148    -0.0439406    0.8856676     0.0169880   -0.0014833     0.0011275    0.0036159 
 		      -0.0529348    0.8785861    -0.1418221    0.0153366     0.0000454    0.0028820     0.0169187   -0.0004205
 		       0.0168833   -0.0011084     0.0000152    0.0029693    -0.1355045    0.0234146    -0.0583488    0.8820046
 		       0.0010552    0.0035034     0.0170226   -0.0003295    -0.0519522    0.8785996    -0.1332500    0.0295651
   1.120000000    -0.1280258    0.0581301     0.0805282    0.8731897     0.0194549   -0.0032238     0.0032107    0.0040514 
 		       0.0786567    0.8706508    -0.1369846    0.0444003     0.0038218    0.0031732     0.0192813   -0.0023587
 		       0.0193719   -0.0033811     0.0037272    0.0031146    -0.1283851    0.0545628     0.0841373    0.8745905
 		       0.0033197    0.0040290     0.0195340   -0.0022085     0.0756073    0.8809764    -0.1318259    0.0533710
   1.160000000    -0.1215053    0.0862769     0.2315360    0.8608284     0.0209047   -0.0073444     0.0025769    0.0020586 
 		       0.2486566    0.8496053    -0.1370951    0.0714544     0.0032833    0.0022718     0.0213653   -0.0066048
 		       0.0207401   -0.0074834     0.0032966    0.0022085    -0.1276997    0.0823470     0.2293989    0.8590896
 		       0.0027505    0.0021413     0.0211541   -0.0063964     0.2365428    0.8460529    -0.1368870    0.0819769
   1.200000000    -0.1015383    0.1003894     0.3591159    0.7823134     0.0209269   -0.0105142     0.0054575    0.0032013 
 		       0.3592271    0.7964029    -0.1204327    0.0857029     0.0053699    0.0033920     0.0211316   -0.0091760
 		       0.0207737   -0.0107102     0.0054024    0.0033290    -0.1079672    0.0926299     0.3653513    0.7824627
 		       0.0054569    0.0032773     0.0210702   -0.0093482     0.3678985    0.7996926    -0.1145338    0.0857917
   1.240000000    -0.0818715    0.1199641     0.5012080    0.7187461     0.0202416   -0.0147193     0.0054031   -0.0002868 
 		       0.4955302    0.7252676    -0.1032719    0.1090229     0.0055482    0.0017265     0.0210611   -0.0138513
 		       0.0206448   -0.0147692     0.0056261    0.0017643    -0.0857143    0.1190242     0.4992661    0.7352285
 		       0.0054731   -0.0003196     0.0207711   -0.0137642     0.4884029    0.7199575    -0.0913449    0.1157206
   1.280000000    -0.0591490    0.1240758     0.6119170    0.6265033     0.0184260   -0.0180772     0.0081578    0.0011624 
 		       0.5965348    0.6216651    -0.0850831    0.1141237     0.0051044   -0.0001983     0.0188100   -0.0166186
 		       0.0182925   -0.0177575     0.0052136   -0.0001685    -0.0673308    0.1199529     0.5975066    0.6203821
 		       0.0083839    0.0013221     0.0191440   -0.0171991     0.6112871    0.6294889    -0.0745807    0.1223641
   1.320000000    -0.0317910    0.1200994     0.7003323    0.5285963     0.0159963   -0.0205920     0.0054295   -0.0018116 
 		       0.7038327    0.5099714    -0.0540972    0.1153575     0.0074864   -0.0027040     0.0167680   -0.0204915
 		       0.0156884   -0.0209294     0.0076042   -0.0027177    -0.0386425    0.1166197     0.7094505    0.5239218
 		       0.0053122   -0.0016488     0.0167575   -0.0202874     0.6945160    0.5177635    -0.0513105    0.1241750
   1.360000000    -0.0105597    0.1144818     0.7670644    0.3915745     0.0119942   -0.0227296     0.0068428   -0.0032731 
 		       0.7836928    0.3900487    -0.0363627    0.1141905     0.0067260   -0.0035352     0.0137594   -0.0218486
 		       0.0120531   -0.0227359     0.0067145   -0.0034257    -0.0145858    0.1160477     0.7689045    0.3927613
 		       0.0066518   -0.0031340     0.0139407   -0.0219694     0.7845547    0.3952326    -0.0338759    0.1146259
   1.400000000     0.0049111    0.0906518     0.8319226    0.2492181     0.0085370   -0.0245275     0.0034447   -0.0062733 
 		       0.8376969    0.2666623    -0.0160792    0.0936488     0.0061689   -0.0044287     0.0097602   -0.0235884
 		       0.0083709   -0.0243916     0.0059817   -0.0044765    -0.0033880    0.0936290     0.8405657    0.2548714
 		       0.0033053   -0.0063128     0.0093470   -0.0229750     0.8285760    0.2597248    -0.0059948    0.0940762
   1.440000000     0.0182706    0.0763586     0.8664023    0.1096311     0.0044046   -0.0238925     0.0057767   -0.0076179 
 		       0.8541610    0.1133999    -0.0018767    0.0815508     0.0023944   -0.0055738     0.0057141   -0.0233889
 		       0.0048472   -0.0236262     0.0027290   -0.0055649     0.0144867    0.0769186     0.8621005    0.1182617
 		       0.0060041   -0.0077141     0.0059272   -0.0238410     0.8691947    0.1084511     0.0067496    0.0875459
   1.480000000     0.0170863    0.0494147     0.8734648   -0.0312790     0.0010775   -0.0228586     0.0025727   -0.0066262 
 		       0.8678018   -0.0348107     0.0005526    0.0566062     0.0021321   -0.0092990     0.0019888   -0.0226598
 		       0.0011198   -0.0227142     0.0023240   -0.0090707     0.0168934    0.0545979     0.8714226   -0.0375373
 		       0.0026625   -0.0065987     0.0023786   -0.0224999     0.8674389   -0.0297519     0.0087912    0.0626098
   1.520000000     0.0127997    0.0307665     0.8495623   -0.1811157    -0.0030298   -0.0192488    -0.0005304   -0.0064346 
 		       0.8532109   -0.1862022     0.0016302    0.0355819     0.0004985   -0.0066230    -0.0009844   -0.0205889
 		      -0.0029328   -0.0196341     0.0005168   -0.0066390     0.0084742    0.0349672     0.8543986   -0.1804044
 		      -0.0003582   -0.0065562    -0.0007261   -0.0209674     0.8568339   -0.1855105    -0.0000014    0.0444535
   1.560000000    -0.0025479    0.0114957     0.8061497   -0.3248634    -0.0050166   -0.0179140    -0.0013555   -0.0078866 
 		       0.8072682   -0.3217390    -0.0101027    0.0181035     0.0001109   -0.0083906    -0.0029065   -0.0174338
 		      -0.0046751   -0.0181152     0.0001837   -0.0086346    -0.0003507    0.0136998     0.8083112   -0.3223372
 		      -0.0013232   -0.0081296    -0.0026227   -0.0175457     0.8061388   -0.3213233    -0.0087774    0.0092770
