! 7/15/2021 4:58:04 PM
! C:\USERS\VECTORSTARUSER\DESKTOP\SAMPLE\2021\PD7\18VPD7094DY\1-L3-4.S4P
! CHANNEL.1
! TR.MEASUREMENT
! CORRECTED.DATA
! RF.CORRECTION: FULL.FOUR.PORT.CAL.PORT.1.2.3.4
! AVERAGING.OFF
! IF.BANDWIDTH: 1KHZ
! SWEEPTYPE:  FREQ.SWEEP(Linear)
! Reference Plane Port Info
! PORT:              PORT1              PORT2              PORT3              PORT4             
! DISTANCE:          0  m               0  m               0  m               0  m              
! TIME:              0  s               0  s               0  s               0  s              
! PHASE.OFFSET:      0 째                0 째                0 째                0 째               
! LOSS:              0  dB              0  dB              0  dB              0  dB             
! REF.LOSS:          0  dB              0  dB              0  dB              0  dB             
! REF.FREQ:          0  Hz              0  Hz              0  Hz              0  Hz             
! Power Info
! POWER:             -10  dBm           -10  dBm           -10  dBm           -10  dBm          
! EFF.POWER:         -10  dBm           -10  dBm           -10  dBm           -10  dBm          
# GHZ S RI R 50.0
! FREQ.GHZ         S11RE        S11IM         S12RE        S12IM         S13RE        S13IM         S14RE        S14IM         
!		       S21RE        S21IM         S22RE        S22IM         S23RE        S23IM         S24RE        S24IM         
!		       S31RE        S31IM         S32RE        S32IM         S33RE        S33IM         S34RE        S34IM         
!		       S41RE        S41IM         S42RE        S42IM         S43RE        S43IM         S44RE        S44IM         
!; PortSelection: Port_1234
   0.040000000     0.0187171   -0.0022500     0.9645177   -0.1762632     0.0013194    0.0048458    -0.0004582    0.0001669 
 		       0.9637838   -0.1748067     0.0185128   -0.0025430    -0.0004126    0.0001628     0.0013497    0.0048402
 		       0.0013195    0.0048897    -0.0004262    0.0001561     0.0189067   -0.0032505     0.9650652   -0.1749350
 		      -0.0004197    0.0001767     0.0013648    0.0048426     0.9645056   -0.1737942     0.0193446   -0.0043619
   0.080000000     0.0220379   -0.0125863     0.9141767   -0.3371008     0.0038572    0.0088926    -0.0003305    0.0006233 
 		       0.9134665   -0.3368227     0.0215326   -0.0115883    -0.0003172    0.0005925     0.0038691    0.0088469
 		       0.0038728    0.0088908    -0.0003106    0.0006018     0.0220759   -0.0130688     0.9151297   -0.3343973
 		      -0.0003507    0.0006055     0.0039190    0.0088809     0.9149349   -0.3335580     0.0220160   -0.0122945
   0.120000000     0.0190941   -0.0239619     0.8398187   -0.4845864     0.0075686    0.0118665     0.0000276    0.0008356 
 		       0.8386938   -0.4838117     0.0186648   -0.0215656     0.0000164    0.0008617     0.0075915    0.0118327
 		       0.0075587    0.0118271     0.0000119    0.0008064     0.0166363   -0.0243090     0.8411027   -0.4813596
 		       0.0000254    0.0008074     0.0075796    0.0117942     0.8414246   -0.4812016     0.0170199   -0.0227446
   0.160000000     0.0126515   -0.0342773     0.7434672   -0.6150179     0.0120357    0.0134721     0.0006421    0.0012535 
 		       0.7422605   -0.6157762     0.0129824   -0.0331977     0.0005631    0.0012770     0.0120710    0.0133773
 		       0.0121059    0.0135439     0.0005308    0.0012226     0.0144624   -0.0344500     0.7467730   -0.6131091
 		       0.0006125    0.0012337     0.0121528    0.0134974     0.7461520   -0.6133263     0.0112178   -0.0345088
   0.200000000     0.0031799   -0.0403613     0.6257793   -0.7277437     0.0168471    0.0136924     0.0009344    0.0007800 
 		       0.6257874   -0.7272139     0.0028589   -0.0384468     0.0010291    0.0006856     0.0169192    0.0135454
 		       0.0169433    0.0136770     0.0009975    0.0007079     0.0001904   -0.0393208     0.6282272   -0.7260772
 		       0.0009260    0.0008727     0.0170335    0.0135324     0.6291623   -0.7249880     0.0023312   -0.0386525
   0.240000000    -0.0114171   -0.0445698     0.4932262   -0.8181052     0.0216026    0.0123171     0.0015439    0.0005158 
 		       0.4933463   -0.8171551    -0.0106463   -0.0428654     0.0014148    0.0006334     0.0217034    0.0122036
 		       0.0216867    0.0123811     0.0014319    0.0006359    -0.0117572   -0.0458374     0.4953481   -0.8184046
 		       0.0014185    0.0005331     0.0217613    0.0122108     0.4973237   -0.8178694    -0.0138083   -0.0423501
   0.280000000    -0.0234103   -0.0451873     0.3473475   -0.8863766     0.0258778    0.0096616     0.0020684   -0.0000400 
 		       0.3491625   -0.8856632    -0.0211238   -0.0419294     0.0021419   -0.0002977     0.0259749    0.0093594
 		       0.0259078    0.0096490     0.0021426   -0.0002659    -0.0222359   -0.0453458     0.3521850   -0.8857135
 		       0.0019661   -0.0001809     0.0259652    0.0093818     0.3519143   -0.8840428    -0.0242439   -0.0423922
   0.320000000    -0.0368302   -0.0411844     0.1970479   -0.9268484     0.0291499    0.0058281     0.0016964   -0.0011269 
 		       0.1968302   -0.9269671    -0.0337488   -0.0349489     0.0017196   -0.0005763     0.0291828    0.0054527
 		       0.0291548    0.0057932     0.0017105   -0.0006742    -0.0369433   -0.0395745     0.2001278   -0.9270955
 		       0.0017216   -0.0011258     0.0292250    0.0054693     0.1998835   -0.9271187    -0.0342913   -0.0360997
   0.360000000    -0.0452647   -0.0334519     0.0419055   -0.9437330     0.0313915    0.0012818     0.0021219   -0.0007041 
 		       0.0400245   -0.9443110    -0.0412915   -0.0287937     0.0017411   -0.0008119     0.0314097    0.0008885
 		       0.0314035    0.0011710     0.0017744   -0.0008926    -0.0457111   -0.0344229     0.0432571   -0.9476154
 		       0.0021277   -0.0006650     0.0313376    0.0007587     0.0444804   -0.9461364    -0.0436242   -0.0254912
   0.400000000    -0.0518612   -0.0228791    -0.1165545   -0.9301707     0.0319721   -0.0038365     0.0003332   -0.0027007 
 		      -0.1148784   -0.9316893    -0.0464214   -0.0154174     0.0007235   -0.0027605     0.0317649   -0.0043439
 		       0.0319140   -0.0038795     0.0007121   -0.0027933    -0.0510286   -0.0245326    -0.1138618   -0.9327860
 		       0.0002983   -0.0027223     0.0317494   -0.0043353    -0.1130426   -0.9342328    -0.0478554   -0.0155826
   0.440000000    -0.0559421   -0.0106995    -0.2669591   -0.8989840     0.0314321   -0.0089204     0.0006853   -0.0012244 
 		      -0.2654305   -0.8991498    -0.0499764   -0.0055095     0.0001852   -0.0012612     0.0313460   -0.0094951
 		       0.0314955   -0.0089202     0.0003473   -0.0012541    -0.0572607   -0.0106428    -0.2630450   -0.9043462
 		       0.0007034   -0.0012189     0.0312807   -0.0094481    -0.2623855   -0.9030719    -0.0533881   -0.0026064
   0.480000000    -0.0551601   -0.0009363    -0.4119402   -0.8384262     0.0292105   -0.0139685    -0.0002459   -0.0035660 
 		      -0.4114670   -0.8360633    -0.0457402    0.0039380     0.0006633   -0.0036419     0.0287950   -0.0143500
 		       0.0293877   -0.0138088     0.0007098   -0.0035247    -0.0552663   -0.0052648    -0.4095057   -0.8399870
 		      -0.0002359   -0.0035830     0.0290773   -0.0144033    -0.4103527   -0.8423516    -0.0458340    0.0041616
   0.520000000    -0.0509473    0.0097390    -0.5375381   -0.7607188     0.0264490   -0.0173270    -0.0013741   -0.0009466 
 		      -0.5397971   -0.7593957    -0.0405640    0.0150251    -0.0019713   -0.0003478     0.0259570   -0.0181069
 		       0.0265512   -0.0175547    -0.0020859   -0.0002443    -0.0496161    0.0068722    -0.5397086   -0.7624920
 		      -0.0012770   -0.0008929     0.0259926   -0.0182533    -0.5386567   -0.7629381    -0.0402882    0.0145567
   0.560000000    -0.0423622    0.0160787    -0.6579962   -0.6580376     0.0223436   -0.0207028     0.0000217   -0.0019147 
 		      -0.6591706   -0.6581933    -0.0323194    0.0194266     0.0002287   -0.0024317     0.0217969   -0.0209780
 		       0.0222342   -0.0208885     0.0001932   -0.0024076    -0.0448463    0.0153518    -0.6603295   -0.6612609
 		       0.0000194   -0.0019734     0.0217169   -0.0212503    -0.6582763   -0.6602371    -0.0303311    0.0230492
   0.600000000    -0.0338723    0.0211784    -0.7506896   -0.5353870     0.0177894   -0.0220982    -0.0035910   -0.0002625 
 		      -0.7517736   -0.5385294    -0.0212185    0.0240088    -0.0038357   -0.0003592     0.0171487   -0.0224582
 		       0.0177236   -0.0220311    -0.0037904   -0.0005046    -0.0367778    0.0138725    -0.7531595   -0.5398095
 		      -0.0035188   -0.0000814     0.0173875   -0.0223968    -0.7504414   -0.5444361    -0.0232484    0.0204087
   0.640000000    -0.0261240    0.0204295    -0.8321867   -0.4073108     0.0127555   -0.0226464    -0.0000145   -0.0004234 
 		      -0.8316343   -0.4052114    -0.0137075    0.0204644     0.0006403   -0.0008389     0.0121465   -0.0228408
 		       0.0131971   -0.0229695     0.0005632   -0.0010947    -0.0262361    0.0186602    -0.8334641   -0.4116945
 		       0.0001099   -0.0002683     0.0125496   -0.0231723    -0.8343993   -0.4108848    -0.0142496    0.0223521
   0.680000000    -0.0197358    0.0170381    -0.8845069   -0.2620832     0.0084815   -0.0213952    -0.0033245   -0.0009496 
 		      -0.8823050   -0.2625949    -0.0040662    0.0153383    -0.0026901   -0.0007402     0.0072840   -0.0214675
 		       0.0086011   -0.0216701    -0.0026365   -0.0006860    -0.0206418    0.0136677    -0.8852616   -0.2652104
 		      -0.0035967   -0.0009734     0.0078762   -0.0216644    -0.8852503   -0.2691361    -0.0029889    0.0076097
   0.720000000    -0.0138561    0.0111513    -0.9117510   -0.1156456     0.0046802   -0.0193263     0.0006362    0.0009609 
 		      -0.9122481   -0.1148972     0.0029572    0.0087454    -0.0000779    0.0015836     0.0037014   -0.0196098
 		       0.0046830   -0.0198141    -0.0000570    0.0016403    -0.0180102    0.0076216    -0.9144722   -0.1202628
 		       0.0006265    0.0011269     0.0037824   -0.0198774    -0.9161177   -0.1190004     0.0014344    0.0082508
   0.760000000    -0.0126033    0.0014651    -0.9171651    0.0374236     0.0017484   -0.0164806    -0.0015836   -0.0004149 
 		      -0.9166576    0.0362298     0.0022763   -0.0032690    -0.0015357   -0.0008477     0.0007987   -0.0164720
 		       0.0017913   -0.0163385    -0.0014792   -0.0007878    -0.0108424    0.0007106    -0.9207883    0.0337640
 		      -0.0013872   -0.0004318     0.0006792   -0.0162748    -0.9201435    0.0326596     0.0052180   -0.0047029
   0.800000000    -0.0121628   -0.0075060    -0.8954767    0.1869914     0.0000847   -0.0129556    -0.0005862    0.0012356 
 		      -0.8969006    0.1869707     0.0033818   -0.0133206    -0.0008724    0.0008813    -0.0011084   -0.0126707
 		       0.0000702   -0.0128317    -0.0008903    0.0008479    -0.0167510   -0.0094569    -0.8998913    0.1856081
 		      -0.0004969    0.0010622    -0.0007971   -0.0125505    -0.9011689    0.1844680    -0.0074181   -0.0141262
   0.840000000    -0.0175427   -0.0135328    -0.8505336    0.3250286    -0.0005777   -0.0089508    -0.0004162   -0.0006744 
 		      -0.8517731    0.3269503    -0.0056225   -0.0212495     0.0000712   -0.0006235    -0.0014045   -0.0085755
 		      -0.0003708   -0.0089731     0.0000671   -0.0007184    -0.0212988   -0.0167994    -0.8559020    0.3290499
 		      -0.0003670   -0.0007026    -0.0013925   -0.0084966    -0.8548973    0.3288051    -0.0068356   -0.0312639
   0.880000000    -0.0289738   -0.0219765    -0.7848140    0.4660045     0.0001905   -0.0051058    -0.0009795   -0.0000479 
 		      -0.7874125    0.4649200    -0.0159019   -0.0346155    -0.0010919    0.0000272    -0.0005128   -0.0045013
 		       0.0002599   -0.0051294    -0.0012033   -0.0000432    -0.0260235   -0.0260023    -0.7899646    0.4648668
 		      -0.0011464   -0.0001412    -0.0005892   -0.0046217    -0.7923120    0.4683583    -0.0175307   -0.0350308
   0.920000000    -0.0366525   -0.0228886    -0.6919880    0.5842546     0.0021096   -0.0020418    -0.0007441   -0.0000909 
 		      -0.6914506    0.5828350    -0.0266207   -0.0340803    -0.0008388   -0.0001327     0.0014334   -0.0014611
 		       0.0021279   -0.0020970    -0.0008330   -0.0000835    -0.0439488   -0.0218298    -0.6943538    0.5811666
 		      -0.0007562   -0.0001017     0.0013792   -0.0014376    -0.6945134    0.5841051    -0.0316611   -0.0305491
   0.960000000    -0.0537637   -0.0218198    -0.5973855    0.6919181     0.0048731    0.0004622    -0.0011790   -0.0007526 
 		      -0.5914007    0.6954504    -0.0467171   -0.0357980    -0.0009692   -0.0005883     0.0041212    0.0010411
 		       0.0048369    0.0005246    -0.0008874   -0.0006921    -0.0543335   -0.0291407    -0.5982634    0.6976091
 		      -0.0011109   -0.0007127     0.0041972    0.0011736    -0.5996301    0.6928690    -0.0545041   -0.0367678
   1.000000000    -0.0626403   -0.0193730    -0.4613788    0.7754716     0.0083085    0.0014204    -0.0023246    0.0004876 
 		      -0.4587229    0.7770608    -0.0557631   -0.0328652    -0.0025206    0.0004823     0.0080142    0.0020490
 		       0.0082445    0.0015336    -0.0024093    0.0004410    -0.0652179   -0.0224772    -0.4609146    0.7778922
 		      -0.0023890    0.0005445     0.0077791    0.0021396    -0.4572016    0.7746685    -0.0656579   -0.0301643
   1.040000000    -0.0736276   -0.0087820    -0.3326257    0.8335642     0.0117343    0.0018156    -0.0007106    0.0002443 
 		      -0.3417766    0.8375409    -0.0703280   -0.0200753    -0.0008320    0.0007442     0.0115226    0.0023929
 		       0.0116560    0.0019734    -0.0008572    0.0008081    -0.0813787   -0.0096498    -0.3374321    0.8452187
 		      -0.0008176    0.0001170     0.0113385    0.0026414    -0.3440976    0.8413416    -0.0760705   -0.0241698
   1.080000000    -0.0852553    0.0035335    -0.1767154    0.8844084     0.0154907    0.0002189    -0.0027586    0.0016811 
 		      -0.1827308    0.8796466    -0.0820820   -0.0122877    -0.0035269    0.0008412     0.0151873    0.0011245
 		       0.0154549    0.0005047    -0.0034901    0.0009004    -0.0876977   -0.0039542    -0.1869303    0.8822249
 		      -0.0026867    0.0015536     0.0152945    0.0011706    -0.1822453    0.8822841    -0.0851719   -0.0019362
   1.120000000    -0.0847291    0.0190593    -0.0437459    0.8904604     0.0179957   -0.0012680    -0.0013063    0.0028189 
 		      -0.0436470    0.8906477    -0.0831247    0.0085257    -0.0006673    0.0022514     0.0178579   -0.0008469
 		       0.0180847   -0.0013835    -0.0007912    0.0021352    -0.0879592    0.0170958    -0.0422629    0.8964773
 		      -0.0012305    0.0028063     0.0180427   -0.0008354    -0.0499891    0.8987532    -0.0879660    0.0144331
   1.160000000    -0.0882448    0.0388338     0.1023409    0.8961915     0.0208616   -0.0043776    -0.0020259    0.0014003 
 		       0.1169336    0.8923035    -0.0908249    0.0277935    -0.0014751    0.0018276     0.0206878   -0.0040367
 		       0.0207841   -0.0046165    -0.0013946    0.0017587    -0.0963028    0.0371209     0.1013809    0.8973327
 		      -0.0019591    0.0015268     0.0204123   -0.0040825     0.1092219    0.8916672    -0.1004198    0.0348262
   1.200000000    -0.0794306    0.0504593     0.2463147    0.8451405     0.0215266   -0.0077534     0.0000900    0.0039647 
 		       0.2425814    0.8546335    -0.0820076    0.0404396    -0.0001282    0.0041471     0.0213911   -0.0076975
 		       0.0214024   -0.0079348     0.0000227    0.0042066    -0.0869085    0.0435656     0.2494945    0.8501984
 		      -0.0000545    0.0039973     0.0213633   -0.0078536     0.2475517    0.8634195    -0.0828607    0.0385780
   1.240000000    -0.0734422    0.0693023     0.3886816    0.8028024     0.0219634   -0.0119123     0.0004756    0.0015625 
 		       0.3832202    0.8053260    -0.0758082    0.0624227     0.0001825    0.0034238     0.0221379   -0.0115388
 		       0.0221642   -0.0118976     0.0001652    0.0035944    -0.0781695    0.0700764     0.3841749    0.8163315
 		       0.0005973    0.0015617     0.0220558   -0.0116239     0.3811281    0.8039976    -0.0723816    0.0693603
   1.280000000    -0.0625953    0.0776301     0.5116480    0.7289588     0.0209127   -0.0157857     0.0027736    0.0047533 
 		       0.5028749    0.7225185    -0.0652333    0.0703466     0.0001257    0.0025353     0.0206065   -0.0154057
 		       0.0207931   -0.0156342     0.0001693    0.0026012    -0.0693826    0.0756845     0.5045578    0.7241203
 		       0.0028254    0.0049538     0.0209429   -0.0157782     0.5124829    0.7331762    -0.0635037    0.0792986
   1.320000000    -0.0445996    0.0845481     0.6141354    0.6428563     0.0192020   -0.0189011     0.0008992    0.0021832 
 		       0.6204312    0.6297697    -0.0430343    0.0807877     0.0034661    0.0019284     0.0190542   -0.0190027
 		       0.0189932   -0.0192080     0.0034779    0.0020182    -0.0509671    0.0818391     0.6240698    0.6450142
 		       0.0009272    0.0023573     0.0189136   -0.0189836     0.6147989    0.6356010    -0.0492085    0.0871191
   1.360000000    -0.0311319    0.0914733     0.7026006    0.5206782     0.0161298   -0.0216427     0.0033286    0.0023056 
 		       0.7175344    0.5229980    -0.0304172    0.0873981     0.0033800    0.0020928     0.0158350   -0.0215925
 		       0.0161422   -0.0217367     0.0033456    0.0020358    -0.0326978    0.0922355     0.7065096    0.5234475
 		       0.0030512    0.0024791     0.0159429   -0.0216569     0.7183448    0.5306708    -0.0339169    0.0848654
   1.400000000    -0.0148729    0.0819652     0.7882984    0.3943138     0.0130732   -0.0238466     0.0015494   -0.0007000 
 		       0.7893666    0.4102336    -0.0096841    0.0793068     0.0036304    0.0020314     0.0128554   -0.0241256
 		       0.0129390   -0.0237302     0.0035932    0.0018733    -0.0211448    0.0833399     0.7968313    0.4035830
 		       0.0014770   -0.0010238     0.0121765   -0.0235858     0.7857668    0.4050726    -0.0055818    0.0798711
   1.440000000     0.0009186    0.0828179     0.8444697    0.2653332     0.0088168   -0.0247101     0.0056143   -0.0005842 
 		       0.8305171    0.2678110     0.0060479    0.0781122     0.0014999    0.0003937     0.0084545   -0.0243993
 		       0.0091530   -0.0243220     0.0016746    0.0004218    -0.0010888    0.0796208     0.8397491    0.2729642
 		       0.0057361   -0.0005434     0.0084980   -0.0246830     0.8495377    0.2653193     0.0057584    0.0828170
   1.480000000     0.0095859    0.0679277     0.8739165    0.1332660     0.0053780   -0.0243474     0.0031354   -0.0000206 
 		       0.8685182    0.1267567     0.0171764    0.0629584     0.0036043   -0.0031208     0.0043544   -0.0242946
 		       0.0052659   -0.0241244     0.0035945   -0.0029245     0.0115630    0.0686270     0.8771337    0.1238539
 		       0.0030677   -0.0000997     0.0047459   -0.0240829     0.8715128    0.1324612     0.0160141    0.0668750
   1.520000000     0.0182461    0.0586400     0.8759632   -0.0169070     0.0012432   -0.0228833     0.0012222   -0.0008470 
 		       0.8810354   -0.0242730     0.0286449    0.0510599     0.0022449   -0.0004549     0.0005926   -0.0228543
 		       0.0016353   -0.0231906     0.0021839   -0.0003786     0.0144823    0.0548788     0.8867372   -0.0153535
 		       0.0012553   -0.0006694     0.0008708   -0.0231844     0.8898129   -0.0227133     0.0158086    0.0534751
   1.560000000     0.0199671    0.0431522     0.8617581   -0.1621285    -0.0013328   -0.0209668     0.0019216   -0.0027549 
 		       0.8685142   -0.1565331     0.0298970    0.0354132     0.0038092   -0.0028157    -0.0022350   -0.0203816
 		      -0.0007730   -0.0209520     0.0037208   -0.0029931     0.0211006    0.0370127     0.8657736   -0.1598626
 		       0.0018844   -0.0027289    -0.0018504   -0.0201933     0.8662148   -0.1537001     0.0247326    0.0228594
