! 7/15/2021 4:52:12 PM
! C:\USERS\VECTORSTARUSER\DESKTOP\SAMPLE\2021\PD7\18VPD7094DY\1-L3-8.S4P
! CHANNEL.1
! TR.MEASUREMENT
! CORRECTED.DATA
! RF.CORRECTION: FULL.FOUR.PORT.CAL.PORT.1.2.3.4
! AVERAGING.OFF
! IF.BANDWIDTH: 1KHZ
! SWEEPTYPE:  FREQ.SWEEP(Linear)
! Reference Plane Port Info
! PORT:              PORT1              PORT2              PORT3              PORT4             
! DISTANCE:          0  m               0  m               0  m               0  m              
! TIME:              0  s               0  s               0  s               0  s              
! PHASE.OFFSET:      0 째                0 째                0 째                0 째               
! LOSS:              0  dB              0  dB              0  dB              0  dB             
! REF.LOSS:          0  dB              0  dB              0  dB              0  dB             
! REF.FREQ:          0  Hz              0  Hz              0  Hz              0  Hz             
! Power Info
! POWER:             -10  dBm           -10  dBm           -10  dBm           -10  dBm          
! EFF.POWER:         -10  dBm           -10  dBm           -10  dBm           -10  dBm          
# GHZ S RI R 50.0
! FREQ.GHZ         S11RE        S11IM         S12RE        S12IM         S13RE        S13IM         S14RE        S14IM         
!		       S21RE        S21IM         S22RE        S22IM         S23RE        S23IM         S24RE        S24IM         
!		       S31RE        S31IM         S32RE        S32IM         S33RE        S33IM         S34RE        S34IM         
!		       S41RE        S41IM         S42RE        S42IM         S43RE        S43IM         S44RE        S44IM         
!; PortSelection: Port_1234
   0.040000000     0.0361808   -0.0111559     0.9015412   -0.3310288     0.0041185    0.0086733    -0.0007492    0.0004884 
 		       0.9003292   -0.3296779     0.0357100   -0.0109434    -0.0007520    0.0004765     0.0041161    0.0086765
 		       0.0041231    0.0087217    -0.0007783    0.0004710     0.0365860   -0.0107357     0.9012548   -0.3306167
 		      -0.0007369    0.0005016     0.0041685    0.0086692     0.9011954   -0.3293004     0.0365437   -0.0114517
   0.080000000     0.0314308   -0.0344646     0.7313315   -0.6049543     0.0119864    0.0130162     0.0000175    0.0011752 
 		       0.7311335   -0.6049495     0.0310552   -0.0331341     0.0000162    0.0011577     0.0120535    0.0129167
 		       0.0119572    0.0130124     0.0000015    0.0011337     0.0320503   -0.0334417     0.7328937   -0.6033010
 		      -0.0000124    0.0011544     0.0119892    0.0128984     0.7324157   -0.6021624     0.0328090   -0.0323769
   0.120000000     0.0105701   -0.0501263     0.4866503   -0.8028653     0.0207477    0.0117700     0.0009335    0.0008390 
 		       0.4865415   -0.8024141     0.0109680   -0.0484002     0.0009249    0.0008448     0.0208376    0.0115594
 		       0.0207658    0.0117772     0.0009126    0.0007860     0.0119608   -0.0491955     0.4889714   -0.7999849
 		       0.0008583    0.0008132     0.0209396    0.0115537     0.4898715   -0.7998940     0.0130983   -0.0473243
   0.160000000    -0.0133849   -0.0528865     0.1974196   -0.9091678     0.0272855    0.0055541     0.0017675   -0.0002001 
 		       0.1969665   -0.9083295    -0.0126190   -0.0517535     0.0017635   -0.0001135     0.0273238    0.0051918
 		       0.0273569    0.0055974     0.0018095   -0.0001005    -0.0089923   -0.0532820     0.1997826   -0.9087016
 		       0.0017661   -0.0002381     0.0274190    0.0051667     0.1997332   -0.9078783    -0.0102717   -0.0501946
   0.200000000    -0.0324159   -0.0412546    -0.1068404   -0.9137092     0.0290561   -0.0030379     0.0009069   -0.0009863 
 		      -0.1066564   -0.9131073    -0.0309254   -0.0378982     0.0007815   -0.0010689     0.0289838   -0.0035699
 		       0.0290924   -0.0030319     0.0007568   -0.0010217    -0.0314582   -0.0390644    -0.1037575   -0.9137929
 		       0.0009711   -0.0009753     0.0290156   -0.0036223    -0.1033852   -0.9133949    -0.0293458   -0.0388962
   0.240000000    -0.0414281   -0.0225389    -0.3921125   -0.8227975     0.0258817   -0.0110761    -0.0000369   -0.0015435 
 		      -0.3908054   -0.8232729    -0.0391214   -0.0205586     0.0001117   -0.0015277     0.0254636   -0.0116745
 		       0.0259232   -0.0110780     0.0001083   -0.0014402    -0.0403402   -0.0253652    -0.3902189   -0.8235009
 		       0.0000242   -0.0014323     0.0255343   -0.0117740    -0.3895048   -0.8246862    -0.0355864   -0.0205018
   0.280000000    -0.0368921   -0.0074656    -0.6308663   -0.6474979     0.0190321   -0.0157321    -0.0009798   -0.0012334 
 		      -0.6311651   -0.6475987    -0.0313770   -0.0045062    -0.0012180   -0.0011766     0.0183758   -0.0163837
 		       0.0189846   -0.0157238    -0.0012078   -0.0011867    -0.0356787   -0.0081305    -0.6286041   -0.6518778
 		      -0.0010381   -0.0011771     0.0183519   -0.0163618    -0.6275204   -0.6501432    -0.0303747   -0.0036218
   0.320000000    -0.0250266    0.0006405    -0.7999966   -0.4089134     0.0111754   -0.0157299    -0.0011944   -0.0000771 
 		      -0.7998828   -0.4092459    -0.0200602    0.0019956    -0.0009695   -0.0003228     0.0102088   -0.0162599
 		       0.0111395   -0.0157926    -0.0009701   -0.0003517    -0.0251961    0.0013647    -0.7972368   -0.4126097
 		      -0.0011871   -0.0001127     0.0102605   -0.0162987    -0.7974237   -0.4115817    -0.0203978    0.0018929
   0.360000000    -0.0129118   -0.0053116    -0.8825666   -0.1299095     0.0050145   -0.0115195    -0.0008613   -0.0001571 
 		      -0.8826585   -0.1311916    -0.0076240   -0.0055486    -0.0008226   -0.0000053     0.0038787   -0.0116784
 		       0.0050137   -0.0115141    -0.0008566    0.0000452    -0.0161615   -0.0063109    -0.8839279   -0.1330913
 		      -0.0009032   -0.0001316     0.0038951   -0.0116965    -0.8828897   -0.1337831    -0.0061648   -0.0060814
   0.400000000    -0.0078256   -0.0163619    -0.8720461    0.1597693     0.0028253   -0.0048085    -0.0004779    0.0003163 
 		      -0.8724113    0.1590082    -0.0024798   -0.0175329    -0.0005089    0.0003831     0.0016053   -0.0046953
 		       0.0028981   -0.0047907    -0.0005782    0.0004081    -0.0059442   -0.0156433    -0.8732056    0.1554303
 		      -0.0004788    0.0003626     0.0016469   -0.0046190    -0.8723150    0.1554687    -0.0024717   -0.0185267
   0.440000000    -0.0153679   -0.0311552    -0.7703085    0.4275428     0.0050369    0.0016322    -0.0004518    0.0001236 
 		      -0.7707965    0.4270602    -0.0126295   -0.0322532    -0.0004312    0.0001160     0.0040547    0.0021247
 		       0.0051296    0.0015944    -0.0004522    0.0002192    -0.0173118   -0.0273675    -0.7752750    0.4227705
 		      -0.0003939    0.0001119     0.0040506    0.0020946    -0.7731144    0.4229755    -0.0072364   -0.0330255
   0.480000000    -0.0292338   -0.0382258    -0.5901557    0.6491530     0.0108684    0.0051387    -0.0013008   -0.0000324 
 		      -0.5880089    0.6503874    -0.0256595   -0.0396220    -0.0011109   -0.0002488     0.0101735    0.0059565
 		       0.0108263    0.0051518    -0.0011364   -0.0002752    -0.0299060   -0.0374920    -0.5918168    0.6475821
 		      -0.0012575   -0.0000323     0.0100823    0.0059593    -0.5938024    0.6480598    -0.0276821   -0.0374907
   0.520000000    -0.0484602   -0.0340318    -0.3513008    0.7941355     0.0172851    0.0046186    -0.0005371    0.0011110 
 		      -0.3501469    0.7954999    -0.0468861   -0.0327927    -0.0003224    0.0017576     0.0168663    0.0053772
 		       0.0174448    0.0046412    -0.0003167    0.0017505    -0.0467404   -0.0311512    -0.3526708    0.7955268
 		      -0.0005538    0.0011644     0.0169276    0.0053745    -0.3519280    0.7930726    -0.0452356   -0.0349236
   0.560000000    -0.0622565   -0.0174619    -0.0760090    0.8651822     0.0225276   -0.0000143    -0.0009557    0.0005695 
 		      -0.0767845    0.8666748    -0.0609960   -0.0185431    -0.0012049    0.0003830     0.0224349    0.0006750
 		       0.0227785    0.0000553    -0.0011723    0.0005414    -0.0640078   -0.0164599    -0.0800658    0.8665765
 		      -0.0009183    0.0006063     0.0225864    0.0007395    -0.0791661    0.8651425    -0.0631140   -0.0154804
   0.600000000    -0.0664057    0.0031891     0.2042118    0.8289117     0.0239398   -0.0064504     0.0012979    0.0033504 
 		       0.2010388    0.8324312    -0.0636613    0.0035590     0.0011754    0.0037530     0.0238040   -0.0061570
 		       0.0237262   -0.0064345     0.0013767    0.0038299    -0.0659197    0.0019280     0.2003409    0.8336619
 		       0.0013684    0.0034066     0.0236892   -0.0061163     0.1943111    0.8307614    -0.0650503    0.0018880
   0.640000000    -0.0577829    0.0201083     0.4559998    0.7289690     0.0218367   -0.0134475     0.0009974   -0.0001041 
 		       0.4570409    0.7250963    -0.0542243    0.0204737     0.0005777   -0.0001726     0.0216845   -0.0132003
 		       0.0218508   -0.0133117     0.0002061   -0.0000824    -0.0582670    0.0212292     0.4511229    0.7313782
 		       0.0010020   -0.0000721     0.0219048   -0.0127052     0.4525475    0.7328546    -0.0566250    0.0220490
   0.680000000    -0.0413912    0.0279850     0.6606304    0.5380259     0.0155099   -0.0169700     0.0028418    0.0022667 
 		       0.6576570    0.5350541    -0.0356463    0.0283410     0.0027561    0.0016213     0.0152768   -0.0170467
 		       0.0158505   -0.0168647     0.0023474    0.0017638    -0.0420191    0.0333198     0.6555840    0.5380483
 		       0.0030772    0.0025083     0.0158670   -0.0168912     0.6540346    0.5417177    -0.0317977    0.0313657
   0.720000000    -0.0239717    0.0258920     0.7897054    0.3029926     0.0092854   -0.0171829     0.0008197   -0.0020306 
 		       0.7925504    0.3031363    -0.0164077    0.0268944     0.0016269   -0.0021647     0.0090452   -0.0173513
 		       0.0098677   -0.0172478     0.0017779   -0.0023826    -0.0268547    0.0285224     0.7904696    0.3097260
 		       0.0011858   -0.0019768     0.0094908   -0.0175019     0.7918220    0.3080579    -0.0170564    0.0328755
   0.760000000    -0.0137807    0.0114566     0.8431417    0.0309701     0.0042726   -0.0135505     0.0015325   -0.0006628 
 		       0.8429237    0.0330549    -0.0079042    0.0100547     0.0016143   -0.0004144     0.0036032   -0.0133707
 		       0.0042593   -0.0133971     0.0014783   -0.0005174    -0.0102244    0.0204189     0.8429076    0.0366882
 		       0.0015061   -0.0006291     0.0037210   -0.0134348     0.8426148    0.0378266    -0.0006177    0.0167617
   0.800000000    -0.0125947   -0.0056424     0.8043689   -0.2372026     0.0023175   -0.0079277     0.0005521   -0.0019925 
 		       0.8051643   -0.2372075    -0.0057195   -0.0081221     0.0007215   -0.0016835     0.0015302   -0.0076059
 		       0.0023912   -0.0079489     0.0007600   -0.0015929    -0.0121960    0.0022894     0.8079793   -0.2327205
 		       0.0006519   -0.0017587     0.0017114   -0.0076350     0.8085591   -0.2311104    -0.0060484   -0.0018233
   0.840000000    -0.0244430   -0.0160387     0.6864957   -0.4739670     0.0041180   -0.0020581    -0.0000268   -0.0009436 
 		       0.6872281   -0.4763388    -0.0220226   -0.0205538    -0.0002701   -0.0011090     0.0033637   -0.0015751
 		       0.0040416   -0.0019298    -0.0001863   -0.0011534    -0.0215800   -0.0103169     0.6899081   -0.4744430
 		      -0.0001183   -0.0009231     0.0033180   -0.0015001     0.6891462   -0.4744992    -0.0139799   -0.0251219
   0.880000000    -0.0446396   -0.0200286     0.4927690   -0.6717526     0.0090276    0.0011339     0.0006146   -0.0004272 
 		       0.4955636   -0.6719161    -0.0417976   -0.0279984     0.0007671   -0.0004991     0.0084732    0.0017804
 		       0.0092226    0.0012132     0.0006599   -0.0005027    -0.0358666   -0.0164951     0.5019445   -0.6676350
 		       0.0006337   -0.0004198     0.0085012    0.0018697     0.4993985   -0.6727525    -0.0320087   -0.0285242
   0.920000000    -0.0571321   -0.0075451     0.2537541   -0.7829167     0.0146798    0.0009419    -0.0005573   -0.0028599 
 		       0.2572329   -0.7808786    -0.0583248   -0.0121067     0.0000260   -0.0028206     0.0142685    0.0015609
 		       0.0147414    0.0010226     0.0001339   -0.0028789    -0.0537995    0.0001210     0.2634522   -0.7802932
 		      -0.0005617   -0.0028838     0.0144868    0.0015598     0.2594053   -0.7810753    -0.0489449   -0.0166521
   0.960000000    -0.0690735    0.0119686    -0.0074492   -0.8328412     0.0201130   -0.0031640     0.0009122   -0.0004117 
 		      -0.0137314   -0.8273579    -0.0727748    0.0047998     0.0000542    0.0005056     0.0197166   -0.0027105
 		       0.0200217   -0.0029951     0.0003252    0.0006612    -0.0633062    0.0088335    -0.0085499   -0.8331496
 		       0.0010023   -0.0004052     0.0198906   -0.0024522    -0.0036413   -0.8321869    -0.0668297    0.0018758
   1.000000000    -0.0623165    0.0289892    -0.2681037   -0.7709058     0.0208737   -0.0089369    -0.0021837   -0.0035716 
 		      -0.2689655   -0.7673721    -0.0653858    0.0244706    -0.0023392   -0.0038644     0.0207094   -0.0086660
 		       0.0211467   -0.0087090    -0.0023061   -0.0037949    -0.0553053    0.0346996    -0.2625140   -0.7719215
 		      -0.0022554   -0.0037693     0.0209908   -0.0083310    -0.2600840   -0.7677194    -0.0635084    0.0240016
   1.040000000    -0.0482208    0.0471014    -0.4938335   -0.6504247     0.0193079   -0.0150995    -0.0009201    0.0007520 
 		      -0.5013696   -0.6558705    -0.0549756    0.0446820    -0.0021353    0.0009195     0.0193889   -0.0150385
 		       0.0198229   -0.0154079    -0.0022211    0.0009888    -0.0455483    0.0487747    -0.4969590   -0.6534222
 		      -0.0007673    0.0005572     0.0197506   -0.0151498    -0.4958803   -0.6585495    -0.0603920    0.0413542
   1.080000000    -0.0270930    0.0451510    -0.6740736   -0.4465860     0.0144524   -0.0186479    -0.0038848   -0.0003892 
 		      -0.6729640   -0.4507199    -0.0365881    0.0426116    -0.0034096   -0.0017987     0.0137916   -0.0187194
 		       0.0146503   -0.0187559    -0.0036331   -0.0019239    -0.0243108    0.0460377    -0.6702383   -0.4580791
 		      -0.0037275   -0.0004245     0.0137805   -0.0189500    -0.6689791   -0.4555547    -0.0356459    0.0399254
   1.120000000    -0.0091825    0.0345830    -0.7812458   -0.2167404     0.0087008   -0.0197678    -0.0025598    0.0024405 
 		      -0.7803848   -0.2181474    -0.0166601    0.0362527    -0.0014914    0.0025902     0.0076808   -0.0196150
 		       0.0087198   -0.0198539    -0.0016199    0.0024092    -0.0019563    0.0401163    -0.7806321   -0.2219042
 		      -0.0025316    0.0025193     0.0077453   -0.0197380    -0.7819877   -0.2235567    -0.0170120    0.0388126
   1.160000000    -0.0052370    0.0160247    -0.8070957    0.0442453     0.0035291   -0.0167633    -0.0014208    0.0012369 
 		      -0.8067042    0.0461772    -0.0152738    0.0194314    -0.0010022    0.0016891     0.0018397   -0.0163991
 		       0.0036704   -0.0166994    -0.0010687    0.0016951    -0.0024186    0.0216880    -0.8090200    0.0380519
 		      -0.0015012    0.0013517     0.0020244   -0.0163214    -0.8060934    0.0381965    -0.0046371    0.0250555
   1.200000000    -0.0139847   -0.0048752    -0.7471604    0.2979517     0.0010560   -0.0117938    -0.0002150    0.0025768 
 		      -0.7474734    0.2963184    -0.0181033   -0.0009238    -0.0001949    0.0026724    -0.0004346   -0.0110119
 		       0.0011061   -0.0118868    -0.0001769    0.0027328    -0.0032072   -0.0023284    -0.7514979    0.2923184
 		      -0.0002642    0.0026317    -0.0004288   -0.0110412    -0.7524520    0.2914766    -0.0140677    0.0119262
   1.240000000    -0.0315594   -0.0119064    -0.6130483    0.5193532     0.0022574   -0.0066910     0.0005107    0.0013942 
 		      -0.6125102    0.5174588    -0.0353861   -0.0047925     0.0002974    0.0017295     0.0006821   -0.0048296
 		       0.0022989   -0.0066040     0.0003295    0.0017290    -0.0204096   -0.0089009    -0.6178524    0.5125240
 		       0.0004724    0.0013871     0.0007014   -0.0048475    -0.6167769    0.5136516    -0.0279941   -0.0029052
   1.280000000    -0.0578259   -0.0098148    -0.4147410    0.6844181     0.0063196   -0.0035079     0.0000974    0.0017893 
 		      -0.4099672    0.6810178    -0.0593534   -0.0053033     0.0005353    0.0011236     0.0050629   -0.0010902
 		       0.0063262   -0.0035013     0.0004935    0.0011618    -0.0483015   -0.0079879    -0.4164933    0.6806582
 		       0.0000296    0.0018145     0.0051444   -0.0010567    -0.4210562    0.6811359    -0.0505694   -0.0027857
   1.320000000    -0.0682820    0.0081401    -0.1794922    0.7702148     0.0113819   -0.0035212     0.0007455    0.0010439 
 		      -0.1711153    0.7772135    -0.0695070    0.0127140     0.0009330    0.0019848     0.0110006   -0.0004738
 		       0.0117424   -0.0034816     0.0008519    0.0019764    -0.0594596    0.0036560    -0.1872335    0.7773578
 		       0.0007424    0.0010591     0.0110798   -0.0004513    -0.1791472    0.7730840    -0.0617135    0.0046047
   1.360000000    -0.0771760    0.0360738     0.0838000    0.7781971     0.0156479   -0.0069332     0.0009567    0.0021537 
 		       0.0800608    0.7916644    -0.0783958    0.0371700     0.0011906    0.0021245     0.0160189   -0.0037604
 		       0.0156827   -0.0068227     0.0011853    0.0020952    -0.0676656    0.0337570     0.0768565    0.7834967
 		       0.0008742    0.0021060     0.0160250   -0.0036118     0.0712046    0.7918051    -0.0642384    0.0296565
   1.400000000    -0.0624003    0.0545614     0.3292572    0.7180583     0.0172807   -0.0121442     0.0027307    0.0003808 
 		       0.3139687    0.7206474    -0.0651478    0.0550750     0.0015573    0.0021946     0.0188224   -0.0090190
 		       0.0175156   -0.0123112     0.0016098    0.0021461    -0.0594627    0.0518057     0.3199179    0.7270316
 		       0.0029552    0.0002023     0.0186340   -0.0094966     0.3165782    0.7184086    -0.0580320    0.0552287
   1.440000000    -0.0408603    0.0703823     0.5335420    0.5785380     0.0156100   -0.0180333     0.0045201    0.0020735 
 		       0.5260227    0.5690173    -0.0458601    0.0699456     0.0021394   -0.0004109     0.0174564   -0.0153369
 		       0.0154907   -0.0175622     0.0021811   -0.0002838    -0.0371840    0.0654345     0.5228375    0.5802006
 		       0.0047046    0.0021272     0.0178085   -0.0154924     0.5329570    0.5841166    -0.0457920    0.0688272
   1.480000000    -0.0164318    0.0637617     0.6817665    0.3828762     0.0111481   -0.0214600     0.0031606   -0.0000930 
 		       0.6820407    0.3765064    -0.0257657    0.0664368     0.0049736   -0.0020650     0.0135084   -0.0200283
 		       0.0108145   -0.0214741     0.0049123   -0.0018974    -0.0108260    0.0680410     0.6854100    0.3823042
 		       0.0031460   -0.0000951     0.0134463   -0.0196770     0.6757080    0.3828487    -0.0242034    0.0688498
   1.520000000     0.0018498    0.0484702     0.7635767    0.1408944     0.0042489   -0.0223345     0.0014011   -0.0023278 
 		       0.7710642    0.1395841    -0.0082762    0.0542707     0.0021280   -0.0020153     0.0075306   -0.0217145
 		       0.0046509   -0.0223930     0.0020355   -0.0019267     0.0032959    0.0497299     0.7679367    0.1500568
 		       0.0015665   -0.0022739     0.0078420   -0.0217572     0.7731784    0.1470608    -0.0119623    0.0557466
   1.560000000     0.0047265    0.0244281     0.7683103   -0.1085305    -0.0006401   -0.0200622     0.0015870   -0.0040081 
 		       0.7697688   -0.1041360    -0.0065370    0.0367593     0.0029257   -0.0037764     0.0019083   -0.0193992
 		      -0.0002953   -0.0199531     0.0030235   -0.0038614     0.0125540    0.0248397     0.7701539   -0.1010296
 		       0.0015477   -0.0040447     0.0021226   -0.0193139     0.7670038   -0.0991108    -0.0000802    0.0297732
