! 7/15/2021 4:46:25 PM
! C:\USERS\VECTORSTARUSER\DESKTOP\SAMPLE\2021\PD7\18VPD7094DY\1-L5-8.S4P
! CHANNEL.1
! TR.MEASUREMENT
! CORRECTED.DATA
! RF.CORRECTION: FULL.FOUR.PORT.CAL.PORT.1.2.3.4
! AVERAGING.OFF
! IF.BANDWIDTH: 1KHZ
! SWEEPTYPE:  FREQ.SWEEP(Linear)
! Reference Plane Port Info
! PORT:              PORT1              PORT2              PORT3              PORT4             
! DISTANCE:          0  m               0  m               0  m               0  m              
! TIME:              0  s               0  s               0  s               0  s              
! PHASE.OFFSET:      0 째                0 째                0 째                0 째               
! LOSS:              0  dB              0  dB              0  dB              0  dB             
! REF.LOSS:          0  dB              0  dB              0  dB              0  dB             
! REF.FREQ:          0  Hz              0  Hz              0  Hz              0  Hz             
! Power Info
! POWER:             -10  dBm           -10  dBm           -10  dBm           -10  dBm          
! EFF.POWER:         -10  dBm           -10  dBm           -10  dBm           -10  dBm          
# GHZ S RI R 50.0
! FREQ.GHZ         S11RE        S11IM         S12RE        S12IM         S13RE        S13IM         S14RE        S14IM         
!		       S21RE        S21IM         S22RE        S22IM         S23RE        S23IM         S24RE        S24IM         
!		       S31RE        S31IM         S32RE        S32IM         S33RE        S33IM         S34RE        S34IM         
!		       S41RE        S41IM         S42RE        S42IM         S43RE        S43IM         S44RE        S44IM         
!; PortSelection: Port_1234
   0.040000000     0.0252149   -0.0499768     0.8949820   -0.3394545     0.0039402    0.0081103    -0.0000434    0.0009602 
 		       0.8931170   -0.3387513     0.0242732   -0.0491080    -0.0000825    0.0009715     0.0038854    0.0081152
 		       0.0039620    0.0081162    -0.0000320    0.0009814     0.0251572   -0.0497179     0.8933771   -0.3386553
 		      -0.0000231    0.0009621     0.0039262    0.0081315     0.8937511   -0.3375396     0.0244635   -0.0507158
   0.080000000    -0.0157846   -0.0901591     0.7136773   -0.6177348     0.0115121    0.0117603     0.0016450    0.0008260 
 		       0.7133163   -0.6173452    -0.0175242   -0.0879634     0.0016339    0.0008305     0.0113773    0.0118756
 		       0.0115621    0.0117716     0.0016574    0.0008065    -0.0162598   -0.0899943     0.7140586   -0.6161106
 		       0.0016353    0.0008219     0.0114550    0.0119015     0.7142476   -0.6153109    -0.0168936   -0.0875668
   0.120000000    -0.0750947   -0.0959986     0.4569240   -0.8109202     0.0194992    0.0099722     0.0022837   -0.0011130 
 		       0.4567804   -0.8103422    -0.0762299   -0.0904880     0.0023041   -0.0010810     0.0193846    0.0102402
 		       0.0195356    0.0099625     0.0022777   -0.0011255    -0.0742754   -0.0954615     0.4580190   -0.8080887
 		       0.0022633   -0.0010967     0.0194729    0.0102655     0.4590819   -0.8084359    -0.0753266   -0.0908772
   0.160000000    -0.1225304   -0.0692140     0.1572397   -0.9061091     0.0248444    0.0036782     0.0014720   -0.0032226 
 		       0.1563963   -0.9046382    -0.1215652   -0.0615289     0.0015163   -0.0031553     0.0247114    0.0041448
 		       0.0248442    0.0036919     0.0015430   -0.0031797    -0.1193192   -0.0689042     0.1588010   -0.9042237
 		       0.0014341   -0.0032806     0.0248107    0.0041905     0.1592969   -0.9039842    -0.1213339   -0.0598305
   0.200000000    -0.1421259   -0.0201935    -0.1467002   -0.8968885     0.0256056   -0.0039965    -0.0014846   -0.0036763 
 		      -0.1473143   -0.8962131    -0.1384783   -0.0094588    -0.0016106   -0.0037261     0.0257179   -0.0034203
 		       0.0255901   -0.0039884    -0.0016375   -0.0037226    -0.1420684   -0.0179904    -0.1446039   -0.8957744
 		      -0.0014789   -0.0036789     0.0257551   -0.0034549    -0.1436101   -0.8949437    -0.1386038   -0.0104833
   0.240000000    -0.1312198    0.0277447    -0.4289410   -0.7912307     0.0219439   -0.0108425    -0.0039494   -0.0023346 
 		      -0.4289973   -0.7911625    -0.1235363    0.0374090    -0.0037532   -0.0022875     0.0222931   -0.0101524
 		       0.0219062   -0.0108627    -0.0038228   -0.0023378    -0.1309672    0.0254147    -0.4272766   -0.7890356
 		      -0.0039176   -0.0023602     0.0223522   -0.0102126    -0.4279539   -0.7913595    -0.1215196    0.0380855
   0.280000000    -0.0962221    0.0550813    -0.6591315   -0.6009299     0.0153469   -0.0141281    -0.0048884    0.0003259 
 		      -0.6591254   -0.6016250    -0.0816828    0.0636399    -0.0050491    0.0003197     0.0159713   -0.0136750
 		       0.0153676   -0.0141187    -0.0050389    0.0003293    -0.0951326    0.0543460    -0.6595426   -0.6038549
 		      -0.0048927    0.0003261     0.0159180   -0.0136104    -0.6565538   -0.6039831    -0.0814568    0.0647496
   0.320000000    -0.0542999    0.0547292    -0.8192151   -0.3505692     0.0082439   -0.0132852    -0.0037051    0.0031322 
 		      -0.8181279   -0.3511256    -0.0396877    0.0592211    -0.0036366    0.0028681     0.0089590   -0.0130217
 		       0.0083149   -0.0132529    -0.0036331    0.0029122    -0.0542983    0.0549485    -0.8162162   -0.3532945
 		      -0.0037375    0.0030875     0.0090464   -0.0130500    -0.8171072   -0.3515547    -0.0409295    0.0590419
   0.360000000    -0.0253856    0.0258938    -0.8843673   -0.0592911     0.0033092   -0.0083116    -0.0016757    0.0037637 
 		      -0.8834456   -0.0595602    -0.0105439    0.0257672    -0.0016003    0.0038202     0.0039372   -0.0082370
 		       0.0033107   -0.0083576    -0.0016943    0.0038234    -0.0279993    0.0246059    -0.8845705   -0.0600246
 		      -0.0017519    0.0037309     0.0040209   -0.0083266    -0.8838765   -0.0622836    -0.0095545    0.0243197
   0.400000000    -0.0214474   -0.0114987    -0.8487534    0.2351908     0.0025215   -0.0017862     0.0000990    0.0036792 
 		      -0.8489910    0.2354411    -0.0088803   -0.0151104     0.0000269    0.0036876     0.0028645   -0.0018895
 		       0.0024592   -0.0017930    -0.0000320    0.0037337    -0.0197271   -0.0116868    -0.8491262    0.2340217
 		       0.0000375    0.0037337     0.0029088   -0.0018987    -0.8488725    0.2341917    -0.0107413   -0.0164095
   0.440000000    -0.0469852   -0.0441693    -0.7184826    0.4998695     0.0060737    0.0040027     0.0009359    0.0030978 
 		      -0.7183228    0.4991364    -0.0391946   -0.0477012     0.0009240    0.0031846     0.0064200    0.0038684
 		       0.0060462    0.0039261     0.0008807    0.0031972    -0.0486114   -0.0416850    -0.7217336    0.4968609
 		       0.0009243    0.0030876     0.0064145    0.0038381    -0.7196191    0.4958341    -0.0362309   -0.0494237
   0.480000000    -0.0843718   -0.0522543    -0.5063450    0.7064685     0.0124124    0.0057841     0.0005508    0.0028169 
 		      -0.5035961    0.7059100    -0.0781827   -0.0546383     0.0006434    0.0025232     0.0125141    0.0057410
 		       0.0123511    0.0058180     0.0006489    0.0025093    -0.0852465   -0.0524098    -0.5063376    0.7030141
 		       0.0005777    0.0028378     0.0124870    0.0057904    -0.5084208    0.7063684    -0.0825846   -0.0524801
   0.520000000    -0.1225798   -0.0328949    -0.2515409    0.8176229     0.0184466    0.0040634     0.0024859    0.0038755 
 		      -0.2502705    0.8200645    -0.1184540   -0.0304655     0.0027904    0.0043888     0.0186200    0.0042296
 		       0.0185571    0.0039243     0.0027847    0.0044087    -0.1200640   -0.0311478    -0.2493127    0.8188160
 		       0.0024067    0.0038106     0.0185411    0.0043165    -0.2517567    0.8151964    -0.1183050   -0.0312191
   0.560000000    -0.1393873    0.0079076     0.0366357    0.8558070     0.0224243   -0.0020405     0.0033199    0.0028019 
 		       0.0381601    0.8571202    -0.1359920    0.0091143     0.0030769    0.0023750     0.0226263   -0.0014334
 		       0.0225205   -0.0020785     0.0029152    0.0026043    -0.1411309    0.0077261     0.0356042    0.8571888
 		       0.0035292    0.0025829     0.0228089   -0.0017133     0.0386274    0.8563592    -0.1376101    0.0134353
   0.600000000    -0.1313964    0.0500573     0.3050970    0.7755228     0.0222338   -0.0077853     0.0073331    0.0032642 
 		       0.2995608    0.7815337    -0.1247497    0.0534990     0.0068559    0.0035416     0.0223526   -0.0072105
 		       0.0221798   -0.0077378     0.0069406    0.0034288    -0.1298463    0.0465307     0.3034995    0.7783926
 		       0.0070217    0.0032738     0.0222158   -0.0070755     0.2942016    0.7783115    -0.1255870    0.0524654
   0.640000000    -0.1007024    0.0761172     0.5475692    0.6488388     0.0187557   -0.0144294     0.0066318   -0.0021392 
 		       0.5457058    0.6437157    -0.0931511    0.0789908     0.0057871   -0.0021385     0.0193269   -0.0140097
 		       0.0191522   -0.0143043     0.0059554   -0.0021498    -0.0996838    0.0757375     0.5453924    0.6512949
 		       0.0065537   -0.0022896     0.0197560   -0.0138489     0.5494791    0.6499072    -0.0935125    0.0799063
   0.680000000    -0.0621642    0.0783295     0.7210737    0.4247848     0.0126453   -0.0161999     0.0070995   -0.0030210 
 		       0.7148446    0.4210640    -0.0523082    0.0802907     0.0068387   -0.0034844     0.0132966   -0.0154939
 		       0.0130219   -0.0156041     0.0066847   -0.0034086    -0.0606256    0.0792500     0.7136247    0.4222964
 		       0.0073772   -0.0028388     0.0137843   -0.0154685     0.7127485    0.4300878    -0.0482089    0.0776724
   0.720000000    -0.0292799    0.0574582     0.8169572    0.1768053     0.0062765   -0.0153231     0.0027987   -0.0078499 
 		       0.8203686    0.1744149    -0.0210379    0.0584408     0.0033860   -0.0081687     0.0071585   -0.0155918
 		       0.0063147   -0.0156158     0.0035524   -0.0083684    -0.0315554    0.0554841     0.8193090    0.1780471
 		       0.0029586   -0.0079566     0.0074254   -0.0157627     0.8209484    0.1770081    -0.0201856    0.0597330
   0.760000000    -0.0209278    0.0176633     0.8268129   -0.1083010     0.0027344   -0.0102847     0.0008480   -0.0072885 
 		       0.8254346   -0.1079776    -0.0160516    0.0191861     0.0007647   -0.0070322     0.0034381   -0.0101187
 		       0.0026731   -0.0103265     0.0009165   -0.0069283    -0.0170221    0.0198748     0.8255479   -0.1062675
 		       0.0009399   -0.0071403     0.0034523   -0.0101862     0.8265291   -0.1047411    -0.0125300    0.0190162
   0.800000000    -0.0343872   -0.0175232     0.7388120   -0.3730458     0.0019051   -0.0051183    -0.0020183   -0.0073062 
 		       0.7379366   -0.3725561    -0.0316289   -0.0134439    -0.0019103   -0.0070638     0.0024920   -0.0049206
 		       0.0018585   -0.0051653    -0.0019568   -0.0070611    -0.0370858   -0.0161701     0.7400614   -0.3711764
 		      -0.0020029   -0.0071468     0.0025130   -0.0049682     0.7419247   -0.3701881    -0.0361307   -0.0101604
   0.840000000    -0.0708310   -0.0330363     0.5793942   -0.5808809     0.0058296    0.0005197    -0.0040452   -0.0054540 
 		       0.5803421   -0.5900317    -0.0719261   -0.0241030    -0.0041763   -0.0058323     0.0058492    0.0008075
 		       0.0059134    0.0007585    -0.0040269   -0.0059326    -0.0709440   -0.0330491     0.5769073   -0.5857751
 		      -0.0040008   -0.0055238     0.0058012    0.0009136     0.5794250   -0.5861832    -0.0733531   -0.0303158
   0.880000000    -0.1110197   -0.0239794     0.3413250   -0.7439481     0.0110966    0.0011799    -0.0042267   -0.0038376 
 		       0.3424856   -0.7439657    -0.1083024   -0.0126726    -0.0040606   -0.0038441     0.0111612    0.0013228
 		       0.0112353    0.0012496    -0.0040714   -0.0040370    -0.1083560   -0.0253154     0.3465579   -0.7456446
 		      -0.0043033   -0.0038559     0.0113399    0.0013877     0.3404987   -0.7490307    -0.1065113   -0.0125543
   0.920000000    -0.1321892    0.0099901     0.0863504   -0.7943791     0.0164335    0.0004996    -0.0072574   -0.0049043 
 		       0.0995759   -0.7961832    -0.1248946    0.0293987    -0.0066038   -0.0052039     0.0163763    0.0009132
 		       0.0164479    0.0005921    -0.0064898   -0.0051314    -0.1336626    0.0134336     0.0963914   -0.7910970
 		      -0.0073910   -0.0050757     0.0164527    0.0007514     0.0963834   -0.7951777    -0.1232670    0.0253356
   0.960000000    -0.1376445    0.0505746    -0.1838055   -0.8017010     0.0197212   -0.0063177    -0.0063446   -0.0012009 
 		      -0.1880574   -0.7837664    -0.1245739    0.0671237    -0.0066595    0.0000842     0.0199628   -0.0061184
 		       0.0197108   -0.0062942    -0.0065472    0.0000183    -0.1387502    0.0462827    -0.1900190   -0.7958623
 		      -0.0063068   -0.0011387     0.0203015   -0.0060072    -0.1876340   -0.7967260    -0.1216035    0.0700048
   1.000000000    -0.1144152    0.0812534    -0.4146629   -0.6748073     0.0193047   -0.0104615    -0.0103441   -0.0003513 
 		      -0.4124693   -0.6712738    -0.0914689    0.0968211    -0.0105114   -0.0007482     0.0198944   -0.0100739
 		       0.0194985   -0.0103162    -0.0105979   -0.0007128    -0.1111659    0.0857727    -0.4085247   -0.6738325
 		      -0.0104664   -0.0005894     0.0202825   -0.0097938    -0.4025888   -0.6720566    -0.0902218    0.0996241
   1.040000000    -0.0791993    0.1000461    -0.6107008   -0.5182579     0.0153887   -0.0170324    -0.0071539    0.0060138 
 		      -0.6283135   -0.5162863    -0.0543051    0.1092006    -0.0081793    0.0065616     0.0166389   -0.0168377
 		       0.0155317   -0.0176793    -0.0083401    0.0068203    -0.0808877    0.0999423    -0.6206579   -0.5126134
 		      -0.0073175    0.0061387     0.0169690   -0.0171168    -0.6252610   -0.5173963    -0.0586980    0.1109118
   1.080000000    -0.0441325    0.0837171    -0.7430975   -0.2700151     0.0110077   -0.0181146    -0.0076154    0.0085597 
 		      -0.7405522   -0.2793154    -0.0207406    0.0844650    -0.0078966    0.0071122     0.0110953   -0.0176954
 		       0.0111490   -0.0183762    -0.0080033    0.0070223    -0.0436328    0.0834152    -0.7409166   -0.2806727
 		      -0.0075271    0.0084343     0.0111087   -0.0177312    -0.7382036   -0.2810639    -0.0200164    0.0827310
   1.120000000    -0.0239842    0.0542065    -0.7955588   -0.0241848     0.0043090   -0.0177009    -0.0024644    0.0116666 
 		      -0.7960356   -0.0244508    -0.0027567    0.0508095    -0.0018559    0.0114464     0.0047492   -0.0177204
 		       0.0042183   -0.0177469    -0.0018686    0.0113738    -0.0194408    0.0575219    -0.7946315   -0.0247345
 		      -0.0024043    0.0117971     0.0047807   -0.0178784    -0.7980993   -0.0247335    -0.0027427    0.0519662
   1.160000000    -0.0326801    0.0193426    -0.7592094    0.2385754     0.0015609   -0.0127890     0.0014905    0.0100998 
 		      -0.7566155    0.2431095    -0.0198996    0.0135296     0.0017301    0.0103992     0.0006188   -0.0121945
 		       0.0016216   -0.0128934     0.0016840    0.0104497    -0.0322115    0.0216901    -0.7590722    0.2385925
 		       0.0014293    0.0102032     0.0007056   -0.0122575    -0.7560198    0.2381430    -0.0105169    0.0126690
   1.200000000    -0.0598534   -0.0041982    -0.6277105    0.4728697     0.0004934   -0.0070901     0.0053286    0.0091840 
 		      -0.6304821    0.4703709    -0.0493309   -0.0104775     0.0051797    0.0092912    -0.0000291   -0.0075930
 		       0.0003942   -0.0071614     0.0053822    0.0093540    -0.0528778   -0.0067315    -0.6293579    0.4744453
 		       0.0052784    0.0092711    -0.0000639   -0.0076825    -0.6362890    0.4709404    -0.0454597   -0.0017608
   1.240000000    -0.0955583   -0.0009402    -0.4408987    0.6540353     0.0039998   -0.0029886     0.0075666    0.0065009 
 		      -0.4415235    0.6492821    -0.0893380    0.0002429     0.0071651    0.0068056     0.0041513   -0.0019032
 		       0.0040974   -0.0029253     0.0071695    0.0068474    -0.0912439   -0.0013532    -0.4477552    0.6477567
 		       0.0075487    0.0064917     0.0041898   -0.0019361    -0.4391049    0.6484312    -0.0874214    0.0014646
   1.280000000    -0.1279584    0.0214137    -0.2038910    0.7566254     0.0091344   -0.0018719     0.0082782    0.0049831 
 		      -0.1963389    0.7443352    -0.1205911    0.0255937     0.0086318    0.0040594     0.0088193   -0.0007051
 		       0.0089935   -0.0018851     0.0086488    0.0040728    -0.1253936    0.0203588    -0.1956124    0.7472465
 		       0.0081759    0.0050559     0.0090354   -0.0006564    -0.2053449    0.7550913    -0.1191417    0.0290984
   1.320000000    -0.1321979    0.0596342     0.0394583    0.7674951     0.0137121   -0.0040745     0.0097449    0.0016748 
 		       0.0592738    0.7718339    -0.1207886    0.0698803     0.0104246    0.0026880     0.0150983   -0.0025335
 		       0.0140952   -0.0042149     0.0105053    0.0029324    -0.1304302    0.0550886     0.0429388    0.7795217
 		       0.0097274    0.0015470     0.0150715   -0.0023939     0.0513138    0.7656158    -0.1222210    0.0659955
   1.360000000    -0.1212669    0.0996763     0.2940244    0.6953796     0.0164849   -0.0094153     0.0107410   -0.0003634 
 		       0.3007931    0.7142006    -0.1056308    0.1079297     0.0113575   -0.0003794     0.0174896   -0.0068140
 		       0.0164806   -0.0094049     0.0110133   -0.0003762    -0.1183830    0.0992670     0.2938625    0.6973381
 		       0.0109318   -0.0004340     0.0176569   -0.0065761     0.2954548    0.7164648    -0.0996163    0.1029246
   1.400000000    -0.0849844    0.1155455     0.5144137    0.5702018     0.0168402   -0.0150681     0.0112468   -0.0063524 
 		       0.4987074    0.5878354    -0.0639049    0.1213037     0.0112764   -0.0037124     0.0177303   -0.0134732
 		       0.0169652   -0.0151992     0.0112043   -0.0040641    -0.0874837    0.1154294     0.5130369    0.5811272
 		       0.0111763   -0.0064397     0.0170066   -0.0136337     0.4992369    0.5724920    -0.0585318    0.1246953
   1.440000000    -0.0476195    0.1169333     0.6676107    0.3813777     0.0127107   -0.0193557     0.0114612   -0.0087502 
 		       0.6506816    0.3748175    -0.0254583    0.1170286     0.0082097   -0.0093755     0.0142076   -0.0185625
 		       0.0127341   -0.0187797     0.0085246   -0.0092893    -0.0457082    0.1157420     0.6538606    0.3814782
 		       0.0113463   -0.0087191     0.0145760   -0.0189652     0.6707119    0.3793739    -0.0230043    0.1212763
   1.480000000    -0.0213436    0.0880838     0.7484477    0.1518965     0.0078801   -0.0213060     0.0058130   -0.0121527 
 		       0.7458924    0.1432261    -0.0016291    0.0844951     0.0066052   -0.0144707     0.0082419   -0.0213520
 		       0.0075367   -0.0213674     0.0066664   -0.0143433    -0.0164669    0.0927053     0.7522417    0.1414043
 		       0.0058622   -0.0119486     0.0084942   -0.0209600     0.7435631    0.1493926     0.0018904    0.0893170
   1.520000000    -0.0137942    0.0551638     0.7522063   -0.1080564     0.0001717   -0.0182139    -0.0006193   -0.0135386 
 		       0.7568290   -0.1116699     0.0022224    0.0489382     0.0002045   -0.0136803     0.0023266   -0.0198820
 		       0.0005362   -0.0184681     0.0003071   -0.0137802    -0.0127484    0.0567872     0.7562600   -0.1052411
 		      -0.0005049   -0.0137820     0.0026432   -0.0201640     0.7609662   -0.1108427     0.0006432    0.0530581
   1.560000000    -0.0345860    0.0241654     0.6751266   -0.3507608    -0.0031074   -0.0165273    -0.0051158   -0.0137653 
 		       0.6754486   -0.3460402    -0.0236361    0.0211579    -0.0038831   -0.0141712    -0.0010743   -0.0150474
 		      -0.0027948   -0.0166373    -0.0039388   -0.0144107    -0.0283644    0.0226622     0.6765988   -0.3500130
 		      -0.0050075   -0.0138295    -0.0009456   -0.0150995     0.6736349   -0.3478165    -0.0242025    0.0141003
