! 7/15/2021 4:49:31 PM
! C:\USERS\VECTORSTARUSER\DESKTOP\SAMPLE\2021\PD7\18VPD7094DY\1-L5-4.S4P
! CHANNEL.1
! TR.MEASUREMENT
! CORRECTED.DATA
! RF.CORRECTION: FULL.FOUR.PORT.CAL.PORT.1.2.3.4
! AVERAGING.OFF
! IF.BANDWIDTH: 1KHZ
! SWEEPTYPE:  FREQ.SWEEP(Linear)
! Reference Plane Port Info
! PORT:              PORT1              PORT2              PORT3              PORT4             
! DISTANCE:          0  m               0  m               0  m               0  m              
! TIME:              0  s               0  s               0  s               0  s              
! PHASE.OFFSET:      0 째                0 째                0 째                0 째               
! LOSS:              0  dB              0  dB              0  dB              0  dB             
! REF.LOSS:          0  dB              0  dB              0  dB              0  dB             
! REF.FREQ:          0  Hz              0  Hz              0  Hz              0  Hz             
! Power Info
! POWER:             -10  dBm           -10  dBm           -10  dBm           -10  dBm          
! EFF.POWER:         -10  dBm           -10  dBm           -10  dBm           -10  dBm          
# GHZ S RI R 50.0
! FREQ.GHZ         S11RE        S11IM         S12RE        S12IM         S13RE        S13IM         S14RE        S14IM         
!		       S21RE        S21IM         S22RE        S22IM         S23RE        S23IM         S24RE        S24IM         
!		       S31RE        S31IM         S32RE        S32IM         S33RE        S33IM         S34RE        S34IM         
!		       S41RE        S41IM         S42RE        S42IM         S43RE        S43IM         S44RE        S44IM         
!; PortSelection: Port_1234
   0.040000000     0.0176950   -0.0222966     0.9617229   -0.1798665     0.0011976    0.0042032    -0.0002103    0.0004096 
 		       0.9601923   -0.1803078     0.0171257   -0.0217233    -0.0002231    0.0004381     0.0011901    0.0042047
 		       0.0011762    0.0042341    -0.0002246    0.0004391     0.0178171   -0.0224440     0.9605519   -0.1797926
 		      -0.0002535    0.0004095     0.0012321    0.0042207     0.9597744   -0.1781996     0.0180799   -0.0235365
   0.080000000     0.0094278   -0.0475772     0.9086295   -0.3472817     0.0035076    0.0076599     0.0002535    0.0008710 
 		       0.9073364   -0.3469507     0.0087993   -0.0474395     0.0002584    0.0008732     0.0034674    0.0076639
 		       0.0034931    0.0077081     0.0002073    0.0009047     0.0096176   -0.0478611     0.9085824   -0.3446785
 		       0.0002528    0.0009111     0.0034840    0.0076987     0.9082240   -0.3440858     0.0092039   -0.0470406
   0.120000000    -0.0105600   -0.0689312     0.8279686   -0.4988658     0.0068151    0.0101175     0.0009245    0.0008657 
 		       0.8280449   -0.4985537    -0.0116816   -0.0675588     0.0009422    0.0008814     0.0066923    0.0101509
 		       0.0067939    0.0100761     0.0009436    0.0008185    -0.0115392   -0.0692071     0.8296211   -0.4942677
 		       0.0009027    0.0008303     0.0067645    0.0101735     0.8291783   -0.4944241    -0.0117846   -0.0672836
   0.160000000    -0.0348341   -0.0834294     0.7248390   -0.6330290     0.0108319    0.0112625     0.0017432    0.0007191 
 		       0.7236792   -0.6328837    -0.0357910   -0.0814871     0.0016993    0.0007655     0.0107361    0.0113997
 		       0.0108600    0.0113324     0.0017664    0.0007262    -0.0322199   -0.0831246     0.7266180   -0.6310589
 		       0.0017998    0.0006882     0.0107296    0.0113846     0.7269067   -0.6300644    -0.0361738   -0.0820988
   0.200000000    -0.0620556   -0.0867341     0.5994923   -0.7429036     0.0149248    0.0110643     0.0020576   -0.0002507 
 		       0.5996357   -0.7425109    -0.0647510   -0.0838550     0.0021324   -0.0003857     0.0147970    0.0113039
 		       0.0149900    0.0110806     0.0020947   -0.0003660    -0.0649374   -0.0850625     0.6024150   -0.7397280
 		       0.0020631   -0.0002567     0.0148535    0.0112619     0.6022553   -0.7388365    -0.0637899   -0.0829315
   0.240000000    -0.0928852   -0.0811477     0.4600222   -0.8291161     0.0188420    0.0095539     0.0022803   -0.0013025 
 		       0.4598144   -0.8292084    -0.0955866   -0.0784836     0.0023121   -0.0012202     0.0186723    0.0099086
 		       0.0189809    0.0095434     0.0022761   -0.0011855    -0.0936541   -0.0827462     0.4605476   -0.8289736
 		       0.0022413   -0.0013210     0.0188084    0.0098931     0.4635911   -0.8293011    -0.0961687   -0.0768138
   0.280000000    -0.1174356   -0.0685458     0.3055913   -0.8913125     0.0220867    0.0066953     0.0021592   -0.0024340 
 		       0.3075346   -0.8901147    -0.1188317   -0.0621509     0.0022462   -0.0026307     0.0220227    0.0072304
 		       0.0221815    0.0067917     0.0022745   -0.0026429    -0.1168474   -0.0686528     0.3124509   -0.8913794
 		       0.0021338   -0.0025143     0.0220481    0.0072173     0.3103959   -0.8881004    -0.1193984   -0.0625036
   0.320000000    -0.1380771   -0.0482195     0.1524690   -0.9251908     0.0244900    0.0033952     0.0009928   -0.0036525 
 		       0.1520192   -0.9237913    -0.1382581   -0.0375261     0.0009939   -0.0033321     0.0243813    0.0039728
 		       0.0244160    0.0034064     0.0009479   -0.0033562    -0.1391560   -0.0453096     0.1563513   -0.9219764
 		       0.0009798   -0.0037043     0.0243533    0.0039113     0.1553505   -0.9241142    -0.1365901   -0.0389589
   0.360000000    -0.1473903   -0.0221788    -0.0069193   -0.9349360     0.0259000   -0.0005958     0.0004246   -0.0034165 
 		      -0.0092704   -0.9342548    -0.1470255   -0.0118742    -0.0000276   -0.0036408     0.0259075   -0.0000358
 		       0.0258266   -0.0007144     0.0000526   -0.0036274    -0.1499806   -0.0215979    -0.0060732   -0.9373155
 		       0.0003468   -0.0035057     0.0258396   -0.0000279    -0.0030706   -0.9334350    -0.1470349   -0.0094466
   0.400000000    -0.1503860    0.0062488    -0.1605541   -0.9063067     0.0256080   -0.0045474    -0.0022611   -0.0046210 
 		      -0.1597020   -0.9093655    -0.1470762    0.0207933    -0.0020078   -0.0047518     0.0257487   -0.0037923
 		       0.0255383   -0.0046235    -0.0020026   -0.0047135    -0.1515724    0.0069606    -0.1576201   -0.9086860
 		      -0.0022706   -0.0046937     0.0257354   -0.0038876    -0.1601893   -0.9094061    -0.1467269    0.0191161
   0.440000000    -0.1462415    0.0339763    -0.3131299   -0.8708340     0.0248997   -0.0087993    -0.0027764   -0.0028119 
 		      -0.3121830   -0.8712870    -0.1406500    0.0468317    -0.0032404   -0.0027877     0.0252205   -0.0081022
 		       0.0250458   -0.0088291    -0.0031931   -0.0028828    -0.1486709    0.0370164    -0.3106057   -0.8759946
 		      -0.0028212   -0.0028703     0.0252400   -0.0079976    -0.3064533   -0.8749049    -0.1426232    0.0484306
   0.480000000    -0.1329574    0.0555858    -0.4569093   -0.7952101     0.0222280   -0.0123276    -0.0044439   -0.0035435 
 		      -0.4523223   -0.7930090    -0.1228449    0.0689728    -0.0037878   -0.0035741     0.0226884   -0.0114972
 		       0.0223062   -0.0122426    -0.0036302   -0.0036777    -0.1339698    0.0550608    -0.4500317   -0.7980450
 		      -0.0043446   -0.0035423     0.0229331   -0.0115660    -0.4534319   -0.7984664    -0.1222546    0.0667720
   0.520000000    -0.1134144    0.0743442    -0.5742717   -0.7196321     0.0202461   -0.0150204    -0.0053567   -0.0003564 
 		      -0.5770530   -0.7161788    -0.1006197    0.0870380    -0.0060408    0.0002782     0.0207334   -0.0144021
 		       0.0201959   -0.0151826    -0.0060112    0.0003118    -0.1125629    0.0745375    -0.5749300   -0.7176027
 		      -0.0053821   -0.0004788     0.0209676   -0.0143484    -0.5713911   -0.7224365    -0.1001521    0.0842105
   0.560000000    -0.0877095    0.0815421    -0.6932245   -0.6030828     0.0158728   -0.0171086    -0.0043788    0.0000234 
 		      -0.6952385   -0.6005194    -0.0743164    0.0915785    -0.0042943   -0.0001982     0.0168163   -0.0165946
 		       0.0158951   -0.0170859    -0.0043688   -0.0002464    -0.0900893    0.0845591    -0.6940801   -0.6053034
 		      -0.0043294    0.0000350     0.0166912   -0.0166232    -0.6930972   -0.6015753    -0.0728429    0.0928944
   0.600000000    -0.0631986    0.0833060    -0.7705036   -0.4762870     0.0128518   -0.0174025    -0.0062098    0.0028765 
 		      -0.7750742   -0.4822359    -0.0464538    0.0910515    -0.0069672    0.0026542     0.0137450   -0.0169376
 		       0.0129283   -0.0175272    -0.0066750    0.0027263    -0.0655442    0.0794160    -0.7722811   -0.4802227
 		      -0.0064313    0.0027294     0.0141669   -0.0168941    -0.7702408   -0.4878257    -0.0491134    0.0867178
   0.640000000    -0.0411400    0.0759249    -0.8540154   -0.3388952     0.0081716   -0.0173769    -0.0029501    0.0032199 
 		      -0.8506696   -0.3373976    -0.0254597    0.0793878    -0.0027264    0.0030214     0.0090992   -0.0170334
 		       0.0082586   -0.0177570    -0.0028111    0.0033208    -0.0399530    0.0762935    -0.8556941   -0.3441456
 		      -0.0027409    0.0036113     0.0090696   -0.0175399    -0.8559447   -0.3395650    -0.0256692    0.0808037
   0.680000000    -0.0241830    0.0617017    -0.8919296   -0.1869508     0.0052653   -0.0155227    -0.0044198    0.0037588 
 		      -0.8862103   -0.1890840    -0.0060432    0.0620777    -0.0038663    0.0039797     0.0061512   -0.0152603
 		       0.0056137   -0.0158061    -0.0039588    0.0038958    -0.0246112    0.0601827    -0.8872563   -0.1925185
 		      -0.0047003    0.0038150     0.0065232   -0.0153313    -0.8890705   -0.1972048    -0.0056805    0.0539052
   0.720000000    -0.0123628    0.0427490    -0.9118051   -0.0396885     0.0020584   -0.0135563    -0.0002840    0.0054375 
 		      -0.9134987   -0.0366965     0.0041818    0.0410660    -0.0008236    0.0053816     0.0028282   -0.0138749
 		       0.0021846   -0.0137467    -0.0010011    0.0055716    -0.0158576    0.0417295    -0.9153416   -0.0427263
 		      -0.0005693    0.0055300     0.0030550   -0.0139918    -0.9160920   -0.0420268     0.0047809    0.0416241
   0.760000000    -0.0110651    0.0184317    -0.9021848    0.1207677     0.0005403   -0.0102003    -0.0009429    0.0044175 
 		      -0.9012325    0.1184522     0.0014550    0.0148660    -0.0008424    0.0041081     0.0015254   -0.0101778
 		       0.0005875   -0.0102780    -0.0008831    0.0040427    -0.0098453    0.0202216    -0.9027771    0.1165785
 		      -0.0009392    0.0043754     0.0015722   -0.0103044    -0.9033447    0.1149805     0.0063208    0.0142791
   0.800000000    -0.0138892   -0.0033308    -0.8647586    0.2720298    -0.0002118   -0.0072710     0.0004389    0.0050327 
 		      -0.8663242    0.2714748    -0.0041457   -0.0073394     0.0003942    0.0046755     0.0006696   -0.0073818
 		      -0.0001523   -0.0072399     0.0003665    0.0047961    -0.0202709   -0.0014736    -0.8683765    0.2695216
 		       0.0005755    0.0049976     0.0006538   -0.0073028    -0.8702796    0.2671835    -0.0110097   -0.0055451
   0.840000000    -0.0275655   -0.0194889    -0.8049318    0.4072147     0.0003986   -0.0030975     0.0014019    0.0035891 
 		      -0.8082061    0.4100560    -0.0242690   -0.0234344     0.0015991    0.0036752     0.0006817   -0.0033101
 		       0.0003951   -0.0030721     0.0014613    0.0037390    -0.0334073   -0.0192692    -0.8093369    0.4105268
 		       0.0013635    0.0036294     0.0008075   -0.0033337    -0.8091252    0.4102821    -0.0212678   -0.0329555
   0.880000000    -0.0497051   -0.0334871    -0.7213244    0.5463329     0.0022200   -0.0007422     0.0015064    0.0031209 
 		      -0.7232689    0.5458541    -0.0469183   -0.0386191     0.0013582    0.0032276     0.0026625   -0.0010132
 		       0.0024125   -0.0006803     0.0014643    0.0032842    -0.0501966   -0.0325763    -0.7271138    0.5441288
 		       0.0014542    0.0031824     0.0026524   -0.0008610    -0.7280676    0.5483094    -0.0422911   -0.0397665
   0.920000000    -0.0696570   -0.0359105    -0.6103457    0.6516427     0.0042917    0.0019990     0.0015491    0.0034793 
 		      -0.6130304    0.6453222    -0.0711616   -0.0348003     0.0013560    0.0033427     0.0045149    0.0016229
 		       0.0042883    0.0020342     0.0013704    0.0033550    -0.0791737   -0.0281416    -0.6142661    0.6443260
 		       0.0015100    0.0034197     0.0045888    0.0017264    -0.6135368    0.6477582    -0.0678900   -0.0348180
   0.960000000    -0.0988285   -0.0308149    -0.5084649    0.7527235     0.0083131    0.0029507     0.0020572    0.0019909 
 		      -0.4953343    0.7566442    -0.1020778   -0.0289803     0.0027851    0.0021173     0.0085903    0.0027867
 		       0.0082674    0.0028396     0.0026535    0.0021485    -0.1023062   -0.0311200    -0.5059265    0.7592285
 		       0.0020708    0.0019778     0.0084443    0.0029455    -0.5096766    0.7545376    -0.1026931   -0.0329746
   1.000000000    -0.1170805   -0.0230142    -0.3507985    0.8141111     0.0110270    0.0027197     0.0009828    0.0034423 
 		      -0.3460756    0.8138204    -0.1188606   -0.0160082     0.0008535    0.0035909     0.0111713    0.0028465
 		       0.0108596    0.0028067     0.0009102    0.0035200    -0.1212668   -0.0162739    -0.3521248    0.8109514
 		       0.0009536    0.0033935     0.0109075    0.0029771    -0.3468072    0.8065811    -0.1216083   -0.0178475
   1.040000000    -0.1343251   -0.0032162    -0.2222049    0.8521523     0.0152130    0.0020875     0.0035982    0.0022910 
 		      -0.2328175    0.8686976    -0.1361535    0.0089753     0.0037065    0.0033009     0.0152560    0.0025539
 		       0.0152153    0.0022779     0.0036506    0.0032957    -0.1405565    0.0064221    -0.2244114    0.8692288
 		       0.0034631    0.0022668     0.0149797    0.0027197    -0.2341366    0.8680950    -0.1371766   -0.0020671
   1.080000000    -0.1472647    0.0206303    -0.0476964    0.8849573     0.0173311   -0.0007477     0.0022671    0.0037821 
 		      -0.0581285    0.8749526    -0.1456027    0.0307242     0.0013168    0.0031412     0.0174788   -0.0002096
 		       0.0172087   -0.0003232     0.0012392    0.0031697    -0.1475475    0.0232597    -0.0645260    0.8806779
 		       0.0022499    0.0036655     0.0175310   -0.0002222    -0.0582564    0.8777896    -0.1420724    0.0307836
   1.120000000    -0.1434564    0.0477737     0.0738681    0.8706224     0.0198068   -0.0025416     0.0043634    0.0041108 
 		       0.0725640    0.8692058    -0.1377970    0.0635675     0.0052679    0.0033189     0.0198789   -0.0020135
 		       0.0198299   -0.0026534     0.0051245    0.0032781    -0.1430303    0.0557913     0.0769191    0.8736821
 		       0.0045516    0.0041174     0.0200664   -0.0019599     0.0669944    0.8812700    -0.1399517    0.0585482
   1.160000000    -0.1395185    0.0773785     0.2222511    0.8612506     0.0211838   -0.0066508     0.0039239    0.0018927 
 		       0.2437183    0.8470532    -0.1331993    0.0916942     0.0048863    0.0020241     0.0217647   -0.0063338
 		       0.0209355   -0.0068542     0.0049172    0.0020048    -0.1427463    0.0837470     0.2207274    0.8600595
 		       0.0040093    0.0018854     0.0214651   -0.0062115     0.2288357    0.8465210    -0.1422763    0.0893368
   1.200000000    -0.1220981    0.0943187     0.3538249    0.7803425     0.0211475   -0.0098769     0.0067465    0.0028434 
 		       0.3522021    0.7984042    -0.1119435    0.1076043     0.0069381    0.0029417     0.0215631   -0.0085782
 		       0.0210455   -0.0100590     0.0069728    0.0028663    -0.1237256    0.0965601     0.3580753    0.7834383
 		       0.0068122    0.0028844     0.0213822   -0.0088398     0.3603581    0.8021328    -0.1171137    0.0962365
   1.240000000    -0.1043121    0.1170403     0.4941525    0.7217426     0.0204843   -0.0140477     0.0067599   -0.0008384 
 		       0.4886626    0.7272651    -0.0914834    0.1292748     0.0071551    0.0009294     0.0214594   -0.0134578
 		       0.0208807   -0.0140864     0.0072610    0.0009295    -0.1023984    0.1244307     0.4913446    0.7399661
 		       0.0068260   -0.0008951     0.0211181   -0.0134215     0.4809260    0.7243273    -0.0907450    0.1264809
   1.280000000    -0.0820717    0.1238656     0.6066768    0.6312439     0.0187683   -0.0174329     0.0093690    0.0003272 
 		       0.5882398    0.6272328    -0.0682043    0.1315191     0.0065036   -0.0012990     0.0193328   -0.0160552
 		       0.0185723   -0.0170508     0.0065244   -0.0012974    -0.0830591    0.1269642     0.5912138    0.6248898
 		       0.0095531    0.0004651     0.0196344   -0.0166646     0.6042446    0.6349912    -0.0701074    0.1332122
   1.320000000    -0.0529424    0.1247155     0.6921943    0.5346031     0.0163590   -0.0198269     0.0066174   -0.0029708 
 		       0.6968924    0.5137205    -0.0354220    0.1309135     0.0088668   -0.0040404     0.0173364   -0.0201143
 		       0.0160150   -0.0202359     0.0088670   -0.0040970    -0.0535774    0.1265252     0.7031212    0.5334637
 		       0.0064605   -0.0028373     0.0172240   -0.0199002     0.6883025    0.5246808    -0.0444519    0.1343031
   1.360000000    -0.0305299    0.1217376     0.7606488    0.3966374     0.0122475   -0.0221192     0.0078496   -0.0045724 
 		       0.7788709    0.3950379    -0.0167123    0.1247920     0.0077323   -0.0053012     0.0145024   -0.0213546
 		       0.0122591   -0.0221154     0.0077151   -0.0050885    -0.0274048    0.1262534     0.7625870    0.4015210
 		       0.0076504   -0.0046340     0.0146837   -0.0213794     0.7795902    0.4041367    -0.0247890    0.1216857
   1.400000000    -0.0104332    0.1011483     0.8290938    0.2563690     0.0089719   -0.0240852     0.0043402   -0.0079820 
 		       0.8364698    0.2734613     0.0040326    0.1011502     0.0068445   -0.0063123     0.0103472   -0.0232201
 		       0.0088524   -0.0239253     0.0066102   -0.0063231    -0.0135710    0.1056539     0.8383948    0.2648399
 		       0.0040983   -0.0079695     0.0097590   -0.0224730     0.8252432    0.2705139     0.0055429    0.0998473
   1.440000000     0.0063726    0.0881080     0.8649032    0.1188484     0.0049667   -0.0233704     0.0063380   -0.0094302 
 		       0.8519259    0.1249563     0.0158809    0.0863769     0.0027301   -0.0076602     0.0063295   -0.0231831
 		       0.0054814   -0.0231321     0.0031141   -0.0077673     0.0064423    0.0880886     0.8600381    0.1291855
 		       0.0065487   -0.0094365     0.0063387   -0.0236311     0.8678997    0.1185238     0.0177672    0.0903829
   1.480000000     0.0101159    0.0604381     0.8725675   -0.0204733     0.0018164   -0.0226087     0.0027311   -0.0086833 
 		       0.8660254   -0.0247407     0.0167738    0.0588326     0.0022257   -0.0113713     0.0023592   -0.0225410
 		       0.0017016   -0.0224209     0.0023117   -0.0112210     0.0115664    0.0646100     0.8721297   -0.0270986
 		       0.0028593   -0.0085726     0.0028778   -0.0223061     0.8689431   -0.0180516     0.0191625    0.0626786
   1.520000000     0.0113011    0.0409030     0.8487479   -0.1722294    -0.0026414   -0.0187555    -0.0006403   -0.0085980 
 		       0.8527492   -0.1776646     0.0157016    0.0385141    -0.0000406   -0.0088138    -0.0006544   -0.0205096
 		      -0.0024435   -0.0191448    -0.0000328   -0.0088018     0.0056409    0.0424621     0.8571537   -0.1697673
 		      -0.0005770   -0.0087700    -0.0004001   -0.0208392     0.8589436   -0.1755304     0.0088846    0.0430610
   1.560000000    -0.0005717    0.0183248     0.8087218   -0.3152432    -0.0045907   -0.0181215    -0.0019875   -0.0100016 
 		       0.8115366   -0.3122407     0.0005269    0.0202626    -0.0006135   -0.0105089    -0.0025664   -0.0174097
 		      -0.0041201   -0.0182933    -0.0006177   -0.0106616    -0.0022979    0.0183800     0.8129107   -0.3128980
 		      -0.0018326   -0.0101266    -0.0022912   -0.0174259     0.8118834   -0.3107649    -0.0025800    0.0073037
