! MS46524B
! 1918203/M1: 91020113/M2: 91020112
! 9/9/2020 2:33:02 PM
! C:\USERS\ANRITSUUSER\DESKTOP\2118 -10-2.S4P
! CHANNEL.1
! TR.MEASUREMENT
! CORRECTED.DATA
# GHZ S RI R 50.0
! FREQ.GHZ         S11RE        S11IM         S12RE        S12IM         S13RE        S13IM         S14RE        S14IM         
!		       S21RE        S21IM         S22RE        S22IM         S23RE        S23IM         S24RE        S24IM         
!		       S31RE        S31IM         S32RE        S32IM         S33RE        S33IM         S34RE        S34IM         
!		       S41RE        S41IM         S42RE        S42IM         S43RE        S43IM         S44RE        S44IM         
!; PortSelection: Port_1234
   0.030000000     0.0759594    0.0277198     0.8132141   -0.4625890     0.1154935   -0.0314556    -0.0745271   -0.0652553 
 		       0.8176862   -0.4678504     0.0826330    0.0294034    -0.1485929    0.0139847     0.0806253    0.0819786
 		       0.0730235    0.0789805    -0.0732224   -0.0640500     0.1196672   -0.0808697     0.8121331   -0.4641370
 		      -0.0696596   -0.0680955     0.0796517    0.0802311     0.7384397   -0.3850372     0.0839913    0.0312500
   0.060000000     0.0827883   -0.0341106     0.4821852   -0.7558594     0.0397376    0.0823908    -0.1633421   -0.0615601 
 		       0.4833189   -0.7654406     0.0944044   -0.0284897    -0.0926696   -0.0024229     0.1331750    0.0637160
 		       0.1310341    0.0504066    -0.1619929   -0.0462702    -0.0056027   -0.0005628     0.4806202   -0.7711978
 		      -0.1601042   -0.0543546     0.1423254    0.0544459     0.5517492   -0.7121506     0.0869890   -0.0196292
   0.090000000    -0.0159232   -0.0521178     0.0614544   -0.8539792     0.0967172    0.0725271    -0.2451562    0.0302127 
 		       0.0578548   -0.8608538     0.0007945   -0.0489408    -0.1962609    0.0321060     0.1046248    0.0203736
 		       0.0946771    0.0199167    -0.2466237    0.0387825    -0.0105590    0.0014188     0.0633889   -0.8621575
 		      -0.2487259    0.0328056     0.1107497    0.0214355     0.1120871   -0.8615607    -0.0028507   -0.0505014
   0.120000000    -0.0977552    0.0776693    -0.3133070   -0.7065287     0.0608593    0.1240155    -0.2599237    0.2192516 
 		      -0.3198457   -0.7091731    -0.0789846    0.0744847    -0.2290632    0.2326365     0.0645274    0.1014051
 		       0.0548605    0.1013250    -0.2506184    0.2226983    -0.0872816    0.1006797    -0.3222864   -0.7100166
 		      -0.2558405    0.2195922     0.0720335    0.0944823    -0.2923849   -0.6974406    -0.0855374    0.0767113
   0.150000000    -0.0173959    0.2320281    -0.4995551   -0.4512938     0.1765795    0.1570999    -0.0962179    0.3679247 
 		      -0.5026540   -0.4469323     0.0015086    0.2170929    -0.0659453    0.2912963     0.1397602    0.1733643
 		       0.1365818    0.1903041    -0.0883550    0.3730709     0.0284468    0.1985255    -0.5071023   -0.4565409
 		      -0.0909128    0.3759347     0.1514118    0.1726182    -0.4790455   -0.5340968    -0.0115036    0.2136581
   0.180000000     0.1355271    0.2659380    -0.5724387   -0.2323710     0.2387635    0.1681000     0.1210124    0.3742831 
 		      -0.5719969   -0.2253034     0.1366497    0.2519687     0.0948573    0.3601626     0.2578319    0.1736906
 		       0.2525512    0.1782516     0.1201206    0.3669779     0.1278488    0.2543528    -0.5706453   -0.2256390
 		       0.1204468    0.3735626     0.2469891    0.1620121    -0.5991821   -0.2385622     0.1433039    0.2601650
   0.210000000     0.2594344    0.2263529    -0.5942690   -0.0166491     0.3161754    0.1232686     0.2713897    0.2702896 
 		      -0.5942672   -0.0158550     0.2658237    0.2173935     0.2693788    0.2661276     0.3218940    0.1165558
 		       0.3189829    0.1238227     0.2723729    0.2681830     0.2620871    0.2226253    -0.5947859   -0.0163738
 		       0.2721264    0.2700565     0.3179777    0.1151973    -0.5979387   -0.0191438     0.2653170    0.2169784
   0.240000000     0.3467191    0.1279123    -0.5544103    0.1921709     0.3579223    0.0474022     0.3530817    0.1252356 
 		      -0.5544982    0.1931894     0.3531936    0.1170975     0.3426150    0.1064309     0.3624633    0.0509912
 		       0.3633190    0.0543988     0.3547671    0.1193995     0.3470429    0.1166361    -0.5557029    0.1962449
 		       0.3547367    0.1232935     0.3600376    0.0455208    -0.5669078    0.1782801     0.3495730    0.1219267
   0.270000000     0.3698612    0.0034819    -0.4464609    0.3975361     0.3653958   -0.0252801     0.3616716   -0.0202726 
 		      -0.4465930    0.3994163     0.3751180   -0.0068391     0.3494640   -0.0246806     0.3720379   -0.0279783
 		       0.3740385   -0.0248894     0.3594007   -0.0231739     0.3655629   -0.0034944    -0.4463742    0.3988523
 		       0.3618725   -0.0205675     0.3698643   -0.0283433    -0.4572568    0.3957080     0.3717966   -0.0039094
   0.300000000     0.3017222   -0.1179604    -0.2340261    0.5632141     0.3297821   -0.0925591     0.3454716   -0.1327550 
 		      -0.2315401    0.5665023     0.3058127   -0.1285144     0.3321079   -0.1300756     0.3347962   -0.1042021
 		       0.3342521   -0.1069087     0.3412800   -0.1348674     0.2993961   -0.1118660    -0.2316416    0.5656844
 		       0.3448700   -0.1340470     0.3320551   -0.1076528    -0.2430951    0.5675687     0.3054076   -0.1227020
   0.330000000     0.1598292   -0.1028535     0.0676086    0.5604316     0.2483969   -0.0843953     0.3266774   -0.3005757 
 		       0.0714818    0.5607500     0.1564113   -0.1218578     0.3205216   -0.2891876     0.2353989   -0.0882333
 		       0.2407060   -0.0863137     0.3238638   -0.3011470     0.1671267   -0.1082855     0.0707016    0.5608491
 		       0.3255782   -0.3027437     0.2363101   -0.0924535     0.0653559    0.5717756     0.1562733   -0.1129763
   0.360000000     0.1652690   -0.0047604     0.2229425    0.4097183     0.2907920   -0.0163200     0.1272247   -0.4738278 
 		       0.2248980    0.4089947     0.1595076   -0.0078438     0.1242338   -0.4709979     0.2894729   -0.0068333
 		       0.2915169   -0.0174554     0.1251471   -0.4746099     0.1639230   -0.0076685     0.2244073    0.4099531
 		       0.1247249   -0.4750239     0.2857395   -0.0113043     0.2221267    0.4128963     0.1641821   -0.0019576
   0.390000000     0.2420654    0.0144049     0.2991598    0.3175679     0.3790154   -0.0565720    -0.1238378   -0.4536287 
 		       0.3002542    0.3169769     0.2404065    0.0093742    -0.1183656   -0.4434940     0.3835563   -0.0521620
 		       0.3788113   -0.0564141    -0.1268023   -0.4537375     0.2418736    0.0102098     0.3011521    0.3176081
 		      -0.1266924   -0.4533307     0.3795924   -0.0540631     0.3082662    0.3276938     0.2439862    0.0107172
   0.420000000     0.2868439   -0.0282329     0.3891897    0.2135557     0.3970209   -0.1491998    -0.2920421   -0.3342458 
 		       0.3908610    0.2114296     0.2759579   -0.0351885    -0.2886578   -0.3325352     0.3969316   -0.1495205
 		       0.3983499   -0.1512149    -0.2949331   -0.3315372     0.2866707   -0.0315328     0.3908705    0.2119471
 		      -0.2939546   -0.3337613     0.3900054   -0.1520189     0.3961266    0.2117330     0.2797478   -0.0323522
   0.450000000     0.3048609   -0.0796105     0.4508767    0.0686339     0.3603966   -0.2295638    -0.3829325   -0.1774857 
 		       0.4517549    0.0664976     0.2939644   -0.0544955    -0.3805949   -0.1757695     0.3602070   -0.2018701
 		       0.3611549   -0.2321215    -0.3838523   -0.1738250     0.3050126   -0.0829677     0.4522622    0.0668598
 		      -0.3842696   -0.1754081     0.3530048   -0.2015125     0.4545774    0.0655788     0.2974963   -0.0539754
   0.480000000     0.3014407   -0.1145130     0.4595554   -0.1057682     0.3028364   -0.2507362    -0.4052070   -0.0155091 
 		       0.4595946   -0.1087259     0.3359751   -0.1058048    -0.4025494   -0.0135234     0.3435841   -0.2422177
 		       0.3038401   -0.2537253    -0.4046022   -0.0109273     0.3017109   -0.1178335     0.4601539   -0.1089650
 		      -0.4061802   -0.0131907     0.3376884   -0.2404761     0.4621933   -0.1105615     0.3371583   -0.1060250
   0.510000000     0.3279597   -0.1644386     0.3887818   -0.2829252     0.2961540   -0.2597267    -0.3747135    0.1343696 
 		       0.3882768   -0.2849668     0.3430462   -0.1838231    -0.3715533    0.1347136     0.3140524   -0.2796467
 		       0.2968808   -0.2631431    -0.3716406    0.1375032     0.3277893   -0.1685133     0.3881006   -0.2854094
 		      -0.3749360    0.1365519     0.3096261   -0.2766681     0.3890916   -0.2875101     0.3426392   -0.1827128
   0.540000000     0.3079649   -0.2553253     0.2497448   -0.4203072     0.2803096   -0.2991079    -0.2936301    0.2600031 
 		       0.2479998   -0.4218420     0.3088262   -0.2671893    -0.2900393    0.2584716     0.2819420   -0.3090955
 		       0.2803840   -0.3033263    -0.2892915    0.2608423     0.3063920   -0.2607962     0.2478910   -0.4226986
 		      -0.2925595    0.2619373     0.2789299   -0.3067104     0.2479317   -0.4246232     0.3067583   -0.2646790
   0.570000000     0.2238285   -0.3157486     0.0433304   -0.4929883     0.2341897   -0.3339394    -0.1909376    0.3451383 
 		       0.0408173   -0.4936986     0.2189246   -0.3240797    -0.1886172    0.3403928     0.2305043   -0.3331829
 		       0.2321497   -0.3384572    -0.1871684    0.3422833     0.2213676   -0.3231235     0.0401819   -0.4939294
 		      -0.1896671    0.3464237     0.2279433   -0.3320715     0.0394914   -0.4956732     0.2185676   -0.3161846
   0.600000000     0.1376550   -0.2778887    -0.1612580   -0.4154391     0.1941039   -0.3035665    -0.0489202    0.4427780 
 		      -0.1623765   -0.4146012     0.1311619   -0.2656583    -0.0531555    0.4390452     0.2006200   -0.2799652
 		       0.1922715   -0.3048248    -0.0500845    0.4395791     0.1315477   -0.2839595    -0.1632301   -0.4131462
 		      -0.0461278    0.4434751     0.1943540   -0.2783190    -0.1659273   -0.4138460     0.1423375   -0.2597396
   0.630000000     0.1422018   -0.2599018    -0.2570174   -0.3254287     0.2265967   -0.3247937     0.1749849    0.4137344 
 		      -0.2581656   -0.3254363     0.1629644   -0.2429862     0.1735438    0.4157813     0.2594922   -0.3059181
 		       0.2260516   -0.3274775     0.1749373    0.4150241     0.1368428   -0.2608174    -0.2572977   -0.3251730
 		       0.1771851    0.4138108     0.2563655   -0.3009578    -0.2582006   -0.3235488     0.1694578   -0.2452561
   0.660000000     0.1273906   -0.2688465    -0.3564810   -0.2252662     0.2054212   -0.3851875     0.3199671    0.2866912 
 		      -0.3583482   -0.2251175     0.1617563   -0.2611757     0.3210855    0.2874263     0.2501446   -0.3780013
 		       0.2043155   -0.3882869     0.3218168    0.2863182     0.1238993   -0.2699538    -0.3572657   -0.2254966
 		       0.3219374    0.2854657     0.2490709   -0.3731838    -0.3568990   -0.2239227     0.1633738   -0.2648607
   0.690000000     0.1117013   -0.2645092    -0.4191701   -0.0802557     0.1491549   -0.4203440     0.3941067    0.1343044 
 		      -0.4212723   -0.0784494     0.1555085   -0.2740460     0.3954194    0.1331580     0.2024543   -0.4302727
 		       0.1472482   -0.4234215     0.3962581    0.1323936     0.1088131   -0.2651662    -0.4208660   -0.0794619
 		       0.3959268    0.1325535     0.2035253   -0.4271140    -0.4200269   -0.0790685     0.1543216   -0.2749989
   0.720000000     0.1140119   -0.2699700    -0.4224292    0.0804122     0.0959262   -0.4284038     0.4092882   -0.0308413 
 		      -0.4238096    0.0823540     0.1543990   -0.2977053     0.4095090   -0.0325785     0.1463083   -0.4592583
 		       0.0937586   -0.4310278     0.4098431   -0.0338883     0.1113864   -0.2715276    -0.4233956    0.0818301
 		       0.4097379   -0.0332075     0.1465078   -0.4567271    -0.4227830    0.0821178     0.1530688   -0.2967610
   0.750000000     0.1069860   -0.2956963    -0.3661447    0.2330209     0.0429339   -0.4250094     0.3588879   -0.1861753 
 		      -0.3665203    0.2355300     0.1411182   -0.3350893     0.3579178   -0.1877067     0.0853195   -0.4702638
 		       0.0408909   -0.4277711     0.3573579   -0.1886620     0.1046005   -0.2978781    -0.3670026    0.2345973
 		       0.3585352   -0.1882723     0.0858862   -0.4680365    -0.3661525    0.2339365     0.1392748   -0.3340199
   0.780000000     0.0810880   -0.3250594    -0.2567772    0.3577890     0.0051129   -0.4026293     0.2543280   -0.3077866 
 		      -0.2556972    0.3600637     0.1073967   -0.3771321     0.2521321   -0.3081054     0.0356149   -0.4596208
 		       0.0019983   -0.4049185     0.2516153   -0.3094690     0.0807698   -0.3275391    -0.2563137    0.3597570
 		       0.2530784   -0.3099360     0.0358308   -0.4588690    -0.2557220    0.3594134     0.1061186   -0.3732472
   0.810000000     0.0451254   -0.3507544    -0.1018908    0.4387353    -0.0076782   -0.3862658     0.1116874   -0.3748470 
 		      -0.0997665    0.4402192     0.0516263   -0.4076414     0.1090800   -0.3738156     0.0007201   -0.4474227
 		      -0.0102114   -0.3886346     0.1080118   -0.3744899     0.0442083   -0.3537116    -0.1003278    0.4396289
 		       0.1099298   -0.3760902     0.0005381   -0.4464878    -0.0998969    0.4392142     0.0519421   -0.4023868
   0.840000000    -0.0214358   -0.3790436     0.0867719    0.4505733    -0.0287506   -0.4005177    -0.0335270   -0.3801323 
 		       0.0889540    0.4517824    -0.0191547   -0.4117452    -0.0342357   -0.3776077    -0.0266514   -0.4358958
 		      -0.0321733   -0.4025674    -0.0351928   -0.3775254    -0.0228850   -0.3845247     0.0877380    0.4512555
 		      -0.0359024   -0.3809120    -0.0271377   -0.4351357     0.0884770    0.4506658    -0.0176457   -0.4058691
   0.870000000    -0.1102534   -0.3320730     0.2590647    0.3620767    -0.0770435   -0.3822052    -0.1730542   -0.3528574 
 		       0.2620105    0.3622856    -0.0699397   -0.3775989    -0.1718560   -0.3516432    -0.0346663   -0.4274933
 		      -0.0803900   -0.3834171    -0.1729306   -0.3515436    -0.1149889   -0.3387183     0.2605442    0.3627382
 		      -0.1754408   -0.3520864    -0.0353082   -0.4268771     0.2603061    0.3615268    -0.0663564   -0.3739902
   0.900000000    -0.1249130   -0.2601931     0.3605668    0.2306748    -0.0801971   -0.3585577    -0.3091300   -0.2553752 
 		       0.3626569    0.2291839    -0.1006753   -0.3542012    -0.3084708   -0.2559457    -0.0534256   -0.4539843
 		      -0.0836170   -0.3601240    -0.3092072   -0.2546523    -0.1305069   -0.2633852     0.3622173    0.2317075
 		      -0.3121479   -0.2539241    -0.0539406   -0.4523050     0.3614336    0.2303125    -0.0984240   -0.3516518
   0.930000000    -0.1126885   -0.2169810     0.4145690    0.0838610    -0.0930547   -0.3668838    -0.3816250   -0.1070864 
 		       0.4168309    0.0820989    -0.1264528   -0.3269811    -0.3815609   -0.1072863    -0.1040903   -0.4757760
 		      -0.0973470   -0.3681655    -0.3819829   -0.1059942    -0.1172952   -0.2191068     0.4174606    0.0835334
 		      -0.3832495   -0.1047121    -0.1048302   -0.4748131     0.4164517    0.0829404    -0.1239767   -0.3241682
   0.960000000    -0.0851919   -0.1952090     0.4153931   -0.0748548    -0.1209491   -0.3672011    -0.3882828    0.0515101 
 		       0.4169399   -0.0770324    -0.1358569   -0.3030474    -0.3881471    0.0516559    -0.1671512   -0.4739582
 		      -0.1248742   -0.3676153    -0.3884646    0.0527719    -0.0898750   -0.1980206     0.4176256   -0.0762819
 		      -0.3885095    0.0537636    -0.1684568   -0.4729281     0.4165621   -0.0764768    -0.1335487   -0.2993554
   0.990000000    -0.0528830   -0.1990098     0.3564614   -0.2208247    -0.1480204   -0.3561217    -0.3346679    0.1987106 
 		       0.3565852   -0.2234685    -0.1395706   -0.2899269    -0.3344590    0.1990132    -0.2287199   -0.4473215
 		      -0.1514523   -0.3557632    -0.3341479    0.2003357    -0.0587839   -0.2015720     0.3586526   -0.2234960
 		      -0.3340431    0.2009664    -0.2296273   -0.4463738     0.3575462   -0.2229736    -0.1375502   -0.2858512
   1.020000000    -0.0390397   -0.2361916     0.2521107   -0.3389799    -0.1728946   -0.3442521    -0.2285372    0.3093779 
 		       0.2517588   -0.3421765    -0.1456374   -0.2881594    -0.2284146    0.3101985    -0.2734953   -0.4020656
 		      -0.1765362   -0.3446341    -0.2276908    0.3110386    -0.0440645   -0.2375213     0.2530545   -0.3432511
 		      -0.2268603    0.3110507    -0.2739216   -0.4011971     0.2522075   -0.3423621    -0.1441629   -0.2853851
   1.050000000    -0.0606689   -0.2728896     0.1053289   -0.4124670    -0.1938007   -0.3255878    -0.0916239    0.3721932 
 		       0.1037182   -0.4144212    -0.1608830   -0.2996669    -0.0907590    0.3724650    -0.2904940   -0.3583499
 		      -0.1973840   -0.3250049    -0.0894016    0.3730622    -0.0653835   -0.2749238     0.1044509   -0.4164284
 		      -0.0898268    0.3732925    -0.2916511   -0.3571078     0.1038636   -0.4153030    -0.1592276   -0.2964281
   1.080000000    -0.1043193   -0.3048329    -0.0554607   -0.4239487    -0.2030107   -0.3130513     0.0636966    0.3769793 
 		      -0.0577836   -0.4255700    -0.2058154   -0.3108656     0.0648724    0.3770780    -0.3041423   -0.3284727
 		      -0.2063531   -0.3127972     0.0663346    0.3770835    -0.1100619   -0.3056777    -0.0588648   -0.4277006
 		       0.0664492    0.3776358    -0.3057215   -0.3266627    -0.0590549   -0.4264754    -0.2035742   -0.3075789
   1.110000000    -0.1789893   -0.3129491    -0.2148085   -0.3807787    -0.2273898   -0.3148650     0.2053363    0.3133964 
 		      -0.2178729   -0.3812007    -0.2566479   -0.2894199     0.2070460    0.3123501    -0.3099202   -0.3028679
 		      -0.2310574   -0.3145607     0.2085457    0.3116786    -0.1860104   -0.3111877    -0.2207832   -0.3819482
 		       0.2076481    0.3125587    -0.3113277   -0.3008832    -0.2201670   -0.3806720    -0.2561928   -0.2859192
   1.140000000    -0.2480172   -0.2471256    -0.3606071   -0.2658588    -0.2577356   -0.2805299     0.2963429    0.2091812 
 		      -0.3631356   -0.2648934    -0.3004431   -0.2487093     0.2960214    0.2072617    -0.3220919   -0.2909457
 		      -0.2614348   -0.2795836     0.2971313    0.2058346    -0.2510098   -0.2433638    -0.3648034   -0.2629804
 		       0.2982953    0.2079157    -0.3230070   -0.2885528    -0.3641498   -0.2622020    -0.3002867   -0.2431981
   1.170000000    -0.2426842   -0.1815166    -0.4271282   -0.0918612    -0.2462567   -0.2673960     0.3580797    0.0896386 
 		      -0.4292984   -0.0896590    -0.3223736   -0.1919027     0.3567092    0.0888240    -0.3417553   -0.2785589
 		      -0.2497277   -0.2662621     0.3572336    0.0872507    -0.2429983   -0.1802084    -0.4288510   -0.0885143
 		       0.3593354    0.0866838    -0.3422764   -0.2758938    -0.4278160   -0.0879548    -0.3193238   -0.1854980
   1.200000000    -0.2244312   -0.1520940    -0.4180889    0.0747920    -0.2632691   -0.2786668     0.3700845   -0.0602574 
 		      -0.4192221    0.0774108    -0.3175462   -0.1447162     0.3692363   -0.0603578    -0.3733175   -0.2653739
 		      -0.2667196   -0.2772116     0.3689024   -0.0616008    -0.2254920   -0.1519658    -0.4186204    0.0777672
 		       0.3695710   -0.0628251    -0.3735537   -0.2633205    -0.4170774    0.0780560    -0.3141553   -0.1391052
   1.230000000    -0.2063618   -0.1391601    -0.3555838    0.2213966    -0.3004335   -0.2758629     0.3149601   -0.2009591 
 		      -0.3553576    0.2241497    -0.3037482   -0.1046081     0.3138869   -0.2006732    -0.4118755   -0.2291384
 		      -0.3035772   -0.2746602     0.3134318   -0.2017721    -0.2085900   -0.1400769    -0.3555281    0.2243409
 		       0.3141512   -0.2033881    -0.4117961   -0.2266326    -0.3543257    0.2243586    -0.2997633   -0.0999730
   1.260000000    -0.1955474   -0.1423048    -0.2465378    0.3358045    -0.3401865   -0.2521756     0.2113258   -0.3060831 
