! MS46524B
! 1918203/M1: 91020113/M2: 91020112
! 9/9/2020 2:28:19 PM
! C:\USERS\ANRITSUUSER\DESKTOP\2118 -5.S4P
! CHANNEL.1
! TR.MEASUREMENT
! CORRECTED.DATA
# GHZ S RI R 50.0
! FREQ.HZ          S11RE        S11IM         S12RE        S12IM         S13RE        S13IM         S14RE        S14IM         
!		       S21RE        S21IM         S22RE        S22IM         S23RE        S23IM         S24RE        S24IM         
!		       S31RE        S31IM         S32RE        S32IM         S33RE        S33IM         S34RE        S34IM         
!		       S41RE        S41IM         S42RE        S42IM         S43RE        S43IM         S44RE        S44IM         
!; PortSelection: Port_1234
      10000000     0.0191546   -0.0058115     0.9776748   -0.0862992     0.0008902    0.0040387    -0.0005046    0.0002835 
 		       0.9787814   -0.0866564     0.0186912   -0.0051867    -0.0004347    0.0002757     0.0008997    0.0040695
 		       0.0008543    0.0040564    -0.0004269    0.0002805     0.0206755   -0.0050915     0.9732618   -0.0868771
 		      -0.0004623    0.0002751     0.0008005    0.0040966     0.9719840   -0.0865244     0.0204057   -0.0044807
      20000000     0.0202063   -0.0135962     0.9635883   -0.1687709     0.0020398    0.0078198    -0.0004104    0.0007853 
 		       0.9642677   -0.1693223     0.0194395   -0.0122776    -0.0004062    0.0007666     0.0020172    0.0078156
 		       0.0020273    0.0078187    -0.0003982    0.0007901     0.0218255   -0.0130131     0.9588062   -0.1701865
 		      -0.0004209    0.0007926     0.0020275    0.0078068     0.9588403   -0.1689064     0.0208845   -0.0116939
      30000000     0.0204121   -0.0228225     0.9436936   -0.2492789     0.0038140    0.0113011    -0.0001955    0.0012680 
 		       0.9442532   -0.2494914     0.0190165   -0.0210875    -0.0001461    0.0012631     0.0036930    0.0113258
 		       0.0037746    0.0112718    -0.0001825    0.0013080     0.0216814   -0.0215744     0.9383461   -0.2503895
 		      -0.0001585    0.0012786     0.0036850    0.0112916     0.9371200   -0.2493569     0.0202032   -0.0196550
      40000000     0.0187579   -0.0322404     0.9169503   -0.3275065     0.0061191    0.0144120     0.0002146    0.0017147 
 		       0.9169633   -0.3273876     0.0164477   -0.0301591     0.0002257    0.0016917     0.0059624    0.0144138
 		       0.0060864    0.0143899     0.0002558    0.0017228     0.0206010   -0.0301609     0.9114830   -0.3283697
 		       0.0002349    0.0017024     0.0059254    0.0144033     0.9109061   -0.3273531     0.0187061   -0.0281360
      50000000     0.0152597   -0.0403853     0.8844271   -0.4021979     0.0089154    0.0171112     0.0007033    0.0020324 
 		       0.8838426   -0.4024014     0.0119505   -0.0380314     0.0007455    0.0020109     0.0086739    0.0172158
 		       0.0088673    0.0170527     0.0007600    0.0020165     0.0183526   -0.0385621     0.8784063   -0.4025283
 		       0.0007285    0.0019630     0.0086049    0.0171629     0.8780075   -0.4019315     0.0159628   -0.0369640
      60000000     0.0107145   -0.0481009     0.8460426   -0.4742116     0.0120864    0.0192924     0.0013639    0.0021838 
 		       0.8450445   -0.4737153     0.0064315   -0.0450158     0.0013559    0.0021558     0.0118074    0.0194274
 		       0.0120724    0.0192350     0.0013547    0.0021601     0.0143346   -0.0466233     0.8390430   -0.4741171
 		       0.0013111    0.0021676     0.0117400    0.0193713     0.8388418   -0.4732728     0.0112786   -0.0457658
      70000000     0.0039309   -0.0557685     0.8003765   -0.5417508     0.0156364    0.0208518     0.0020741    0.0021755 
 		       0.8000101   -0.5409904    -0.0007530   -0.0516534     0.0020709    0.0021444     0.0152458    0.0211430
 		       0.0155962    0.0208585     0.0020305    0.0022103     0.0080320   -0.0539824     0.7942376   -0.5408125
 		       0.0020655    0.0021872     0.0151817    0.0211006     0.7938224   -0.5397341     0.0041895   -0.0534300
      80000000    -0.0046307   -0.0629538     0.7507733   -0.6047677     0.0194519    0.0218742     0.0027215    0.0019499 
 		       0.7503836   -0.6043642    -0.0094980   -0.0577911     0.0027518    0.0019808     0.0189289    0.0222828
 		       0.0193850    0.0218574     0.0028000    0.0020093    -0.0001380   -0.0597069     0.7442679   -0.6035813
 		       0.0027930    0.0019884     0.0188342    0.0222149     0.7439926   -0.6034330    -0.0045927   -0.0587141
      90000000    -0.0141479   -0.0685090     0.6958652   -0.6631979     0.0233116    0.0222589     0.0033978    0.0016089 
 		       0.6957777   -0.6630639    -0.0187164   -0.0621039     0.0033547    0.0016366     0.0227091    0.0227781
 		       0.0232372    0.0222718     0.0034208    0.0016176    -0.0093164   -0.0642548     0.6893306   -0.6615405
 		       0.0034339    0.0015512     0.0226505    0.0227753     0.6893677   -0.6616163    -0.0143664   -0.0619601
     100000000    -0.0229521   -0.0724310     0.6368167   -0.7166904     0.0272265    0.0220284     0.0039618    0.0011269 
 		       0.6374617   -0.7171214    -0.0277614   -0.0643221     0.0039192    0.0011105     0.0265216    0.0227259
 		       0.0272021    0.0220101     0.0039191    0.0011144    -0.0185981   -0.0679356     0.6301921   -0.7149049
 		       0.0039112    0.0010687     0.0264696    0.0227097     0.6300402   -0.7143181    -0.0240281   -0.0635496
     110000000    -0.0319295   -0.0754455     0.5742277   -0.7642871     0.0311255    0.0211886     0.0044329    0.0005138 
 		       0.5743662   -0.7645960    -0.0371375   -0.0646451     0.0043938    0.0005412     0.0303757    0.0220988
 		       0.0310147    0.0211915     0.0043899    0.0005796    -0.0277880   -0.0707692     0.5673097   -0.7631463
 		       0.0043653    0.0005383     0.0302729    0.0220641     0.5663691   -0.7635039    -0.0336192   -0.0644572
     120000000    -0.0413827   -0.0766170     0.5068883   -0.8061104     0.0347743    0.0196967     0.0047775   -0.0002228 
 		       0.5073736   -0.8070922    -0.0471479   -0.0624055     0.0047682   -0.0002417     0.0339869    0.0208138
 		       0.0346856    0.0197365     0.0047730   -0.0002023    -0.0365952   -0.0730314     0.5007718   -0.8049231
 		       0.0047786   -0.0002185     0.0339205    0.0208851     0.5015382   -0.8049522    -0.0430266   -0.0651375
     130000000    -0.0511176   -0.0763883     0.4388925   -0.8435113     0.0381997    0.0177452     0.0049968   -0.0010829 
 		       0.4389642   -0.8434217    -0.0573095   -0.0586551     0.0049526   -0.0010929     0.0373919    0.0190918
 		       0.0381747    0.0177346     0.0049139   -0.0010888    -0.0454511   -0.0737427     0.4318071   -0.8409005
 		       0.0049474   -0.0010695     0.0373192    0.0191259     0.4319082   -0.8416046    -0.0527158   -0.0644693
     140000000    -0.0612052   -0.0755677     0.3667907   -0.8735549     0.0413398    0.0152560     0.0050227   -0.0019666 
 		       0.3677277   -0.8751356    -0.0671507   -0.0545569     0.0049468   -0.0020021     0.0404936    0.0168585
 		       0.0412219    0.0153457     0.0048909   -0.0019344    -0.0546910   -0.0723973     0.3604595   -0.8719010
 		       0.0050324   -0.0019024     0.0404357    0.0169201     0.3587312   -0.8722549    -0.0617284   -0.0619104
     150000000    -0.0712904   -0.0735316     0.2949305   -0.8987489     0.0439778    0.0123320     0.0049597   -0.0028509 
 		       0.2933000   -0.8997121    -0.0762726   -0.0500587     0.0047076   -0.0028792     0.0433190    0.0142791
 		       0.0439211    0.0123469     0.0047580   -0.0028241    -0.0638080   -0.0682355     0.2870845   -0.8967232
 		       0.0049542   -0.0028325     0.0431749    0.0142960     0.2867238   -0.8953829    -0.0705460   -0.0571575
     160000000    -0.0803955   -0.0695463     0.2188641   -0.9174097     0.0462715    0.0089364     0.0046067   -0.0037649 
 		       0.2182693   -0.9188364    -0.0831770   -0.0444024     0.0044015   -0.0036550     0.0456098    0.0111333
 		       0.0462200    0.0089958     0.0044130   -0.0037280    -0.0726794   -0.0627817     0.2106516   -0.9134593
 		       0.0046239   -0.0038476     0.0455938    0.0112719     0.2109719   -0.9139577    -0.0785442   -0.0507528
     170000000    -0.0873208   -0.0639507     0.1425740   -0.9298445     0.0479697    0.0054111     0.0040835   -0.0046415 
 		       0.1431407   -0.9303708    -0.0884820   -0.0371257     0.0038301   -0.0044466     0.0474874    0.0079430
 		       0.0478815    0.0054082     0.0038471   -0.0045202    -0.0803801   -0.0560674     0.1363429   -0.9255341
 		       0.0039613   -0.0046290     0.0474141    0.0079274     0.1363776   -0.9252287    -0.0848718   -0.0427336
     180000000    -0.0935805   -0.0576038     0.0664751   -0.9359343     0.0491445    0.0015944     0.0033095   -0.0053378 
 		       0.0668021   -0.9375203    -0.0922877   -0.0282210     0.0031659   -0.0050687     0.0488120    0.0044460
 		       0.0491100    0.0016440     0.0030777   -0.0050283    -0.0871694   -0.0495122     0.0592193   -0.9311125
 		       0.0032496   -0.0053418     0.0488255    0.0044843     0.0596752   -0.9312067    -0.0908001   -0.0340521
     190000000    -0.0995711   -0.0504597    -0.0099487   -0.9367271     0.0498069   -0.0022872     0.0024526   -0.0059440 
 		      -0.0088530   -0.9374905    -0.0959843   -0.0180109     0.0024017   -0.0056288     0.0496615    0.0006980
 		       0.0497678   -0.0022676     0.0023590   -0.0055334    -0.0930233   -0.0427916    -0.0168559   -0.9316450
 		       0.0025272   -0.0058595     0.0496632    0.0008015    -0.0167849   -0.9313315    -0.0954618   -0.0241318
     200000000    -0.1050810   -0.0425987    -0.0845932   -0.9305235     0.0498973   -0.0063619     0.0015559   -0.0063342 
 		      -0.0854522   -0.9311661    -0.0985239   -0.0074902     0.0014607   -0.0060283     0.0501042   -0.0030153
 		       0.0498059   -0.0062695     0.0015621   -0.0059497    -0.0977120   -0.0365825    -0.0920183   -0.9245899
 		       0.0016472   -0.0064103     0.0499956   -0.0029012    -0.0928431   -0.9246054    -0.0984023   -0.0140664
     210000000    -0.1085894   -0.0343888    -0.1599206   -0.9188667     0.0493888   -0.0102410     0.0005360   -0.0065260 
 		      -0.1600916   -0.9181338    -0.0989574    0.0025602     0.0005350   -0.0061620     0.0498866   -0.0066665
 		       0.0493241   -0.0101673     0.0005915   -0.0062340    -0.1013536   -0.0299911    -0.1667033   -0.9119982
 		       0.0005326   -0.0066435     0.0499310   -0.0066116    -0.1661288   -0.9125178    -0.0995560   -0.0035494
     220000000    -0.1103376   -0.0272234    -0.2340003   -0.9008136     0.0483325   -0.0141258    -0.0003865   -0.0065741 
 		      -0.2327442   -0.9013974    -0.0972629    0.0110271    -0.0003009   -0.0061075     0.0492609   -0.0103426
 		       0.0483561   -0.0141100    -0.0003946   -0.0061722    -0.1044838   -0.0225553    -0.2396663   -0.8937213
 		      -0.0004053   -0.0065014     0.0492610   -0.0102157    -0.2404435   -0.8938493    -0.0983826    0.0059503
     230000000    -0.1107839   -0.0201769    -0.3051528   -0.8776659     0.0468139   -0.0177294    -0.0013213   -0.0063945 
 		      -0.3045658   -0.8780603    -0.0939138    0.0189294    -0.0012414   -0.0060153     0.0481326   -0.0137746
 		       0.0467417   -0.0176524    -0.0012175   -0.0060646    -0.1059251   -0.0145831    -0.3103985   -0.8687280
 		      -0.0012693   -0.0063597     0.0481213   -0.0137988    -0.3108121   -0.8695811    -0.0952603    0.0155743
     240000000    -0.1100659   -0.0126322    -0.3747548   -0.8485293     0.0447900   -0.0209840    -0.0023089   -0.0061542 
 		      -0.3744636   -0.8483075    -0.0885840    0.0270837    -0.0021701   -0.0058218     0.0465719   -0.0170096
 		       0.0447598   -0.0210397    -0.0021584   -0.0058272    -0.1052741   -0.0065050    -0.3789924   -0.8407729
 		      -0.0022554   -0.0061880     0.0465096   -0.0169634    -0.3798952   -0.8408455    -0.0910742    0.0238467
     250000000    -0.1080123   -0.0048877    -0.4399251   -0.8152059     0.0423971   -0.0241016    -0.0031585   -0.0056481 
 		      -0.4383816   -0.8156363    -0.0821442    0.0356826    -0.0030259   -0.0053946     0.0444761   -0.0200943
 		       0.0423470   -0.0239914    -0.0030370   -0.0053059    -0.1033100    0.0010587    -0.4455024   -0.8053975
 		      -0.0031006   -0.0056748     0.0445005   -0.0199228    -0.4455894   -0.8055667    -0.0862707    0.0319618
     260000000    -0.1058705    0.0023449    -0.5040952   -0.7749481     0.0395241   -0.0267725    -0.0037864   -0.0049644 
 		      -0.5034564   -0.7758885    -0.0755158    0.0429089    -0.0037994   -0.0047492     0.0422272   -0.0226839
 		       0.0394651   -0.0266841    -0.0036802   -0.0046757    -0.0996828    0.0076210    -0.5085539   -0.7653814
 		      -0.0038002   -0.0050431     0.0420432   -0.0226476    -0.5072406   -0.7661229    -0.0809890    0.0393380
     270000000    -0.1032049    0.0094979    -0.5632862   -0.7322130     0.0363187   -0.0290150    -0.0043570   -0.0045194 
 		      -0.5635036   -0.7325878    -0.0692842    0.0484822    -0.0042760   -0.0039461     0.0394738   -0.0249039
 		       0.0363285   -0.0289143    -0.0041700   -0.0040074    -0.0950745    0.0135331    -0.5671840   -0.7214135
 		      -0.0044200   -0.0045129     0.0394642   -0.0249380    -0.5673932   -0.7213523    -0.0742672    0.0460197
     280000000    -0.0992320    0.0157660    -0.6192133   -0.6834513     0.0329581   -0.0306017    -0.0049599   -0.0038348 
 		      -0.6200262   -0.6828980    -0.0619364    0.0530027    -0.0045987   -0.0032455     0.0365975   -0.0267294
 		       0.0329631   -0.0306414    -0.0045630   -0.0032721    -0.0897330    0.0191820    -0.6228228   -0.6722255
 		      -0.0050020   -0.0038101     0.0364262   -0.0267725    -0.6227122   -0.6724544    -0.0660923    0.0514432
     290000000    -0.0931727    0.0201877    -0.6728303   -0.6300423     0.0293908   -0.0319051    -0.0053560   -0.0029450 
 		      -0.6725707   -0.6309075    -0.0530927    0.0551474    -0.0048375   -0.0025158     0.0333538   -0.0282698
 		       0.0293804   -0.0317655    -0.0049332   -0.0025721    -0.0843275    0.0241361    -0.6744741   -0.6186927
 		      -0.0053683   -0.0028617     0.0332794   -0.0281873    -0.6734115   -0.6191167    -0.0567293    0.0549953
     300000000    -0.0868319    0.0235161    -0.7213006   -0.5733292     0.0257379   -0.0325751    -0.0054851   -0.0020455 
 		      -0.7203767   -0.5736151    -0.0432408    0.0558795    -0.0049680   -0.0017970     0.0300830   -0.0291652
 		       0.0257470   -0.0323737    -0.0050135   -0.0016869    -0.0785035    0.0286660    -0.7207250   -0.5617102
 		      -0.0054176   -0.0020334     0.0300593   -0.0290674    -0.7217221   -0.5620341    -0.0467469    0.0567049
     310000000    -0.0802049    0.0256395    -0.7638478   -0.5137910     0.0219441   -0.0327355    -0.0053896   -0.0011864 
 		      -0.7633691   -0.5140437    -0.0338155    0.0554421    -0.0050387   -0.0010166     0.0267129   -0.0295923
 		       0.0220205   -0.0326525    -0.0049847   -0.0009395    -0.0730353    0.0318972    -0.7634511   -0.5014659
 		      -0.0053428   -0.0012592     0.0267610   -0.0295299    -0.7637141   -0.5007088    -0.0369697    0.0566449
     320000000    -0.0735357    0.0276990    -0.8011787   -0.4490144     0.0182558   -0.0322620    -0.0051383   -0.0005010 
 		      -0.8016316   -0.4492753    -0.0246423    0.0544303    -0.0048667   -0.0002854     0.0233993   -0.0295527
 		       0.0183435   -0.0321568    -0.0048254   -0.0003096    -0.0671630    0.0335607    -0.8011310   -0.4371051
 		      -0.0052318   -0.0004882     0.0234826   -0.0294484    -0.8010995   -0.4369527    -0.0276335    0.0557076
     330000000    -0.0668107    0.0279754    -0.8345246   -0.3818564     0.0147614   -0.0313645    -0.0048886    0.0001460 
 		      -0.8349447   -0.3823434    -0.0162610    0.0516116    -0.0045819    0.0003383     0.0202105   -0.0289797
 		       0.0147476   -0.0312764    -0.0045449    0.0003369    -0.0610139    0.0333557    -0.8335579   -0.3709808
 		      -0.0049921    0.0001983     0.0201903   -0.0288277    -0.8325475   -0.3705854    -0.0188597    0.0539163
     340000000    -0.0605600    0.0272318    -0.8628699   -0.3136903     0.0114743   -0.0299138    -0.0045499    0.0006287 
 		      -0.8628109   -0.3142800    -0.0087267    0.0468940    -0.0042302    0.0009214     0.0170668   -0.0279842
 		       0.0115391   -0.0298792    -0.0041840    0.0008746    -0.0548188    0.0318727    -0.8590248   -0.3006240
 		      -0.0045621    0.0007273     0.0171825   -0.0278400    -0.8597182   -0.3021535    -0.0106195    0.0503519
     350000000    -0.0545200    0.0256190    -0.8833482   -0.2443252     0.0084271   -0.0280246    -0.0042666    0.0011824 
 		      -0.8840542   -0.2434812    -0.0016954    0.0409823    -0.0037526    0.0012395     0.0142568   -0.0265035
 		       0.0084616   -0.0279932    -0.0038368    0.0012085    -0.0478584    0.0292206    -0.8802494   -0.2302130
 		      -0.0041855    0.0010875     0.0142699   -0.0264285    -0.8800862   -0.2302334    -0.0031000    0.0452065
     360000000    -0.0488650    0.0224467    -0.9000616   -0.1699810     0.0058349   -0.0256901    -0.0037454    0.0015226 
 		      -0.9003825   -0.1688298     0.0051740    0.0334498    -0.0033570    0.0015165     0.0117082   -0.0246234
 		       0.0057968   -0.0256242    -0.0034063    0.0014281    -0.0410117    0.0256547    -0.8957980   -0.1578884
 		      -0.0037774    0.0014916     0.0117251   -0.0245967    -0.8948163   -0.1586419     0.0034917    0.0378142
     370000000    -0.0442323    0.0183356    -0.9107322   -0.0965415     0.0035186   -0.0229970    -0.0032393    0.0016830 
 		      -0.9101011   -0.0957981     0.0107275    0.0252585    -0.0028873    0.0016543     0.0095547   -0.0224275
 		       0.0035120   -0.0229032    -0.0029061    0.0017151    -0.0350193    0.0216501    -0.9049299   -0.0844037
 		      -0.0032184    0.0017014     0.0095135   -0.0223420    -0.9053500   -0.0857013     0.0085052    0.0292036
     380000000    -0.0407774    0.0135115    -0.9143555   -0.0227846     0.0016540   -0.0199843    -0.0027194    0.0016728 
 		      -0.9143019   -0.0220453     0.0139273    0.0165971    -0.0024292    0.0017287     0.0077139   -0.0198351
 		       0.0017437   -0.0199249    -0.0024366    0.0017374    -0.0302703    0.0173722    -0.9069349   -0.0111381
 		      -0.0027232    0.0016675     0.0078043   -0.0197598    -0.9079931   -0.0113152     0.0119172    0.0199183
     390000000    -0.0378066    0.0086792    -0.9119626    0.0525935     0.0004280   -0.0166911    -0.0024269    0.0015379 
 		      -0.9117688    0.0508070     0.0151671    0.0080292    -0.0020640    0.0016789     0.0063717   -0.0171272
 		       0.0003453   -0.0167151    -0.0020429    0.0016719    -0.0277354    0.0128912    -0.9047986    0.0624697
 		      -0.0024095    0.0016481     0.0064881   -0.0170994    -0.9042472    0.0632953     0.0147255    0.0106348
     400000000    -0.0343843    0.0029850    -0.9045718    0.1248033    -0.0003694   -0.0134332    -0.0021568    0.0015385 
 		      -0.9047129    0.1244003     0.0153798   -0.0003464    -0.0017407    0.0014841     0.0056716   -0.0141664
 		      -0.0003698   -0.0133182    -0.0017776    0.0014816    -0.0270809    0.0076266    -0.8958468    0.1360828
 		      -0.0020717    0.0015374     0.0055784   -0.0142102    -0.8954095    0.1362784     0.0166552    0.0015197
     410000000    -0.0321791   -0.0042469    -0.8902027    0.1991191    -0.0005818   -0.0099590    -0.0018857    0.0014594 
 		      -0.8913830    0.1980852     0.0142440   -0.0102639    -0.0016246    0.0013385     0.0052543   -0.0112178
 		      -0.0005038   -0.0099146    -0.0015634    0.0012841    -0.0275493    0.0018876    -0.8804868    0.2081382
 		      -0.0019003    0.0014138     0.0052427   -0.0111133    -0.8812082    0.2082001     0.0177351   -0.0084627
     420000000    -0.0321208   -0.0112228    -0.8701444    0.2692093    -0.0002319   -0.0065635    -0.0017415    0.0011624 
