! MS46524B
! 1918203/M1: 91020113/M2: 91020112
! 9/9/2020 2:28:19 PM
! C:\USERS\ANRITSUUSER\DESKTOP\2118 -5.S4P
! CHANNEL.1
! TR.MEASUREMENT
! CORRECTED.DATA
# GHZ S RI R 50.0
! FREQ.HZ          S11RE        S11IM         S12RE        S12IM         S13RE        S13IM         S14RE        S14IM         
!		       S21RE        S21IM         S22RE        S22IM         S23RE        S23IM         S24RE        S24IM         
!		       S31RE        S31IM         S32RE        S32IM         S33RE        S33IM         S34RE        S34IM         
!		       S41RE        S41IM         S42RE        S42IM         S43RE        S43IM         S44RE        S44IM         
!; PortSelection: Port_1234
      10000000     0.0092265   -0.0032720     0.9900210   -0.0452736     0.0002791    0.0018414    -0.0002300    0.0000911 
 		       0.9904792   -0.0455070     0.0089761   -0.0028412    -0.0002015    0.0001683     0.0002908    0.0018972
 		       0.0003113    0.0018586    -0.0001696    0.0000883     0.0106348   -0.0026677     0.9864816   -0.0459351
 		      -0.0002652    0.0001025     0.0003343    0.0018338     0.9849566   -0.0455595     0.0104956   -0.0020419
      20000000     0.0100158   -0.0071151     0.9862876   -0.0890504     0.0006205    0.0035871    -0.0002024    0.0003414 
 		       0.9865112   -0.0893344     0.0096200   -0.0061305    -0.0002210    0.0003614     0.0006141    0.0035859
 		       0.0006052    0.0035808    -0.0002523    0.0003267     0.0115724   -0.0068113     0.9816073   -0.0909666
 		      -0.0002569    0.0003332     0.0006104    0.0035730     0.9806674   -0.0899614     0.0109365   -0.0056595
      30000000     0.0110811   -0.0117564     0.9801043   -0.1328863     0.0010553    0.0052569    -0.0001991    0.0005386 
 		       0.9807488   -0.1327269     0.0104678   -0.0107129    -0.0002131    0.0005291     0.0010420    0.0052432
 		       0.0010375    0.0052772    -0.0002337    0.0005746     0.0121909   -0.0111485     0.9745164   -0.1344488
 		      -0.0002029    0.0005653     0.0010415    0.0052691     0.9738695   -0.1339641     0.0111840   -0.0094956
      40000000     0.0114384   -0.0167044     0.9721357   -0.1758672     0.0016593    0.0069089    -0.0001513    0.0007664 
 		       0.9721974   -0.1754865     0.0105356   -0.0158891    -0.0001375    0.0007659     0.0016609    0.0069065
 		       0.0016584    0.0069135    -0.0001322    0.0007851     0.0129393   -0.0153502     0.9664866   -0.1773741
 		      -0.0001396    0.0007853     0.0016277    0.0068743     0.9665359   -0.1766571     0.0119321   -0.0136787
      50000000     0.0108549   -0.0209494     0.9630025   -0.2180780     0.0024023    0.0085002    -0.0000137    0.0009919 
 		       0.9625465   -0.2182153     0.0097172   -0.0204999     0.0000084    0.0009887     0.0023661    0.0085065
 		       0.0023693    0.0084849     0.0000020    0.0009745     0.0134706   -0.0196036     0.9570042   -0.2199309
 		      -0.0000416    0.0009840     0.0023383    0.0084731     0.9564515   -0.2194230     0.0126832   -0.0185670
      60000000     0.0101608   -0.0249051     0.9513484   -0.2598913     0.0032550    0.0099860     0.0001526    0.0011734 
 		       0.9511461   -0.2600279     0.0087711   -0.0247169     0.0001258    0.0011972     0.0031987    0.0099833
 		       0.0032302    0.0099884     0.0001426    0.0011782     0.0135572   -0.0240171     0.9449352   -0.2618084
 		       0.0001201    0.0011637     0.0031772    0.0100147     0.9448202   -0.2611638     0.0129980   -0.0241247
      70000000     0.0086562   -0.0298738     0.9384322   -0.3014559     0.0042645    0.0114574     0.0003338    0.0013479 
 		       0.9371540   -0.3008318     0.0074122   -0.0296207     0.0003228    0.0013857     0.0041774    0.0114475
 		       0.0041853    0.0114003     0.0003294    0.0013330     0.0122346   -0.0286588     0.9311483   -0.3024355
 		       0.0002872    0.0013797     0.0041721    0.0114313     0.9307536   -0.3007637     0.0120329   -0.0300094
      80000000     0.0060148   -0.0352541     0.9228101   -0.3412692     0.0053801    0.0127981     0.0005565    0.0015057 
 		       0.9216049   -0.3413546     0.0052785   -0.0351785     0.0005583    0.0015064     0.0053096    0.0128083
 		       0.0053641    0.0127715     0.0006009    0.0015161     0.0095186   -0.0330170     0.9159759   -0.3422570
 		       0.0005745    0.0015645     0.0052996    0.0127613     0.9157503   -0.3423660     0.0096051   -0.0349209
      90000000     0.0023462   -0.0403463     0.9059169   -0.3815024     0.0066229    0.0140482     0.0008145    0.0016304 
 		       0.9058529   -0.3807704     0.0026673   -0.0403626     0.0008160    0.0016181     0.0065047    0.0141031
 		       0.0065980    0.0140106     0.0008283    0.0016390     0.0058685   -0.0371333     0.8986507   -0.3817671
 		       0.0008367    0.0016023     0.0064513    0.0140275     0.8987597   -0.3813556     0.0061783   -0.0391812
     100000000    -0.0007492   -0.0446371     0.8870043   -0.4194016     0.0079640    0.0151199     0.0010824    0.0017134 
 		       0.8873097   -0.4198812     0.0001713   -0.0446926     0.0010455    0.0017044     0.0078133    0.0151950
 		       0.0079565    0.0151263     0.0010905    0.0016977     0.0022501   -0.0411595     0.8801598   -0.4202763
 		       0.0010747    0.0017300     0.0078302    0.0152026     0.8800462   -0.4200189     0.0026238   -0.0427013
     110000000    -0.0036771   -0.0486930     0.8666215   -0.4570532     0.0094269    0.0162196     0.0013497    0.0017742 
 		       0.8666788   -0.4571753    -0.0026263   -0.0484703     0.0013725    0.0017774     0.0092561    0.0162319
 		       0.0094058    0.0161592     0.0013290    0.0017716    -0.0013030   -0.0452682     0.8597177   -0.4594067
 		       0.0013192    0.0017320     0.0091911    0.0161717     0.8595989   -0.4584077    -0.0009054   -0.0462969
     120000000    -0.0071424   -0.0523039     0.8450040   -0.4938930     0.0109535    0.0170698     0.0016247    0.0017909 
 		       0.8458868   -0.4943698    -0.0067441   -0.0514335     0.0016325    0.0017892     0.0107931    0.0171188
 		       0.0108945    0.0170152     0.0017261    0.0018170    -0.0039940   -0.0493500     0.8383962   -0.4956199
 		       0.0016404    0.0017922     0.0107392    0.0170726     0.8380924   -0.4944512    -0.0038222   -0.0504669
     130000000    -0.0110958   -0.0557170     0.8223234   -0.5291677     0.0125535    0.0178099     0.0019210    0.0018250 
 		       0.8221130   -0.5291759    -0.0119366   -0.0539089     0.0020112    0.0017493     0.0123358    0.0179055
 		       0.0125234    0.0178013     0.0019883    0.0017298    -0.0066861   -0.0535923     0.8152439   -0.5295321
 		       0.0019531    0.0018274     0.0122954    0.0179036     0.8148198   -0.5301228    -0.0069023   -0.0549359
     140000000    -0.0153109   -0.0594692     0.7971450   -0.5631860     0.0142192    0.0184525     0.0022505    0.0017211 
 		       0.7976672   -0.5635391    -0.0172328   -0.0567599     0.0023244    0.0016434     0.0139540    0.0185919
 		       0.0141730    0.0184644     0.0022391    0.0016859    -0.0099412   -0.0567216     0.7895306   -0.5649918
 		       0.0022767    0.0017440     0.0139064    0.0185479     0.7893413   -0.5657439    -0.0102391   -0.0592051
     150000000    -0.0199745   -0.0636839     0.7724820   -0.5958661     0.0159972    0.0189337     0.0025523    0.0017087 
 		       0.7715766   -0.5975858    -0.0223524   -0.0606274     0.0025901    0.0016006     0.0157288    0.0190919
 		       0.0158927    0.0189132     0.0025997    0.0016249    -0.0146729   -0.0595004     0.7640836   -0.5977237
 		       0.0025984    0.0017279     0.0156297    0.0191115     0.7639898   -0.5970997    -0.0147484   -0.0631210
     160000000    -0.0251489   -0.0669756     0.7435845   -0.6291533     0.0177629    0.0193230     0.0029094    0.0015036 
 		       0.7450289   -0.6293623    -0.0271401   -0.0638089     0.0028701    0.0014322     0.0174581    0.0194152
 		       0.0176770    0.0192355     0.0029472    0.0014413    -0.0201253   -0.0610870     0.7360714   -0.6299254
 		       0.0029653    0.0015019     0.0174339    0.0195074     0.7360759   -0.6291658    -0.0193152   -0.0661637
     170000000    -0.0301236   -0.0687149     0.7153737   -0.6592659     0.0195414    0.0194916     0.0032911    0.0013477 
 		       0.7151560   -0.6598098    -0.0314277   -0.0660667     0.0031652    0.0012151     0.0192074    0.0197385
 		       0.0194778    0.0194766     0.0032501    0.0011684    -0.0264610   -0.0618438     0.7067186   -0.6596560
 		       0.0032355    0.0012575     0.0191872    0.0196934     0.7065277   -0.6596012    -0.0244090   -0.0682959
     180000000    -0.0349493   -0.0698730     0.6844529   -0.6899478     0.0213431    0.0195290     0.0035831    0.0010237 
 		       0.6860260   -0.6894614    -0.0358746   -0.0670994     0.0034842    0.0010198     0.0210497    0.0198231
 		       0.0212969    0.0195310     0.0034887    0.0009529    -0.0325106   -0.0624896     0.6761923   -0.6897635
 		       0.0035333    0.0010325     0.0209947    0.0198429     0.6774846   -0.6893645    -0.0297026   -0.0702191
     190000000    -0.0403038   -0.0708579     0.6540833   -0.7171970     0.0232207    0.0195151     0.0038303    0.0007493 
 		       0.6542110   -0.7177445    -0.0414548   -0.0676467     0.0037442    0.0006800     0.0228590    0.0198126
 		       0.0231688    0.0194845     0.0036670    0.0007283    -0.0386097   -0.0630217     0.6463794   -0.7171423
 		       0.0037849    0.0008104     0.0227851    0.0197999     0.6460799   -0.7169689    -0.0355882   -0.0718013
     200000000    -0.0465449   -0.0719394     0.6224073   -0.7428070     0.0250358    0.0192264     0.0040388    0.0004496 
 		       0.6217968   -0.7445876    -0.0481395   -0.0680192     0.0039497    0.0004289     0.0246597    0.0196046
 		       0.0249652    0.0192714     0.0038899    0.0004183    -0.0437994   -0.0637064     0.6122898   -0.7435808
 		       0.0041370    0.0005029     0.0246127    0.0196098     0.6133934   -0.7441794    -0.0419971   -0.0728966
     210000000    -0.0532888   -0.0723908     0.5883938   -0.7678234     0.0267819    0.0189210     0.0042451    0.0001069 
 		       0.5881751   -0.7687176    -0.0550068   -0.0677643     0.0041275   -0.0000074     0.0264469    0.0192433
 		       0.0268019    0.0188851     0.0041303    0.0000939    -0.0489561   -0.0649206     0.5805939   -0.7676650
 		       0.0043431    0.0001114     0.0263960    0.0193108     0.5805250   -0.7683053    -0.0486274   -0.0736580
     220000000    -0.0588086   -0.0726337     0.5549124   -0.7925767     0.0286788    0.0183144     0.0044134   -0.0001986 
 		       0.5544878   -0.7915474    -0.0606929   -0.0675836     0.0041680   -0.0003085     0.0282280    0.0188806
 		       0.0286372    0.0183598     0.0042883   -0.0003366    -0.0544252   -0.0660436     0.5448269   -0.7922595
 		       0.0044171   -0.0003209     0.0282513    0.0188784     0.5444115   -0.7922185    -0.0541494   -0.0735087
     230000000    -0.0633099   -0.0727625     0.5190040   -0.8142471     0.0304199    0.0178350     0.0045928   -0.0007275 
 		       0.5196096   -0.8142298    -0.0651824   -0.0673910     0.0044320   -0.0006399     0.0300212    0.0182736
 		       0.0303736    0.0177273     0.0043952   -0.0006400    -0.0600928   -0.0669279     0.5094970   -0.8127133
 		       0.0045232   -0.0005916     0.0299377    0.0183103     0.5097103   -0.8141907    -0.0600453   -0.0721852
     240000000    -0.0679670   -0.0722369     0.4837342   -0.8341826     0.0321853    0.0169650     0.0047080   -0.0009860 
 		       0.4835497   -0.8350137    -0.0694720   -0.0662780     0.0045051   -0.0010141     0.0317111    0.0175446
 		       0.0320965    0.0169626     0.0045101   -0.0010748    -0.0662165   -0.0666685     0.4729060   -0.8332568
 		       0.0046843   -0.0010666     0.0316467    0.0175060     0.4743953   -0.8339241    -0.0649339   -0.0707260
     250000000    -0.0728261   -0.0706370     0.4484316   -0.8535338     0.0338419    0.0160393     0.0046901   -0.0014826 
 		       0.4475256   -0.8528381    -0.0744893   -0.0633888     0.0045793   -0.0015237     0.0333506    0.0167045
 		       0.0337474    0.0160587     0.0045827   -0.0015563    -0.0716720   -0.0659162     0.4364728   -0.8522227
 		       0.0047386   -0.0015401     0.0333310    0.0167069     0.4370796   -0.8529471    -0.0701226   -0.0691375
     260000000    -0.0776448   -0.0689238     0.4097747   -0.8702924     0.0354856    0.0149890     0.0046438   -0.0018599 
 		       0.4100671   -0.8707036    -0.0795834   -0.0603114     0.0046170   -0.0020484     0.0349599    0.0157388
 		       0.0354459    0.0149046     0.0045265   -0.0020789    -0.0766869   -0.0642910     0.3993761   -0.8689747
 		       0.0046809   -0.0018590     0.0349702    0.0157706     0.4001850   -0.8691639    -0.0755371   -0.0677244
     270000000    -0.0830747   -0.0676587     0.3728059   -0.8855958     0.0369773    0.0138313     0.0047155   -0.0022824 
 		       0.3731009   -0.8863879    -0.0845985   -0.0579706     0.0044078   -0.0025289     0.0365765    0.0146163
 		       0.0369025    0.0138181     0.0044393   -0.0024088    -0.0807616   -0.0617369     0.3603365   -0.8843001
 		       0.0047447   -0.0023081     0.0365378    0.0146973     0.3612639   -0.8840245    -0.0814627   -0.0660826
     280000000    -0.0891643   -0.0662756     0.3345422   -0.8999076     0.0384383    0.0126778     0.0047497   -0.0028212 
 		       0.3350791   -0.9008369    -0.0904390   -0.0559732     0.0043675   -0.0027297     0.0380347    0.0134270
 		       0.0384547    0.0125616     0.0043871   -0.0028374    -0.0844794   -0.0587150     0.3233682   -0.8971735
 		       0.0047758   -0.0028947     0.0379556    0.0134655     0.3234279   -0.8977247    -0.0876035   -0.0636001
     290000000    -0.0940795   -0.0635744     0.2947273   -0.9131516     0.0398861    0.0111779     0.0046113   -0.0033680 
 		       0.2952455   -0.9130167    -0.0948283   -0.0530838     0.0042670   -0.0032284     0.0394583    0.0121314
 		       0.0398432    0.0111955     0.0042816   -0.0032593    -0.0881184   -0.0551620     0.2841084   -0.9093768
 		       0.0045624   -0.0033853     0.0394334    0.0121384     0.2840259   -0.9087352    -0.0932799   -0.0609185
     300000000    -0.0982597   -0.0602580     0.2549707   -0.9238087     0.0410581    0.0096049     0.0043684   -0.0039148 
 		       0.2560428   -0.9233721    -0.0987290   -0.0496627     0.0041644   -0.0036437     0.0407171    0.0107187
 		       0.0410316    0.0097535     0.0040605   -0.0036901    -0.0927549   -0.0511467     0.2445237   -0.9190042
 		       0.0043203   -0.0038048     0.0406094    0.0107718     0.2453243   -0.9201829    -0.0980737   -0.0573390
     310000000    -0.1017466   -0.0565834     0.2169717   -0.9326857     0.0422479    0.0080708     0.0039946   -0.0043241 
 		       0.2161405   -0.9328563    -0.1017867   -0.0453160     0.0039569   -0.0041417     0.0419269    0.0092860
 		       0.0422230    0.0081653     0.0038512   -0.0040904    -0.0976586   -0.0472431     0.2054721   -0.9273587
 		       0.0041223   -0.0041855     0.0418710    0.0092772     0.2056565   -0.9289511    -0.1017739   -0.0531760
     320000000    -0.1058130   -0.0524961     0.1766106   -0.9394107     0.0433194    0.0064084     0.0037470   -0.0045739 
 		       0.1749894   -0.9400036    -0.1056612   -0.0407873     0.0035996   -0.0045187     0.0430676    0.0077124
 		       0.0433435    0.0064796     0.0035783   -0.0045753    -0.1027530   -0.0431437     0.1663975   -0.9347049
 		       0.0038209   -0.0046688     0.0429349    0.0077582     0.1642664   -0.9359377    -0.1054630   -0.0486498
     330000000    -0.1096636   -0.0482946     0.1351863   -0.9445503     0.0443040    0.0047491     0.0034427   -0.0049855 
 		       0.1355878   -0.9444597    -0.1096358   -0.0362677     0.0032153   -0.0049792     0.0440405    0.0060843
 		       0.0442712    0.0047365     0.0032237   -0.0049721    -0.1073410   -0.0394765     0.1252193   -0.9406577
 		       0.0035120   -0.0051158     0.0439521    0.0061032     0.1245988   -0.9391448    -0.1090134   -0.0443460
     340000000    -0.1128678   -0.0443307     0.0953604   -0.9492592     0.0451624    0.0028661     0.0032246   -0.0054220 
 		       0.0959356   -0.9500605    -0.1128943   -0.0318596     0.0028055   -0.0053489     0.0449863    0.0043188
 		       0.0451349    0.0029279     0.0028534   -0.0053286    -0.1111048   -0.0360850     0.0841589   -0.9429497
 		       0.0031160   -0.0053701     0.0448402    0.0043341     0.0852545   -0.9438319    -0.1131037   -0.0396667
     350000000    -0.1159528   -0.0405923     0.0573653   -0.9507762     0.0458953    0.0010983     0.0028837   -0.0058553 
 		       0.0563572   -0.9517152    -0.1155536   -0.0280451     0.0024831   -0.0056305     0.0457711    0.0025211
 		       0.0458700    0.0010874     0.0025630   -0.0056012    -0.1135229   -0.0321311     0.0446417   -0.9443187
 		       0.0029057   -0.0056733     0.0456716    0.0026092     0.0445795   -0.9448909    -0.1172361   -0.0340166
     360000000    -0.1184252   -0.0358249     0.0150600   -0.9516300     0.0464978   -0.0008443     0.0023361   -0.0062550 
 		       0.0141096   -0.9523686    -0.1171472   -0.0229200     0.0022077   -0.0059144     0.0463504    0.0006742
 		       0.0463540   -0.0008531     0.0021660   -0.0058970    -0.1152619   -0.0281048     0.0051296   -0.9452060
 		       0.0024258   -0.0062254     0.0463386    0.0007534     0.0047160   -0.9445542    -0.1209604   -0.0283330
     370000000    -0.1205800   -0.0302809    -0.0250922   -0.9517242     0.0469821   -0.0028382     0.0017871   -0.0064173 
 		      -0.0266637   -0.9502126    -0.1182309   -0.0174293     0.0016417   -0.0062233     0.0469809   -0.0012375
 		       0.0468821   -0.0027000     0.0016096   -0.0061959    -0.1166229   -0.0222494    -0.0351124   -0.9434595
 		       0.0018024   -0.0063882     0.0468958   -0.0011707    -0.0347202   -0.9432336    -0.1230322   -0.0233192
     380000000    -0.1213755   -0.0255110    -0.0644484   -0.9477730     0.0473202   -0.0047783     0.0013173   -0.0065549 
 		      -0.0656044   -0.9473228    -0.1188579   -0.0106000     0.0010967   -0.0063997     0.0473053   -0.0031024
 		       0.0471888   -0.0047102     0.0010480   -0.0063671    -0.1174708   -0.0155448    -0.0758064   -0.9400240
 		       0.0012658   -0.0064423     0.0472699   -0.0029263    -0.0752844   -0.9393148    -0.1247096   -0.0187231
     390000000    -0.1226958   -0.0216641    -0.1036227   -0.9443516     0.0475502   -0.0067536     0.0009359   -0.0067552 
 		      -0.1031754   -0.9428061    -0.1184027   -0.0048763     0.0004583   -0.0064361     0.0476657   -0.0050546
 		       0.0473882   -0.0067358     0.0004430   -0.0064731    -0.1183835   -0.0089362    -0.1152839   -0.9347845
 		       0.0009011   -0.0067216     0.0476247   -0.0049227    -0.1148401   -0.9341473    -0.1257599   -0.0138700
     400000000    -0.1252208   -0.0167904    -0.1431855   -0.9378324     0.0475441   -0.0087868     0.0004207   -0.0069173 
 		      -0.1439505   -0.9379739    -0.1201427    0.0006908    -0.0000032   -0.0064549     0.0477909   -0.0068971
 		       0.0475597   -0.0087863    -0.0001013   -0.0064096    -0.1192624   -0.0027395    -0.1537206   -0.9283695
 		       0.0003919   -0.0068538     0.0477114   -0.0068745    -0.1539697   -0.9280589    -0.1266670   -0.0087631
     410000000    -0.1268988   -0.0110339    -0.1828956   -0.9300801     0.0476003   -0.0107388    -0.0001939   -0.0071204 
 		      -0.1832215   -0.9313440    -0.1212423    0.0061503    -0.0005319   -0.0064993     0.0477950   -0.0089132
 		       0.0475078   -0.0107751    -0.0004431   -0.0065035    -0.1198153    0.0031392    -0.1932425   -0.9199724
 		      -0.0001330   -0.0070723     0.0477796   -0.0088579    -0.1931798   -0.9203689    -0.1282685   -0.0031136
     420000000    -0.1269410   -0.0054511    -0.2206059   -0.9209670     0.0473881   -0.0128603    -0.0008194   -0.0071093 
