! MS46524B
! 2118201/M1: 21072234/M2: 20492244
! 10/22/2024 6:44:33 PM
! C:\VNA DATA\LC3-SMK\AD5613\22VAD5613Q\LOT-805\差動\1-L3-8.S4P
! CHANNEL.1
! TR.MEASUREMENT
! CORRECTED.DATA
# GHZ S RI R 50.0
! FREQ.GHZ         S11RE        S11IM         S12RE        S12IM         S13RE        S13IM         S14RE        S14IM         
!		       S21RE        S21IM         S22RE        S22IM         S23RE        S23IM         S24RE        S24IM         
!		       S31RE        S31IM         S32RE        S32IM         S33RE        S33IM         S34RE        S34IM         
!		       S41RE        S41IM         S42RE        S42IM         S43RE        S43IM         S44RE        S44IM         
!; PortSelection: Port_1234
   0.010000000     0.0324064   -0.0066152    -0.0006092    0.0004902     0.0010167    0.0041893     0.9615411   -0.0879399 
 		      -0.0006116    0.0004888     0.0221789   -0.0070704     0.9729053   -0.0882295     0.0009907    0.0042571
 		       0.0010465    0.0041882     0.9729247   -0.0889967     0.0221730   -0.0073025    -0.0006129    0.0005680
 		       0.9623415   -0.0883467     0.0010281    0.0042528    -0.0006420    0.0005651     0.0335427   -0.0087520
   0.020000000     0.0327989   -0.0152927    -0.0004152    0.0009762     0.0022143    0.0081822     0.9474170   -0.1720542 
 		      -0.0004050    0.0009787     0.0225253   -0.0164062     0.9582564   -0.1730930     0.0022019    0.0082853
 		       0.0022138    0.0082080     0.9589016   -0.1740061     0.0218430   -0.0159511    -0.0003900    0.0010765
 		       0.9482765   -0.1723022     0.0022766    0.0083382    -0.0004002    0.0010997     0.0328611   -0.0182458
   0.030000000     0.0316670   -0.0252952    -0.0001343    0.0014040     0.0040943    0.0118626     0.9260108   -0.2535025 
 		      -0.0001323    0.0014035     0.0213304   -0.0256848     0.9366229   -0.2560802     0.0040904    0.0120232
 		       0.0041062    0.0118935     0.9372037   -0.2566981     0.0211755   -0.0263518    -0.0000395    0.0015697
 		       0.9262536   -0.2531462     0.0041973    0.0120915    -0.0000509    0.0015930     0.0297278   -0.0303262
   0.040000000     0.0287782   -0.0345643     0.0002451    0.0018349     0.0065757    0.0151467     0.8973665   -0.3316772 
 		       0.0002498    0.0018266     0.0179430   -0.0355960     0.9083158   -0.3346664     0.0065842    0.0153262
 		       0.0065907    0.0151774     0.9085280   -0.3354024     0.0177447   -0.0371781     0.0004147    0.0020131
 		       0.8982968   -0.3320289     0.0067304    0.0154116     0.0004216    0.0020181     0.0251433   -0.0415536
   0.050000000     0.0243797   -0.0441051     0.0008246    0.0021731     0.0095464    0.0179234     0.8623469   -0.4065349 
 		       0.0008385    0.0021684     0.0136383   -0.0456280     0.8730000   -0.4110566     0.0096210    0.0181462
 		       0.0095631    0.0179541     0.8736895   -0.4109885     0.0135167   -0.0472380     0.0010712    0.0023537
 		       0.8637234   -0.4067582     0.0098211    0.0182423     0.0010842    0.0023599     0.0199200   -0.0530934
   0.060000000     0.0182121   -0.0536217     0.0015919    0.0023535     0.0129621    0.0201671     0.8221571   -0.4778734 
 		       0.0015798    0.0023446     0.0069852   -0.0548598     0.8325095   -0.4828316     0.0130563    0.0204150
 		       0.0129819    0.0201646     0.8323556   -0.4830271     0.0069023   -0.0562979     0.0018230    0.0024816
 		       0.8228784   -0.4780701     0.0132964    0.0204695     0.0018642    0.0025147     0.0127348   -0.0639401
   0.070000000     0.0101108   -0.0610276     0.0023617    0.0022120     0.0167255    0.0217641     0.7756664   -0.5449345 
 		       0.0023764    0.0022628    -0.0018622   -0.0628146     0.7853896   -0.5503827     0.0169904    0.0220617
 		       0.0166750    0.0218034     0.7857467   -0.5506889    -0.0011623   -0.0637758     0.0026632    0.0023766
 		       0.7764516   -0.5453405     0.0171036    0.0219151     0.0027065    0.0023724     0.0033513   -0.0732324
   0.080000000     0.0012186   -0.0667507     0.0030585    0.0019837     0.0205545    0.0228889     0.7241893   -0.6070760 
 		       0.0030471    0.0019837    -0.0112568   -0.0691291     0.7335214   -0.6132137     0.0207640    0.0234958
 		       0.0207358    0.0228899     0.7332626   -0.6141967    -0.0110895   -0.0692920     0.0034769    0.0021299
 		       0.7248713   -0.6074744     0.0209328    0.0232153     0.0034861    0.0021233    -0.0067864   -0.0799133
   0.090000000    -0.0088118   -0.0713777     0.0037138    0.0014988     0.0247435    0.0231432     0.6681262   -0.6639926 
 		       0.0037204    0.0015171    -0.0205261   -0.0738362     0.6770511   -0.6713457     0.0251559    0.0233615
 		       0.0247884    0.0231618     0.6768861   -0.6716997    -0.0199475   -0.0739041     0.0041884    0.0015855
 		       0.6690218   -0.6646509     0.0252072    0.0232095     0.0042360    0.0016250    -0.0192449   -0.0841065
   0.100000000    -0.0184172   -0.0745622     0.0043360    0.0009424     0.0286443    0.0229834     0.6074734   -0.7155098 
 		       0.0042334    0.0010381    -0.0314714   -0.0772554     0.6162633   -0.7237703     0.0292157    0.0236010
 		       0.0288119    0.0228578     0.6156722   -0.7246312    -0.0314825   -0.0777284     0.0048638    0.0008845
 		       0.6081485   -0.7160895     0.0292144    0.0233464     0.0049252    0.0009423    -0.0312948   -0.0878363
   0.110000000    -0.0293133   -0.0768805     0.0049045    0.0001862     0.0326719    0.0218373     0.5437596   -0.7615668 
 		       0.0048625    0.0002389    -0.0421122   -0.0790829     0.5503415   -0.7707025     0.0332062    0.0220408
 		       0.0327897    0.0218792     0.5508323   -0.7710145    -0.0422193   -0.0790505     0.0053932    0.0000297
 		       0.5434408   -0.7626551     0.0332726    0.0217934     0.0054897   -0.0000027    -0.0438954   -0.0880308
   0.120000000    -0.0406495   -0.0771540     0.0052766   -0.0007942     0.0364748    0.0202922     0.4762513   -0.8022894 
 		       0.0052638   -0.0007453    -0.0543223   -0.0790294     0.4829189   -0.8113679     0.0369574    0.0204039
 		       0.0365167    0.0202521     0.4826069   -0.8124578    -0.0543501   -0.0798005     0.0057131   -0.0010088
 		       0.4755357   -0.8030263     0.0370481    0.0201907     0.0057877   -0.0010771    -0.0568284   -0.0871229
   0.130000000    -0.0524726   -0.0750719     0.0053299   -0.0018953     0.0398908    0.0181736     0.4055892   -0.8361402 
 		       0.0053690   -0.0018592    -0.0666462   -0.0766480     0.4112813   -0.8466607     0.0405174    0.0181921
 		       0.0400337    0.0181540     0.4109494   -0.8471751    -0.0663928   -0.0776279     0.0058188   -0.0021303
 		       0.4057536   -0.8377774     0.0405573    0.0179356     0.0058358   -0.0021875    -0.0696586   -0.0853371
   0.140000000    -0.0619193   -0.0714138     0.0051232   -0.0029334     0.0428834    0.0155689     0.3329770   -0.8649396 
 		       0.0051480   -0.0029511    -0.0771044   -0.0725348     0.3379801   -0.8748969     0.0436039    0.0154946
 		       0.0430284    0.0154702     0.3380273   -0.8760393    -0.0760947   -0.0737319     0.0056234   -0.0032631
 		       0.3325656   -0.8655245     0.0437020    0.0152802     0.0056379   -0.0032905    -0.0820253   -0.0811683
   0.150000000    -0.0716258   -0.0665641     0.0047594   -0.0038461     0.0455716    0.0126211     0.2591812   -0.8866283 
 		       0.0047429   -0.0038801    -0.0859810   -0.0669600     0.2634028   -0.8971584     0.0462267    0.0125539
 		       0.0457112    0.0125974     0.2632940   -0.8981709    -0.0855360   -0.0696140     0.0052845   -0.0043113
 		       0.2586764   -0.8867682     0.0461935    0.0123542     0.0053341   -0.0042980    -0.0942625   -0.0745180
   0.160000000    -0.0796598   -0.0610618     0.0041711   -0.0046661     0.0477992    0.0091828     0.1842526   -0.9029719 
 		       0.0041740   -0.0046837    -0.0937233   -0.0606677     0.1875394   -0.9138435     0.0485079    0.0089925
 		       0.0479953    0.0091664     0.1867881   -0.9141473    -0.0934498   -0.0636142     0.0046273   -0.0052790
 		       0.1843190   -0.9037508     0.0485013    0.0086793     0.0047218   -0.0053175    -0.1031795   -0.0656458
   0.170000000    -0.0863139   -0.0539670     0.0035919   -0.0054312     0.0493828    0.0055262     0.1081128   -0.9117096 
 		       0.0035438   -0.0053856    -0.1003763   -0.0537020     0.1106907   -0.9237583     0.0501324    0.0052672
 		       0.0495752    0.0054652     0.1098840   -0.9234626    -0.1013949   -0.0558966     0.0038962   -0.0061533
 		       0.1077611   -0.9126818     0.0501013    0.0049468     0.0039700   -0.0062308    -0.1108770   -0.0576727
   0.180000000    -0.0928925   -0.0458746     0.0028029   -0.0061682     0.0506244    0.0017326     0.0326724   -0.9148465 
 		       0.0028138   -0.0061514    -0.1070186   -0.0450329     0.0339581   -0.9273146     0.0511642    0.0014060
 		       0.0506408    0.0016458     0.0332580   -0.9267312    -0.1080117   -0.0482407     0.0029556   -0.0068967
 		       0.0321409   -0.9160289     0.0510844    0.0011355     0.0029489   -0.0070595    -0.1169436   -0.0470896
   0.190000000    -0.0977998   -0.0364558     0.0017755   -0.0068202     0.0512383   -0.0022583    -0.0428619   -0.9124396 
 		       0.0018092   -0.0067459    -0.1120966   -0.0350689    -0.0423124   -0.9245310     0.0517903   -0.0026249
 		       0.0512325   -0.0022546    -0.0432643   -0.9241080    -0.1129178   -0.0383709     0.0017832   -0.0074793
 		      -0.0432908   -0.9128869     0.0517296   -0.0028936     0.0017753   -0.0076318    -0.1213014   -0.0361958
   0.200000000    -0.1005895   -0.0268095     0.0005933   -0.0071069     0.0512812   -0.0060508    -0.1175523   -0.9042763 
 		       0.0007822   -0.0072355    -0.1145248   -0.0243912    -0.1183685   -0.9154119     0.0519881   -0.0058313
 		       0.0513060   -0.0061204    -0.1183932   -0.9164724    -0.1163386   -0.0280540     0.0005608   -0.0076384
 		      -0.1172823   -0.9038923     0.0517959   -0.0064824     0.0005929   -0.0079284    -0.1234821   -0.0247845
   0.210000000    -0.1006147   -0.0174976    -0.0006776   -0.0071794     0.0505361   -0.0100728    -0.1907020   -0.8887400 
 		      -0.0006253   -0.0072270    -0.1143774   -0.0135892    -0.1921548   -0.9004527     0.0510739   -0.0106369
 		       0.0505971   -0.0101804    -0.1942303   -0.9003958    -0.1169646   -0.0184083    -0.0007351   -0.0078738
 		      -0.1907549   -0.8893536     0.0509839   -0.0108485    -0.0007805   -0.0078807    -0.1239590   -0.0140337
   0.220000000    -0.1005119   -0.0082041    -0.0018125   -0.0069419     0.0495019   -0.0137300    -0.2622271   -0.8680466 
 		      -0.0018216   -0.0069843    -0.1130798   -0.0032758    -0.2645926   -0.8796201     0.0500022   -0.0143399
 		       0.0495336   -0.0138433    -0.2671707   -0.8797634    -0.1163547   -0.0090971    -0.0019692   -0.0076532
 		      -0.2623783   -0.8691365     0.0498357   -0.0146186    -0.0019958   -0.0076817    -0.1243192   -0.0009560
   0.230000000    -0.0994755    0.0000157    -0.0027753   -0.0065364     0.0478092   -0.0172785    -0.3317767   -0.8420873 
 		      -0.0028094   -0.0065508    -0.1109951    0.0056616    -0.3358025   -0.8534551     0.0483610   -0.0180555
 		       0.0479962   -0.0174508    -0.3386109   -0.8531477    -0.1142902   -0.0001606    -0.0031287   -0.0072623
 		      -0.3315625   -0.8438471     0.0481491   -0.0182688    -0.0030939   -0.0073299    -0.1201526    0.0104976
   0.240000000    -0.0974223    0.0090140    -0.0036712   -0.0060827     0.0458457   -0.0205242    -0.3996789   -0.8108300 
 		      -0.0036561   -0.0060451    -0.1082648    0.0139126    -0.4038067   -0.8215860     0.0461771   -0.0213229
 		       0.0458913   -0.0207114    -0.4063247   -0.8203397    -0.1120248    0.0088078    -0.0041539   -0.0067015
 		      -0.3994948   -0.8122161     0.0459602   -0.0215428    -0.0041767   -0.0068234    -0.1147082    0.0210635
   0.250000000    -0.0938258    0.0177084    -0.0045517   -0.0055609     0.0433446   -0.0234160    -0.4637499   -0.7748436 
 		      -0.0045096   -0.0055229    -0.1045200    0.0230177    -0.4684877   -0.7847785     0.0437400   -0.0241318
 		       0.0434224   -0.0236210    -0.4715932   -0.7834740    -0.1087556    0.0179190    -0.0050788   -0.0060273
 		      -0.4632634   -0.7753118     0.0433983   -0.0243971    -0.0051544   -0.0061405    -0.1084256    0.0301163
   0.260000000    -0.0882964    0.0252970    -0.0054271   -0.0047797     0.0406360   -0.0260290    -0.5249231   -0.7329410 
 		      -0.0053502   -0.0047699    -0.0975550    0.0317493    -0.5309317   -0.7427505     0.0408251   -0.0266946
 		       0.0406750   -0.0261127    -0.5332366   -0.7410515    -0.1037077    0.0258880    -0.0059457   -0.0051487
 		      -0.5247113   -0.7336517     0.0406117   -0.0269664    -0.0060177   -0.0051649    -0.1011628    0.0387854
   0.270000000    -0.0817543    0.0315352    -0.0061040   -0.0037830     0.0374125   -0.0280443    -0.5823838   -0.6866378 
 		      -0.0060286   -0.0038322    -0.0894329    0.0387498    -0.5891909   -0.6951345     0.0376519   -0.0287909
 		       0.0374141   -0.0281934    -0.5919518   -0.6943847    -0.0976853    0.0324334    -0.0065827   -0.0041013
 		      -0.5827937   -0.6869378     0.0373036   -0.0290453    -0.0066993   -0.0040984    -0.0936019    0.0458869
   0.280000000    -0.0740700    0.0356902    -0.0064282   -0.0026734     0.0341187   -0.0296148    -0.6358292   -0.6356221 
 		      -0.0064272   -0.0027378    -0.0806996    0.0433014    -0.6430285   -0.6442245     0.0341667   -0.0303744
 		       0.0340785   -0.0297681    -0.6446658   -0.6426339    -0.0888031    0.0365562    -0.0069967   -0.0029774
 		      -0.6360000   -0.6359802     0.0339517   -0.0305679    -0.0070396   -0.0029337    -0.0842623    0.0508455
   0.290000000    -0.0672029    0.0383863    -0.0065487   -0.0016259     0.0305381   -0.0307462    -0.6854208   -0.5809109 
 		      -0.0065382   -0.0016593    -0.0711555    0.0456822    -0.6933926   -0.5885018     0.0305706   -0.0314654
 		       0.0305371   -0.0307935    -0.6951725   -0.5874363    -0.0822059    0.0391786    -0.0071366   -0.0018644
 		      -0.6854845   -0.5813392     0.0303889   -0.0316491    -0.0071680   -0.0018735    -0.0736688    0.0554231
   0.300000000    -0.0606372    0.0402306    -0.0065754   -0.0006877     0.0268472   -0.0312620    -0.7300277   -0.5219967 
 		      -0.0065733   -0.0006924    -0.0608832    0.0465314    -0.7372161   -0.5290751     0.0277028   -0.0325632
 		       0.0268489   -0.0314106    -0.7403244   -0.5268397    -0.0746805    0.0401050    -0.0071176   -0.0008432
 		      -0.7289256   -0.5233127     0.0276487   -0.0325074    -0.0071940   -0.0008954    -0.0628208    0.0551438
   0.310000000    -0.0532883    0.0416357    -0.0063229    0.0001339     0.0233471   -0.0311989    -0.7697690   -0.4599795 
 		      -0.0063042    0.0001378    -0.0540587    0.0473922    -0.7787276   -0.4659958     0.0233091   -0.0319125
 		       0.0232903   -0.0313289    -0.7802237   -0.4644139    -0.0664781    0.0418712    -0.0068997    0.0001540
 		      -0.7703878   -0.4601488     0.0230526   -0.0320504    -0.0069808    0.0001377    -0.0524976    0.0560021
   0.320000000    -0.0459007    0.0411826    -0.0061030    0.0009116     0.0197992   -0.0307106    -0.8046495   -0.3950726 
 		      -0.0060281    0.0008853    -0.0444549    0.0472293    -0.8139592   -0.4002083     0.0197192   -0.0314127
 		       0.0197288   -0.0308164    -0.8149226   -0.3977621    -0.0589114    0.0416257    -0.0065695    0.0009970
 		      -0.8054790   -0.3942599     0.0194312   -0.0314913    -0.0066550    0.0010306    -0.0412414    0.0535176
   0.330000000    -0.0376493    0.0393169    -0.0057256    0.0017144     0.0163826   -0.0297376    -0.8340526   -0.3266640 
 		      -0.0056870    0.0016496    -0.0344617    0.0446602    -0.8433884   -0.3319636     0.0161935   -0.0303359
 		       0.0163264   -0.0297599    -0.8441232   -0.3292238    -0.0501562    0.0404746    -0.0061401    0.0018180
 		      -0.8342996   -0.3265487     0.0159428   -0.0303830    -0.0061879    0.0018768    -0.0311011    0.0492864
   0.340000000    -0.0307158    0.0355818    -0.0051098    0.0023949     0.0132524   -0.0281125    -0.8569399   -0.2564442 
 		      -0.0051216    0.0023162    -0.0252896    0.0394659    -0.8669800   -0.2607255     0.0130427   -0.0287222
 		       0.0131922   -0.0282414    -0.8672951   -0.2583285    -0.0428536    0.0361849    -0.0054867    0.0024836
 		      -0.8585946   -0.2561353     0.0128051   -0.0287580    -0.0054983    0.0025540    -0.0224504    0.0455153
   0.350000000    -0.0246849    0.0309774    -0.0044535    0.0028834     0.0104036   -0.0261341    -0.8747461   -0.1842751 
 		      -0.0044826    0.0028047    -0.0175160    0.0335196    -0.8850610   -0.1879514     0.0102094   -0.0266514
 		       0.0104160   -0.0261801    -0.8854312   -0.1858883    -0.0370009    0.0316823    -0.0048368    0.0029596
 		      -0.8752713   -0.1841271     0.0099404   -0.0266198    -0.0048199    0.0030280    -0.0125670    0.0404512
   0.360000000    -0.0200416    0.0259758    -0.0037745    0.0031598     0.0079517   -0.0237274    -0.8867728   -0.1118041 
 		      -0.0038198    0.0031484    -0.0107512    0.0257868    -0.8968551   -0.1142226     0.0077171   -0.0241831
 		       0.0079331   -0.0237557    -0.8969626   -0.1116929    -0.0332698    0.0258647    -0.0041237    0.0033140
 		      -0.8868695   -0.1115337     0.0074869   -0.0241587    -0.0041372    0.0033069    -0.0032752    0.0330701
   0.370000000    -0.0167178    0.0206191    -0.0031584    0.0032351     0.0059191   -0.0209191    -0.8919600   -0.0377808 
 		      -0.0031547    0.0032671    -0.0061466    0.0181616    -0.9020885   -0.0394328     0.0056243   -0.0213510
 		       0.0059012   -0.0209839    -0.9023140   -0.0373859    -0.0308544    0.0200312    -0.0034622    0.0034469
 		      -0.8932066   -0.0378016     0.0054917   -0.0213639    -0.0035019    0.0034518     0.0040381    0.0237307
   0.380000000    -0.0142809    0.0150655    -0.0026500    0.0033132     0.0044145   -0.0179959    -0.8915121    0.0359300 
 		      -0.0026389    0.0033020    -0.0009549    0.0106336    -0.9016126    0.0352231     0.0041063   -0.0183335
 		       0.0043816   -0.0179139    -0.9018778    0.0372098    -0.0277563    0.0143216    -0.0028695    0.0034867
 		      -0.8916353    0.0364914     0.0040159   -0.0182714    -0.0029032    0.0035178     0.0078611    0.0131075
   0.390000000    -0.0124635    0.0087254    -0.0021819    0.0032462     0.0033959   -0.0147361    -0.8850194    0.1097471 
 		      -0.0021781    0.0032304     0.0024779    0.0018245    -0.8948145    0.1097259     0.0031236   -0.0150215
 		       0.0033737   -0.0147766    -0.8947246    0.1119533    -0.0257427    0.0077869    -0.0024084    0.0034124
 		      -0.8849111    0.1101996     0.0030768   -0.0150078    -0.0024051    0.0034463     0.0103469    0.0026798
   0.400000000    -0.0120123    0.0016799    -0.0017787    0.0031429     0.0029543   -0.0114268    -0.8716280    0.1830009 
 		      -0.0018209    0.0030763     0.0048240   -0.0080267    -0.8818732    0.1833443     0.0026212   -0.0117283
 		       0.0028713   -0.0115206    -0.8811433    0.1858880    -0.0249165    0.0008257    -0.0019834    0.0032323
 		      -0.8718305    0.1836488     0.0027708   -0.0116261    -0.0019692    0.0033437     0.0102266   -0.0073641
   0.410000000    -0.0133142   -0.0056429    -0.0014638    0.0029172     0.0031206   -0.0081536    -0.8526372    0.2543118 
 		      -0.0014902    0.0029404     0.0052803   -0.0178732    -0.8619486    0.2554773     0.0029442   -0.0082607
 		       0.0030894   -0.0082051    -0.8618695    0.2575155    -0.0260502   -0.0074886    -0.0016504    0.0030418
 		      -0.8531364    0.2551198     0.0028904   -0.0083622    -0.0016240    0.0030874     0.0091509   -0.0174649
   0.420000000    -0.0166092   -0.0124940    -0.0012677    0.0027122     0.0037453   -0.0049178    -0.8270999    0.3240753 
