! MS46524B
! 2118201/M1: 21072234/M2: 20492244
! 10/22/2024 6:47:33 PM
! C:\VNA DATA\LC3-SMK\AD5613\22VAD5613Q\LOT-805\差動\1-L4-8.S4P
! CHANNEL.1
! TR.MEASUREMENT
! CORRECTED.DATA
# GHZ S RI R 50.0
! FREQ.GHZ         S11RE        S11IM         S12RE        S12IM         S13RE        S13IM         S14RE        S14IM         
!		       S21RE        S21IM         S22RE        S22IM         S23RE        S23IM         S24RE        S24IM         
!		       S31RE        S31IM         S32RE        S32IM         S33RE        S33IM         S34RE        S34IM         
!		       S41RE        S41IM         S42RE        S42IM         S43RE        S43IM         S44RE        S44IM         
!; PortSelection: Port_1234
   0.010000000     0.0121894   -0.0005919    -0.0003101    0.0005359     0.0010673    0.0089154     0.9836941   -0.0852445 
 		      -0.0003335    0.0005310     0.0125927   -0.0004788     0.9835341   -0.0852914     0.0009297    0.0089273
 		       0.0011080    0.0089031     0.9831328   -0.0867071     0.0123742   -0.0008908    -0.0003376    0.0005657
 		       0.9834595   -0.0862081     0.0010988    0.0089476    -0.0003313    0.0005428     0.0126639   -0.0005917
   0.020000000     0.0133581   -0.0031626    -0.0000643    0.0010283     0.0033310    0.0174925     0.9707974   -0.1677246 
 		      -0.0001003    0.0010584     0.0141786   -0.0035239     0.9702076   -0.1671726     0.0032714    0.0174814
 		       0.0033326    0.0174937     0.9705130   -0.1686391     0.0131888   -0.0030647    -0.0000997    0.0010616
 		       0.9707994   -0.1681722     0.0034206    0.0175812    -0.0001050    0.0010795     0.0133626   -0.0017674
   0.030000000     0.0137419   -0.0063290     0.0002043    0.0014635     0.0069876    0.0256409     0.9515303   -0.2476779 
 		       0.0001765    0.0014680     0.0144344   -0.0059484     0.9515796   -0.2482633     0.0069067    0.0255695
 		       0.0070439    0.0256403     0.9512414   -0.2494273     0.0140195   -0.0062806     0.0001912    0.0015262
 		       0.9514349   -0.2485498     0.0071463    0.0257469     0.0001902    0.0015076     0.0131509   -0.0054578
   0.040000000     0.0136798   -0.0093033     0.0005208    0.0018910     0.0119520    0.0330911     0.9255444   -0.3256823 
 		       0.0005005    0.0019034     0.0142768   -0.0094192     0.9259478   -0.3257647     0.0118556    0.0329304
 		       0.0119895    0.0330619     0.9254740   -0.3268146     0.0137360   -0.0106953     0.0005590    0.0019136
 		       0.9260228   -0.3265918     0.0121521    0.0331718     0.0005656    0.0019212     0.0120253   -0.0092095
   0.050000000     0.0131343   -0.0121886     0.0010759    0.0023445     0.0181625    0.0397793     0.8934134   -0.4009392 
 		       0.0010397    0.0023506     0.0140498   -0.0128997     0.8937840   -0.4014208     0.0182321    0.0396867
 		       0.0181852    0.0396800     0.8934946   -0.4021783     0.0131531   -0.0139529     0.0011315    0.0023154
 		       0.8940828   -0.4020234     0.0185340    0.0394563     0.0011653    0.0023519     0.0129960   -0.0125211
   0.060000000     0.0120386   -0.0162916     0.0017897    0.0026084     0.0253367    0.0452160     0.8559346   -0.4733474 
 		       0.0017768    0.0025987     0.0127101   -0.0163825     0.8557590   -0.4732257     0.0254226    0.0450547
 		       0.0254290    0.0450648     0.8558564   -0.4741133     0.0119556   -0.0175083     0.0017534    0.0025458
 		       0.8559138   -0.4736858     0.0257160    0.0448874     0.0017870    0.0025337     0.0122422   -0.0163217
   0.070000000     0.0097395   -0.0190970     0.0025257    0.0025893     0.0332450    0.0495307     0.8124334   -0.5417740 
 		       0.0025449    0.0026127     0.0107129   -0.0204735     0.8122634   -0.5416192     0.0333775    0.0492756
 		       0.0332848    0.0494320     0.8121119   -0.5421526     0.0096190   -0.0199462     0.0024638    0.0025907
 		       0.8123280   -0.5423484     0.0337074    0.0490362     0.0024991    0.0025557     0.0112389   -0.0203790
   0.080000000     0.0073531   -0.0211717     0.0031558    0.0024911     0.0417142    0.0526509     0.7633398   -0.6059824 
 		       0.0031482    0.0024299     0.0080699   -0.0226495     0.7630116   -0.6062223     0.0413513    0.0529136
 		       0.0418365    0.0524810     0.7630261   -0.6065539     0.0061309   -0.0208203     0.0031571    0.0025873
 		       0.7634739   -0.6062766     0.0418904    0.0524762     0.0031210    0.0025313     0.0091537   -0.0235138
   0.090000000     0.0043021   -0.0227105     0.0037856    0.0021962     0.0507738    0.0540967     0.7095975   -0.6657473 
 		       0.0037766    0.0021608     0.0064507   -0.0253163     0.7094316   -0.6653910     0.0510693    0.0536764
 		       0.0509605    0.0539956     0.7086694   -0.6666771     0.0051989   -0.0230403     0.0037680    0.0022749
 		       0.7100669   -0.6659281     0.0513182    0.0533409     0.0037844    0.0023474     0.0062703   -0.0247456
   0.100000000     0.0024272   -0.0237254     0.0044409    0.0019276     0.0599000    0.0544841     0.6507043   -0.7204505 
 		       0.0042309    0.0020376     0.0034405   -0.0273981     0.6508766   -0.7208111     0.0597226    0.0547409
 		       0.0600999    0.0542277     0.6502028   -0.7216784     0.0016528   -0.0249529     0.0045189    0.0018726
 		       0.6512816   -0.7210601     0.0599839    0.0538838     0.0045248    0.0020362     0.0042359   -0.0268701
   0.110000000    -0.0005904   -0.0255679     0.0052034    0.0014392     0.0690703    0.0531341     0.5888638   -0.7700936 
 		       0.0051190    0.0015233     0.0009423   -0.0290148     0.5883856   -0.7697734     0.0693774    0.0524997
 		       0.0691885    0.0529323     0.5882905   -0.7703632    -0.0008823   -0.0260200     0.0051431    0.0013720
 		       0.5884042   -0.7710684     0.0695369    0.0520776     0.0052723    0.0013459     0.0012596   -0.0271772
   0.120000000    -0.0037878   -0.0265169     0.0058772    0.0006653     0.0780126    0.0504712     0.5234348   -0.8147296 
 		       0.0058444    0.0007513    -0.0026613   -0.0307419     0.5228204   -0.8143388     0.0782748    0.0499217
 		       0.0781438    0.0502176     0.5220039   -0.8150742    -0.0052437   -0.0270897     0.0056941    0.0006790
 		       0.5218755   -0.8153830     0.0784764    0.0493976     0.0057421    0.0005463    -0.0009414   -0.0282328
   0.130000000    -0.0081558   -0.0265670     0.0062241   -0.0004129     0.0865433    0.0464057     0.4535036   -0.8531148 
 		       0.0063190   -0.0003539    -0.0067194   -0.0309911     0.4528550   -0.8531665     0.0867406    0.0456762
 		       0.0866436    0.0462273     0.4524946   -0.8537306    -0.0091848   -0.0266907     0.0061278   -0.0002320
 		       0.4526397   -0.8539968     0.0869604    0.0452049     0.0060891   -0.0003024    -0.0047726   -0.0305744
   0.140000000    -0.0109715   -0.0258254     0.0062072   -0.0013308     0.0941816    0.0412984     0.3812645   -0.8861418 
 		       0.0062866   -0.0014250    -0.0097639   -0.0309805     0.3808165   -0.8853525     0.0944772    0.0403952
 		       0.0942515    0.0410122     0.3805255   -0.8860943    -0.0113579   -0.0258680     0.0062641   -0.0011244
 		       0.3800171   -0.8865104     0.0946262    0.0398050     0.0061559   -0.0011110    -0.0091756   -0.0314350
   0.150000000    -0.0138707   -0.0248223     0.0060552   -0.0021038     0.1011205    0.0349832     0.3070596   -0.9126567 
 		       0.0062083   -0.0022069    -0.0126220   -0.0308850     0.3072783   -0.9121091     0.1014557    0.0339255
 		       0.1012688    0.0347359     0.3065138   -0.9128194    -0.0134488   -0.0254617     0.0063188   -0.0019552
 		       0.3057284   -0.9125550     0.1013837    0.0332840     0.0064953   -0.0020571    -0.0128812   -0.0322700
   0.160000000    -0.0152079   -0.0234555     0.0060636   -0.0027026     0.1072372    0.0277965     0.2315535   -0.9334745 
 		       0.0061449   -0.0027521    -0.0147069   -0.0299580     0.2318368   -0.9326039     0.1074630    0.0266700
 		       0.1073113    0.0275099     0.2302514   -0.9334671    -0.0153130   -0.0248049     0.0063675   -0.0027545
 		       0.2307399   -0.9335626     0.1074641    0.0260990     0.0063700   -0.0027939    -0.0154453   -0.0298882
   0.170000000    -0.0167289   -0.0224004     0.0060563   -0.0034741     0.1121421    0.0196320     0.1542674   -0.9473416 
 		       0.0060016   -0.0036424    -0.0161743   -0.0292246     0.1546982   -0.9468032     0.1123095    0.0184782
 		       0.1123594    0.0194496     0.1532181   -0.9471060    -0.0174261   -0.0233399     0.0060328   -0.0036601
 		       0.1533696   -0.9477178     0.1123486    0.0178093     0.0060421   -0.0036651    -0.0164366   -0.0287873
   0.180000000    -0.0182443   -0.0206359     0.0056941   -0.0045077     0.1158919    0.0109431     0.0767563   -0.9552044 
 		       0.0055723   -0.0045085    -0.0181424   -0.0279044     0.0770415   -0.9551870     0.1158361    0.0096556
 		       0.1158388    0.0106528     0.0759318   -0.9548458    -0.0195092   -0.0216721     0.0056516   -0.0045672
 		       0.0760728   -0.9556481     0.1158611    0.0090242     0.0054638   -0.0045437    -0.0178325   -0.0280169
   0.190000000    -0.0194495   -0.0179543     0.0050558   -0.0054326     0.1182768    0.0017537    -0.0008415   -0.9574479 
 		       0.0049220   -0.0053622    -0.0201764   -0.0257868    -0.0003329   -0.9569474     0.1182369    0.0003652
 		       0.1182673    0.0015103    -0.0018749   -0.9568105    -0.0208245   -0.0189318     0.0049622   -0.0052706
 		      -0.0021113   -0.9574121     0.1180942   -0.0001806     0.0048803   -0.0052541    -0.0191169   -0.0271695
   0.200000000    -0.0201685   -0.0155666     0.0040957   -0.0058738     0.1196224   -0.0072254    -0.0782948   -0.9535592 
 		       0.0043204   -0.0061853    -0.0213183   -0.0241094    -0.0790952   -0.9526179     0.1195517   -0.0073420
 		       0.1196152   -0.0076550    -0.0797189   -0.9532772    -0.0215047   -0.0157695     0.0042221   -0.0054561
 		      -0.0784165   -0.9529425     0.1194144   -0.0086418     0.0043278   -0.0057629    -0.0197631   -0.0258624
   0.210000000    -0.0190043   -0.0131435     0.0032565   -0.0062468     0.1192016   -0.0171956    -0.1549752   -0.9426013 
 		       0.0032605   -0.0061371    -0.0212326   -0.0214989    -0.1558359   -0.9412870     0.1188224   -0.0186887
 		       0.1191490   -0.0173794    -0.1570670   -0.9418121    -0.0205809   -0.0136544     0.0035007   -0.0061153
 		      -0.1558910   -0.9421467     0.1187464   -0.0194244     0.0036308   -0.0060790    -0.0213774   -0.0247724
   0.220000000    -0.0184111   -0.0113649     0.0025071   -0.0062691     0.1176183   -0.0264831    -0.2307146   -0.9256733 
 		       0.0026055   -0.0062687    -0.0211205   -0.0194330    -0.2304669   -0.9249136     0.1170314   -0.0280302
 		       0.1175444   -0.0266212    -0.2335354   -0.9252610    -0.0190037   -0.0116761     0.0028018   -0.0063841
 		      -0.2307717   -0.9253509     0.1168396   -0.0287345     0.0028628   -0.0063703    -0.0225877   -0.0221808
   0.230000000    -0.0173470   -0.0100094     0.0021138   -0.0063596     0.1147305   -0.0353507    -0.3042197   -0.9032396 
 		       0.0021320   -0.0064426    -0.0208476   -0.0185935    -0.3047808   -0.9023104     0.1141469   -0.0370677
 		       0.1147500   -0.0356896    -0.3078104   -0.9018915    -0.0178205   -0.0105600     0.0022264   -0.0066294
 		      -0.3043797   -0.9037939     0.1138925   -0.0378547     0.0022008   -0.0066025    -0.0216554   -0.0198944
   0.240000000    -0.0163937   -0.0085123     0.0016064   -0.0066310     0.1107458   -0.0438605    -0.3767810   -0.8748177 
 		       0.0015836   -0.0067166    -0.0208461   -0.0179844    -0.3761204   -0.8740844     0.1099430   -0.0455562
 		       0.1106288   -0.0441896    -0.3795012   -0.8731518    -0.0168452   -0.0092150     0.0015338   -0.0067953
 		      -0.3764933   -0.8751524     0.1094848   -0.0462533     0.0014806   -0.0068924    -0.0201233   -0.0181480
   0.250000000    -0.0149106   -0.0064931     0.0008215   -0.0069398     0.1054361   -0.0516568    -0.4459326   -0.8412034 
 		       0.0006452   -0.0069304    -0.0211366   -0.0161360    -0.4450366   -0.8404028     0.1045608   -0.0533497
 		       0.1054626   -0.0519184    -0.4482149   -0.8394471    -0.0167036   -0.0068922     0.0008156   -0.0069554
 		      -0.4458298   -0.8409336     0.1040331   -0.0540065     0.0008378   -0.0069442    -0.0188459   -0.0173516
   0.260000000    -0.0125945   -0.0054738    -0.0000684   -0.0068302     0.0992746   -0.0585858    -0.5121688   -0.8019177 
 		      -0.0001080   -0.0067514    -0.0199185   -0.0145895    -0.5121478   -0.8013321     0.0981780   -0.0602273
 		       0.0991524   -0.0589138    -0.5145760   -0.7998618    -0.0149303   -0.0050546     0.0000824   -0.0067293
 		      -0.5124910   -0.8014957     0.0977288   -0.0607786     0.0000123   -0.0066838    -0.0179357   -0.0166398
   0.270000000    -0.0101266   -0.0048019    -0.0008445   -0.0065524     0.0921069   -0.0645401    -0.5749887   -0.7571434 
 		      -0.0008316   -0.0064162    -0.0185059   -0.0127713    -0.5748479   -0.7560987     0.0909291   -0.0661252
 		       0.0919768   -0.0648031    -0.5775127   -0.7551882    -0.0126946   -0.0040979    -0.0006008   -0.0064737
 		      -0.5755181   -0.7568300     0.0904622   -0.0666738    -0.0005539   -0.0064907    -0.0187000   -0.0159134
   0.280000000    -0.0073146   -0.0051108    -0.0012620   -0.0058723     0.0843513   -0.0692981    -0.6342615   -0.7073192 
 		      -0.0012363   -0.0058819    -0.0161355   -0.0127063    -0.6335154   -0.7064356     0.0829852   -0.0707109
 		       0.0841765   -0.0695544    -0.6357076   -0.7052311    -0.0086245   -0.0050813    -0.0010595   -0.0061325
 		      -0.6347607   -0.7070780     0.0824547   -0.0712225    -0.0009759   -0.0060996    -0.0181939   -0.0151199
   0.290000000    -0.0052529   -0.0064805    -0.0014231   -0.0055972     0.0759867   -0.0729448    -0.6894194   -0.6538705 
 		      -0.0014153   -0.0056555    -0.0149455   -0.0140182    -0.6892644   -0.6529309     0.0745478   -0.0742758
 		       0.0758484   -0.0731644    -0.6906217   -0.6517553    -0.0073162   -0.0071727    -0.0013002   -0.0058639
 		      -0.6891226   -0.6528142     0.0740392   -0.0746762    -0.0013687   -0.0059160    -0.0168919   -0.0139994
   0.300000000    -0.0034308   -0.0075968    -0.0015157   -0.0053516     0.0671999   -0.0751548    -0.7399079   -0.5955068 
 		      -0.0023302   -0.0063582    -0.0132251   -0.0164546    -0.7384351   -0.5950590     0.0656569   -0.0755296
 		       0.0671113   -0.0752296    -0.7406046   -0.5927010    -0.0053782   -0.0087807    -0.0013764   -0.0060949
 		      -0.7402517   -0.5957473     0.0640946   -0.0770006    -0.0018975   -0.0068877    -0.0142182   -0.0151015
   0.310000000    -0.0019349   -0.0096945    -0.0018797   -0.0054955     0.0583413   -0.0763049    -0.7855456   -0.5329682 
 		      -0.0019967   -0.0054506    -0.0120393   -0.0159380    -0.7850659   -0.5326226     0.0567974   -0.0773608
 		       0.0581340   -0.0764862    -0.7864163   -0.5306475    -0.0035288   -0.0099841    -0.0018875   -0.0055972
 		      -0.7863430   -0.5322588     0.0562143   -0.0776484    -0.0019059   -0.0055512    -0.0127098   -0.0178401
   0.320000000    -0.0006024   -0.0118145    -0.0023307   -0.0055232     0.0494581   -0.0760102    -0.8263383   -0.4673032 
 		      -0.0023085   -0.0053808    -0.0110454   -0.0167653    -0.8253794   -0.4668404     0.0478805   -0.0768551
 		       0.0492746   -0.0761085    -0.8268192   -0.4645952    -0.0019795   -0.0112404    -0.0021720   -0.0054326
 		      -0.8265172   -0.4666278     0.0473799   -0.0771114    -0.0021991   -0.0053655    -0.0107709   -0.0204259
   0.330000000     0.0011636   -0.0144673    -0.0025907   -0.0051486     0.0408291   -0.0743892    -0.8612716   -0.3984447 
 		      -0.0025777   -0.0051377    -0.0091075   -0.0185605    -0.8603188   -0.3983876     0.0393027   -0.0750723
 		       0.0406941   -0.0745388    -0.8615001   -0.3953757     0.0010053   -0.0129401    -0.0023571   -0.0052819
 		      -0.8613004   -0.3976352     0.0388629   -0.0753342    -0.0023620   -0.0051846    -0.0106474   -0.0229823
   0.340000000     0.0029002   -0.0180335    -0.0026108   -0.0049694     0.0327185   -0.0715435    -0.8901343   -0.3270912 
 		      -0.0025693   -0.0050041    -0.0077959   -0.0209415    -0.8896753   -0.3265598     0.0311378   -0.0720597
 		       0.0325126   -0.0716279    -0.8898694   -0.3244013     0.0027812   -0.0167394    -0.0025050   -0.0051679
 		      -0.8909439   -0.3259627     0.0306731   -0.0723040    -0.0023990   -0.0052387    -0.0100524   -0.0236616
   0.350000000     0.0033730   -0.0215458    -0.0027228   -0.0049304     0.0251448   -0.0674534    -0.9136397   -0.2535500 
 		      -0.0026782   -0.0050067    -0.0062867   -0.0238293    -0.9129652   -0.2526672     0.0236663   -0.0679282
 		       0.0249583   -0.0675377    -0.9134277   -0.2506490     0.0025607   -0.0201345    -0.0026068   -0.0051554
 		      -0.9137431   -0.2521012     0.0231953   -0.0680466    -0.0026828   -0.0052705    -0.0085674   -0.0249773
   0.360000000     0.0032074   -0.0251260    -0.0028039   -0.0049759     0.0183593   -0.0623475    -0.9308941   -0.1782761 
 		      -0.0028442   -0.0050126    -0.0066553   -0.0268081    -0.9304193   -0.1777673     0.0170944   -0.0626970
 		       0.0182510   -0.0623551    -0.9302763   -0.1753190     0.0020314   -0.0237108    -0.0029065   -0.0052510
 		      -0.9307389   -0.1771866     0.0166511   -0.0627475    -0.0029543   -0.0052517    -0.0071713   -0.0269694
   0.370000000     0.0020034   -0.0277098    -0.0031013   -0.0052307     0.0125799   -0.0564069    -0.9422361   -0.1010962 
 		      -0.0031971   -0.0052706    -0.0072225   -0.0292740    -0.9413317   -0.1013324     0.0113229   -0.0565353
 		       0.0123897   -0.0564176    -0.9415902   -0.0984453     0.0000620   -0.0271750    -0.0032393   -0.0053154
 		      -0.9424231   -0.1005414     0.0108497   -0.0566170    -0.0032194   -0.0052535    -0.0063573   -0.0288841
   0.380000000     0.0008119   -0.0307145    -0.0036524   -0.0052402     0.0077178   -0.0495703    -0.9470358   -0.0245074 
 		      -0.0036622   -0.0052500    -0.0070397   -0.0309526    -0.9462934   -0.0238067     0.0067461   -0.0496006
 		       0.0075933   -0.0494952    -0.9465774   -0.0220877    -0.0007817   -0.0291793    -0.0036044   -0.0053121
 		      -0.9467411   -0.0227438     0.0063786   -0.0496260    -0.0036710   -0.0052375    -0.0071849   -0.0325230
   0.390000000    -0.0010370   -0.0333398    -0.0042344   -0.0052785     0.0040967   -0.0420693    -0.9457783    0.0533050 
 		      -0.0041522   -0.0051839    -0.0076098   -0.0331252    -0.9447224    0.0535218     0.0033476   -0.0421643
 		       0.0040890   -0.0421038    -0.9445361    0.0560519    -0.0018034   -0.0321144    -0.0040896   -0.0053864
 		      -0.9451192    0.0545920     0.0031003   -0.0420989    -0.0041400   -0.0052615    -0.0093606   -0.0350166
   0.400000000    -0.0032699   -0.0365313    -0.0048120   -0.0051182     0.0018160   -0.0342005    -0.9372760    0.1307189 
 		      -0.0046880   -0.0051811    -0.0086006   -0.0356948    -0.9370909    0.1305172     0.0013489   -0.0343240
 		       0.0017331   -0.0343169    -0.9362083    0.1332929    -0.0035629   -0.0354540    -0.0046630   -0.0052489
 		      -0.9373546    0.1314181     0.0010318   -0.0341690    -0.0046367   -0.0051280    -0.0124504   -0.0371138
   0.410000000    -0.0062736   -0.0397158    -0.0053161   -0.0049927     0.0008902   -0.0262179    -0.9230527    0.2064793 
 		      -0.0053473   -0.0050364    -0.0093774   -0.0377205    -0.9218141    0.2063819     0.0004365   -0.0262173
 		       0.0007695   -0.0262522    -0.9215600    0.2091067    -0.0054787   -0.0389758    -0.0053077   -0.0051942
 		      -0.9227508    0.2081977     0.0003144   -0.0261610    -0.0052941   -0.0051449    -0.0147430   -0.0380514
   0.420000000    -0.0105199   -0.0427479    -0.0059729   -0.0048402     0.0010924   -0.0181802    -0.9024226    0.2811276 
