! MS46524B
! 1918203/M1: 91020113/M2: 91020112
! 9/9/2020 2:28:19 PM
! C:\USERS\ANRITSUUSER\DESKTOP\2118 -5.S4P
! CHANNEL.1
! TR.MEASUREMENT
! CORRECTED.DATA
# GHZ S RI R 50.0
! FREQ.HZ          S11RE        S11IM         S12RE        S12IM         S13RE        S13IM         S14RE        S14IM         
!		       S21RE        S21IM         S22RE        S22IM         S23RE        S23IM         S24RE        S24IM         
!		       S31RE        S31IM         S32RE        S32IM         S33RE        S33IM         S34RE        S34IM         
!		       S41RE        S41IM         S42RE        S42IM         S43RE        S43IM         S44RE        S44IM         
!; PortSelection: Port_1234
      10000000     0.0101437   -0.0014004     0.9901307   -0.0449484     0.0003540    0.0018101    -0.0001971    0.0000170 
 		       0.9900708   -0.0452240     0.0097978   -0.0009603    -0.0002160    0.0000495     0.0003793    0.0018849
 		       0.0003514    0.0017836    -0.0002223    0.0000501     0.0107022   -0.0014126     0.9867437   -0.0451517
 		      -0.0002553    0.0000454     0.0003120    0.0018048     0.9850991   -0.0450340     0.0105341   -0.0007262
      20000000     0.0110698   -0.0033098     0.9854937   -0.0886009     0.0006426    0.0035655    -0.0003028    0.0001395 
 		       0.9858059   -0.0889591     0.0107643   -0.0024002    -0.0002935    0.0001467     0.0006727    0.0035460
 		       0.0006242    0.0035585    -0.0003048    0.0001540     0.0117366   -0.0039801     0.9817146   -0.0890134
 		      -0.0003246    0.0001321     0.0006606    0.0035461     0.9815619   -0.0888180     0.0110545   -0.0025999
      30000000     0.0126255   -0.0060518     0.9796036   -0.1321507     0.0010815    0.0052716    -0.0003156    0.0002944 
 		       0.9798659   -0.1317068     0.0121804   -0.0050991    -0.0003137    0.0002951     0.0010972    0.0052319
 		       0.0010720    0.0052124    -0.0003137    0.0003121     0.0127359   -0.0068289     0.9751288   -0.1323817
 		      -0.0003218    0.0002970     0.0011054    0.0052262     0.9742730   -0.1315272     0.0115871   -0.0047811
      40000000     0.0135188   -0.0092125     0.9719403   -0.1750370     0.0016652    0.0068818    -0.0003060    0.0004739 
 		       0.9719967   -0.1745609     0.0128230   -0.0084402    -0.0002908    0.0004367     0.0016645    0.0068547
 		       0.0016099    0.0068830    -0.0002957    0.0004739     0.0140423   -0.0096063     0.9677677   -0.1751761
 		      -0.0002841    0.0004527     0.0016548    0.0068496     0.9674786   -0.1743406     0.0127574   -0.0074078
      50000000     0.0137199   -0.0117846     0.9625002   -0.2165462     0.0023807    0.0084044    -0.0002329    0.0006054 
 		       0.9618970   -0.2166339     0.0128709   -0.0114569    -0.0002499    0.0006129     0.0023403    0.0084557
 		       0.0023177    0.0084466    -0.0002149    0.0006126     0.0152575   -0.0124163     0.9571341   -0.2172106
 		      -0.0002247    0.0006065     0.0023524    0.0084258     0.9576159   -0.2166266     0.0140660   -0.0106514
      60000000     0.0137764   -0.0141459     0.9509843   -0.2584244     0.0032265    0.0099751    -0.0001429    0.0007844 
 		       0.9507219   -0.2582797     0.0129229   -0.0141393    -0.0001301    0.0007733     0.0031886    0.0099363
 		       0.0031978    0.0099649    -0.0001386    0.0007344     0.0160526   -0.0155043     0.9463435   -0.2589323
 		      -0.0001555    0.0007172     0.0031809    0.0099413     0.9461222   -0.2577442     0.0151244   -0.0147183
      70000000     0.0133324   -0.0173586     0.9377081   -0.2993012     0.0041878    0.0113950    -0.0000535    0.0008828 
 		       0.9369348   -0.2991331     0.0126466   -0.0173764    -0.0000088    0.0008759     0.0041469    0.0114171
 		       0.0041605    0.0113827    -0.0000361    0.0008732     0.0156428   -0.0189235     0.9332061   -0.2986382
 		      -0.0000380    0.0009018     0.0041575    0.0113385     0.9325446   -0.2972438     0.0149465   -0.0191479
      80000000     0.0118012   -0.0213143     0.9229806   -0.3392032     0.0053079    0.0127618     0.0001478    0.0009935 
 		       0.9227815   -0.3396002     0.0118128   -0.0216741     0.0000995    0.0010206     0.0053027    0.0127362
 		       0.0052534    0.0127383     0.0001408    0.0010490     0.0139052   -0.0220651     0.9183883   -0.3383827
 		       0.0001298    0.0010460     0.0052343    0.0127209     0.9180784   -0.3384433     0.0135055   -0.0227475
      90000000     0.0094801   -0.0250447     0.9059805   -0.3788835     0.0064603    0.0139754     0.0002715    0.0010620 
 		       0.9056350   -0.3787220     0.0106035   -0.0255493     0.0002895    0.0010869     0.0064876    0.0139851
 		       0.0064804    0.0140116     0.0002847    0.0010865     0.0113531   -0.0251625     0.9015509   -0.3772027
 		       0.0002727    0.0010690     0.0064594    0.0139615     0.9016993   -0.3772353     0.0111037   -0.0256612
     100000000     0.0076511   -0.0280172     0.8878099   -0.4171330     0.0077975    0.0151637     0.0004274    0.0011282 
 		       0.8882370   -0.4173608     0.0095886   -0.0287132     0.0004206    0.0011085     0.0078157    0.0151194
 		       0.0077835    0.0151314     0.0004391    0.0011579     0.0089213   -0.0281832     0.8833851   -0.4158274
 		       0.0004058    0.0010826     0.0077224    0.0150736     0.8832267   -0.4153807     0.0086511   -0.0279660
     110000000     0.0061077   -0.0308829     0.8686658   -0.4546792     0.0092542    0.0161881     0.0005776    0.0011984 
 		       0.8682011   -0.4544008     0.0083540   -0.0314986     0.0005889    0.0012295     0.0091888    0.0161985
 		       0.0091367    0.0162107     0.0006068    0.0012345     0.0068066   -0.0315607     0.8640525   -0.4544524
 		       0.0005697    0.0012343     0.0091856    0.0161334     0.8640404   -0.4544287     0.0065142   -0.0304869
     120000000     0.0042005   -0.0334502     0.8464649   -0.4911402     0.0106724    0.0171382     0.0007995    0.0012627 
 		       0.8475193   -0.4915749     0.0059593   -0.0336303     0.0007826    0.0012944     0.0107229    0.0170434
 		       0.0106437    0.0170985     0.0008082    0.0012937     0.0055528   -0.0347255     0.8428159   -0.4902525
 		       0.0007419    0.0012703     0.0106391    0.0170476     0.8426240   -0.4896263     0.0050804   -0.0334100
     130000000     0.0018515   -0.0360165     0.8243186   -0.5266636     0.0122484    0.0179377     0.0010494    0.0013271 
 		       0.8243694   -0.5272034     0.0025924   -0.0354208     0.0010451    0.0012894     0.0122304    0.0178597
 		       0.0122631    0.0179059     0.0010398    0.0012622     0.0044089   -0.0382689     0.8201897   -0.5244277
 		       0.0009704    0.0012863     0.0122236    0.0178745     0.8199918   -0.5255848     0.0034514   -0.0369888
     140000000    -0.0007416   -0.0389006     0.7992877   -0.5603820     0.0139449    0.0185906     0.0011917    0.0012823 
 		       0.7999490   -0.5608476    -0.0009181   -0.0377331     0.0012275    0.0012696     0.0139025    0.0186074
 		       0.0138950    0.0185709     0.0011972    0.0012799     0.0024769   -0.0412677     0.7962256   -0.5595654
 		       0.0011955    0.0012586     0.0138864    0.0185473     0.7954552   -0.5605496     0.0015919   -0.0403818
     150000000    -0.0035879   -0.0424652     0.7750947   -0.5931205     0.0156586    0.0192271     0.0014439    0.0012536 
 		       0.7742963   -0.5944741    -0.0041017   -0.0412227     0.0014381    0.0012195     0.0156272    0.0191184
 		       0.0155941    0.0191064     0.0015062    0.0012436    -0.0003775   -0.0432384     0.7705882   -0.5933791
 		       0.0014623    0.0012855     0.0155124    0.0190565     0.7712639   -0.5922454    -0.0010900   -0.0434232
     160000000    -0.0070217   -0.0451300     0.7464415   -0.6269794     0.0173991    0.0195531     0.0016747    0.0011630 
 		       0.7480091   -0.6269641    -0.0069601   -0.0440967     0.0016597    0.0011984     0.0174050    0.0194819
 		       0.0173383    0.0195481     0.0017352    0.0011665    -0.0041499   -0.0448723     0.7421689   -0.6251147
 		       0.0017271    0.0011488     0.0173053    0.0195679     0.7424539   -0.6249558    -0.0039212   -0.0463778
     170000000    -0.0101208   -0.0467178     0.7185889   -0.6571632     0.0192373    0.0197933     0.0019410    0.0010627 
 		       0.7185116   -0.6579044    -0.0092529   -0.0463725     0.0018729    0.0010461     0.0191741    0.0197448
 		       0.0192035    0.0198058     0.0018961    0.0010088    -0.0086943   -0.0455511     0.7140393   -0.6549691
 		       0.0020063    0.0009563     0.0191099    0.0197774     0.7148861   -0.6552159    -0.0072145   -0.0477456
     180000000    -0.0133175   -0.0473979     0.6887743   -0.6868717     0.0210116    0.0199941     0.0021419    0.0008879 
 		       0.6898113   -0.6867042    -0.0117896   -0.0474162     0.0020827    0.0008883     0.0209698    0.0198971
 		       0.0210036    0.0198991     0.0020623    0.0008263    -0.0133963   -0.0463215     0.6842416   -0.6854009
 		       0.0020805    0.0008596     0.0209308    0.0199285     0.6846728   -0.6852341    -0.0109280   -0.0494672
     190000000    -0.0168118   -0.0483709     0.6577830   -0.7151985     0.0228674    0.0198977     0.0023126    0.0007050 
 		       0.6587140   -0.7155770    -0.0154770   -0.0485379     0.0022801    0.0006730     0.0227828    0.0198526
 		       0.0228181    0.0199566     0.0022264    0.0007235    -0.0174449   -0.0468591     0.6550152   -0.7129380
 		       0.0022257    0.0007274     0.0227213    0.0198885     0.6555157   -0.7124331    -0.0147647   -0.0510403
     200000000    -0.0212578   -0.0495568     0.6261144   -0.7413257     0.0246608    0.0197911     0.0024887    0.0004526 
 		       0.6267698   -0.7428799    -0.0202843   -0.0493258     0.0024438    0.0004708     0.0247006    0.0197147
 		       0.0246671    0.0197749     0.0024127    0.0005754    -0.0210492   -0.0480536     0.6222591   -0.7399021
 		       0.0025979    0.0005709     0.0246231    0.0196648     0.6233467   -0.7397470    -0.0192186   -0.0521313
     210000000    -0.0261573   -0.0503367     0.5925322   -0.7665864     0.0265080    0.0194226     0.0026390    0.0002490 
 		       0.5922639   -0.7669573    -0.0251892   -0.0498433     0.0025794    0.0002685     0.0264532    0.0194681
 		       0.0264763    0.0194436     0.0026296    0.0003285    -0.0248011   -0.0495986     0.5904471   -0.7648285
 		       0.0026869    0.0002627     0.0264459    0.0194358     0.5909271   -0.7639990    -0.0237637   -0.0531111
     220000000    -0.0298941   -0.0508135     0.5597408   -0.7916138     0.0283947    0.0189836     0.0027770    0.0000740 
 		       0.5590424   -0.7903811    -0.0290172   -0.0504153     0.0027025    0.0000845     0.0282971    0.0189670
 		       0.0283746    0.0190452     0.0027144    0.0000616    -0.0285662   -0.0511873     0.5562713   -0.7895116
 		       0.0027427    0.0000007     0.0282371    0.0189965     0.5559202   -0.7892880    -0.0279183   -0.0531277
     230000000    -0.0328066   -0.0513480     0.5243060   -0.8131644     0.0301753    0.0184813     0.0028787   -0.0001899 
 		       0.5244045   -0.8130889    -0.0318712   -0.0511217     0.0028376   -0.0001178     0.0300963    0.0183968
 		       0.0300975    0.0184455     0.0029131   -0.0000783    -0.0323874   -0.0527805     0.5199355   -0.8108307
 		       0.0028687   -0.0001490     0.0300028    0.0184668     0.5209538   -0.8109123    -0.0315351   -0.0525748
     240000000    -0.0356456   -0.0514778     0.4884002   -0.8335162     0.0319405    0.0177712     0.0030207   -0.0004211 
 		       0.4884405   -0.8342101    -0.0344187   -0.0511983     0.0029298   -0.0003364     0.0318037    0.0177047
 		       0.0318506    0.0177918     0.0029568   -0.0003782    -0.0369807   -0.0535054     0.4854691   -0.8317230
 		       0.0029319   -0.0004165     0.0317856    0.0176852     0.4856566   -0.8316207    -0.0345282   -0.0516172
     250000000    -0.0389822   -0.0506015     0.4528292   -0.8538585     0.0336658    0.0169101     0.0029915   -0.0007549 
 		       0.4527727   -0.8528507    -0.0378911   -0.0497643     0.0030691   -0.0007204     0.0335835    0.0168863
 		       0.0336563    0.0169009     0.0030961   -0.0007518    -0.0410490   -0.0537445     0.4487240   -0.8502592
 		       0.0030356   -0.0007763     0.0335010    0.0168461     0.4499629   -0.8515030    -0.0378699   -0.0507379
     260000000    -0.0422267   -0.0495857     0.4155124   -0.8709190     0.0352638    0.0159331     0.0029715   -0.0009793 
 		       0.4159280   -0.8709267    -0.0413751   -0.0479007     0.0030614   -0.0010855     0.0352168    0.0158809
 		       0.0352883    0.0159264     0.0030370   -0.0010430    -0.0445881   -0.0530639     0.4126093   -0.8681692
 		       0.0029748   -0.0010224     0.0352027    0.0159079     0.4128436   -0.8687440    -0.0415436   -0.0503104
     270000000    -0.0461106   -0.0492282     0.3779429   -0.8868607     0.0369323    0.0147791     0.0030301   -0.0012370 
 		       0.3793314   -0.8863702    -0.0451082   -0.0471560     0.0029882   -0.0014084     0.0367980    0.0148304
 		       0.0368897    0.0148124     0.0030887   -0.0012437    -0.0473362   -0.0518919     0.3741215   -0.8844423
 		       0.0030943   -0.0012030     0.0367919    0.0148868     0.3741981   -0.8842742    -0.0455604   -0.0498021
     280000000    -0.0508683   -0.0489038     0.3406017   -0.9011065     0.0384848    0.0135752     0.0031598   -0.0015568 
 		       0.3403327   -0.9019003    -0.0497037   -0.0468145     0.0029450   -0.0016170     0.0383711    0.0135941
 		       0.0385720    0.0136029     0.0030596   -0.0015619    -0.0497774   -0.0500157     0.3368055   -0.8981014
 		       0.0031974   -0.0016823     0.0383084    0.0136438     0.3371609   -0.8981056    -0.0502106   -0.0486537
     290000000    -0.0544386   -0.0473246     0.3009670   -0.9142385     0.0398738    0.0123252     0.0030407   -0.0020280 
 		       0.3006200   -0.9151686    -0.0529967   -0.0456979     0.0029792   -0.0018147     0.0398506    0.0122950
 		       0.0398536    0.0122860     0.0029821   -0.0019115    -0.0522873   -0.0478634     0.2978146   -0.9114254
 		       0.0029955   -0.0020652     0.0397662    0.0122602     0.2978531   -0.9105466    -0.0542451   -0.0472141
     300000000    -0.0573006   -0.0452418     0.2603603   -0.9260164     0.0412093    0.0108146     0.0029144   -0.0023788 
 		       0.2614234   -0.9254450    -0.0557033   -0.0440608     0.0029021   -0.0021728     0.0411206    0.0108853
 		       0.0412094    0.0108672     0.0028574   -0.0022409    -0.0557193   -0.0452697     0.2584634   -0.9208950
 		       0.0028444   -0.0023538     0.0410615    0.0108718     0.2592291   -0.9222353    -0.0576152   -0.0450023
     310000000    -0.0596808   -0.0428805     0.2221728   -0.9349467     0.0425065    0.0092581     0.0027414   -0.0026725 
 		       0.2215592   -0.9354228    -0.0579756   -0.0417043     0.0027940   -0.0025092     0.0424431    0.0093944
 		       0.0425630    0.0093123     0.0027383   -0.0025250    -0.0597222   -0.0428795     0.2202287   -0.9307219
 		       0.0026785   -0.0025453     0.0424027    0.0093675     0.2191904   -0.9307854    -0.0598672   -0.0425073
     320000000    -0.0627858   -0.0401467     0.1810162   -0.9422519     0.0437666    0.0076773     0.0025247   -0.0028774 
 		       0.1802747   -0.9428902    -0.0614268   -0.0392180     0.0025368   -0.0028456     0.0436179    0.0077994
 		       0.0436697    0.0076991     0.0026522   -0.0028837    -0.0638350   -0.0404156     0.1803525   -0.9382768
 		       0.0025917   -0.0028807     0.0434785    0.0078151     0.1791488   -0.9392783    -0.0623022   -0.0398978
     330000000    -0.0656757   -0.0372525     0.1399971   -0.9479478     0.0447492    0.0059443     0.0023151   -0.0030635 
 		       0.1402314   -0.9479666    -0.0646776   -0.0366485     0.0023785   -0.0031926     0.0446211    0.0060903
 		       0.0447178    0.0059758     0.0024422   -0.0031196    -0.0675804   -0.0383498     0.1395276   -0.9455066
 		       0.0023468   -0.0032307     0.0445676    0.0060344     0.1385706   -0.9440332    -0.0646656   -0.0372503
     340000000    -0.0682809   -0.0348066     0.1004271   -0.9525804     0.0456758    0.0041153     0.0022294   -0.0033683 
 		       0.1009747   -0.9536311    -0.0676208   -0.0344577     0.0021738   -0.0033566     0.0456937    0.0042240
 		       0.0456482    0.0041494     0.0021738   -0.0034186    -0.0706445   -0.0367279     0.0987339   -0.9482305
 		       0.0021498   -0.0033986     0.0454991    0.0043063     0.0995886   -0.9485658    -0.0678858   -0.0345601
     350000000    -0.0705802   -0.0324694     0.0609293   -0.9547597     0.0465658    0.0023292     0.0020362   -0.0036873 
 		       0.0621735   -0.9555683    -0.0700730   -0.0327753     0.0019716   -0.0035927     0.0464033    0.0024283
 		       0.0464598    0.0023426     0.0019950   -0.0035569    -0.0725786   -0.0344969     0.0588783   -0.9517487
 		       0.0019739   -0.0036647     0.0463276    0.0025076     0.0576675   -0.9514239    -0.0708725   -0.0314403
     360000000    -0.0724625   -0.0292100     0.0201164   -0.9559205     0.0472603    0.0003864     0.0016065   -0.0040416 
 		       0.0176509   -0.9566866    -0.0716888   -0.0298367     0.0017531   -0.0038767     0.0470863    0.0005614
 		       0.0471134    0.0003939     0.0017290   -0.0039158    -0.0738026   -0.0321314     0.0191467   -0.9518832
 		       0.0016995   -0.0039911     0.0471143    0.0005858     0.0186932   -0.9521437    -0.0739538   -0.0275969
     370000000    -0.0739670   -0.0251701    -0.0205302   -0.9556600     0.0477908   -0.0015202     0.0011965   -0.0041002 
 		      -0.0218763   -0.9545011    -0.0729975   -0.0264373     0.0014296   -0.0041931     0.0477179   -0.0014048
 		       0.0476588   -0.0015228     0.0013491   -0.0041872    -0.0747870   -0.0281360    -0.0210880   -0.9517523
 		       0.0012888   -0.0041234     0.0476211   -0.0014413    -0.0210371   -0.9518428    -0.0753365   -0.0249954
     380000000    -0.0744873   -0.0219587    -0.0596401   -0.9528323     0.0481834   -0.0036370     0.0009197   -0.0042121 
 		      -0.0614798   -0.9519092    -0.0739289   -0.0217166     0.0009677   -0.0043756     0.0481069   -0.0034602
 		       0.0481696   -0.0034897     0.0009353   -0.0043578    -0.0754389   -0.0232836    -0.0609933   -0.9487591
 		       0.0009123   -0.0041637     0.0480358   -0.0033214    -0.0610580   -0.9486445    -0.0762176   -0.0225789
     390000000    -0.0759709   -0.0194604    -0.1010804   -0.9486163     0.0485313   -0.0055357     0.0007081   -0.0043595 
 		      -0.1002115   -0.9477308    -0.0742019   -0.0181919     0.0005792   -0.0043542     0.0484470   -0.0055790
 		       0.0484904   -0.0055626     0.0005161   -0.0044335    -0.0762055   -0.0183408    -0.1017707   -0.9444484
 		       0.0006580   -0.0043262     0.0483306   -0.0053366    -0.1021612   -0.9437501    -0.0772678   -0.0195623
     400000000    -0.0781633   -0.0163338    -0.1399816   -0.9429802     0.0487384   -0.0075534     0.0004071   -0.0045224 
 		      -0.1402962   -0.9433745    -0.0765178   -0.0149909     0.0002502   -0.0044839     0.0485770   -0.0073975
 		       0.0487112   -0.0076420     0.0002079   -0.0043838    -0.0772242   -0.0137831    -0.1407344   -0.9385751
 		       0.0003778   -0.0043805     0.0485536   -0.0073861    -0.1405388   -0.9388586    -0.0780192   -0.0170977
     410000000    -0.0798610   -0.0120671    -0.1794170   -0.9356517     0.0488339   -0.0097437    -0.0000694   -0.0047207 
 		      -0.1793616   -0.9370214    -0.0784678   -0.0115776    -0.0001389   -0.0045239     0.0486481   -0.0095309
 		       0.0486984   -0.0096898    -0.0000524   -0.0044591    -0.0777686   -0.0096831    -0.1808354   -0.9307266
 		       0.0000610   -0.0045794     0.0486019   -0.0094455    -0.1804188   -0.9317911    -0.0795261   -0.0138079
     420000000    -0.0799576   -0.0080157    -0.2179212   -0.9264213     0.0487460   -0.0117860    -0.0004579   -0.0047118 
