! MS46524B
! 1918203/M1: 91020113/M2: 91020112
! 9/9/2020 2:28:19 PM
! C:\USERS\ANRITSUUSER\DESKTOP\2118 -5.S4P
! CHANNEL.1
! TR.MEASUREMENT
! CORRECTED.DATA
# GHZ S RI R 50.0
! FREQ.HZ          S11RE        S11IM         S12RE        S12IM         S13RE        S13IM         S14RE        S14IM         
!		       S21RE        S21IM         S22RE        S22IM         S23RE        S23IM         S24RE        S24IM         
!		       S31RE        S31IM         S32RE        S32IM         S33RE        S33IM         S34RE        S34IM         
!		       S41RE        S41IM         S42RE        S42IM         S43RE        S43IM         S44RE        S44IM         
!; PortSelection: Port_1234
      10000000     0.0210523   -0.0020490     0.9758968   -0.0857558     0.0009490    0.0041286    -0.0005449    0.0001167 
 		       0.9771433   -0.0859788     0.0207562   -0.0015970    -0.0004992    0.0000998     0.0008829    0.0041462
 		       0.0009506    0.0041403    -0.0005766    0.0000962     0.0216936   -0.0021128     0.9728132   -0.0857257
 		      -0.0005745    0.0000948     0.0008976    0.0041148     0.9712698   -0.0852467     0.0214187   -0.0013426
      20000000     0.0228777   -0.0060113     0.9623140   -0.1679916     0.0021145    0.0079444    -0.0005924    0.0003722 
 		       0.9628580   -0.1682454     0.0226590   -0.0050685    -0.0006450    0.0004139     0.0021229    0.0079221
 		       0.0020639    0.0079253    -0.0005895    0.0004043     0.0234622   -0.0067760     0.9584174   -0.1685275
 		      -0.0006393    0.0004059     0.0021179    0.0079323     0.9580282   -0.1673326     0.0228866   -0.0052747
      30000000     0.0244009   -0.0115703     0.9423969   -0.2483117     0.0038236    0.0114774    -0.0005328    0.0007356 
 		       0.9432268   -0.2479936     0.0242114   -0.0106297    -0.0005230    0.0007560     0.0038936    0.0114284
 		       0.0038260    0.0114560    -0.0005609    0.0007666     0.0245906   -0.0122753     0.9386870   -0.2482131
 		      -0.0005489    0.0007428     0.0038836    0.0114226     0.9373526   -0.2470446     0.0238713   -0.0101486
      40000000     0.0245447   -0.0176193     0.9162037   -0.3256178     0.0060947    0.0146595    -0.0003405    0.0010821 
 		       0.9162949   -0.3257076     0.0242995   -0.0168551    -0.0003196    0.0010978     0.0061584    0.0146083
 		       0.0060516    0.0146552    -0.0003065    0.0011407     0.0251727   -0.0180523     0.9124314   -0.3249979
 		      -0.0003170    0.0011121     0.0061418    0.0145772     0.9114520   -0.3242819     0.0246460   -0.0159507
      50000000     0.0232604   -0.0228305     0.8847218   -0.4000828     0.0088375    0.0174118    -0.0000370    0.0013726 
 		       0.8835487   -0.3998560     0.0230463   -0.0225407    -0.0000378    0.0013759     0.0089318    0.0173337
 		       0.0087872    0.0173685    -0.0000111    0.0013592     0.0248992   -0.0238834     0.8800478   -0.3993846
 		      -0.0000266    0.0013369     0.0088613    0.0173107     0.8790221   -0.3985986     0.0245644   -0.0224913
      60000000     0.0211231   -0.0277383     0.8455914   -0.4711753     0.0120322    0.0197140     0.0003787    0.0015654 
 		       0.8453093   -0.4711884     0.0209661   -0.0280020     0.0003682    0.0015781     0.0121665    0.0196231
 		       0.0119625    0.0196568     0.0003672    0.0015461     0.0231774   -0.0297284     0.8413650   -0.4706560
 		       0.0003013    0.0015401     0.0120636    0.0195566     0.8411866   -0.4693398     0.0231147   -0.0296167
      70000000     0.0172886   -0.0332218     0.8020402   -0.5395153     0.0155016    0.0214262     0.0008455    0.0016068 
 		       0.8011938   -0.5384631     0.0178310   -0.0337728     0.0008090    0.0016433     0.0156333    0.0213146
 		       0.0154588    0.0214139     0.0007565    0.0016884     0.0194713   -0.0351823     0.7975907   -0.5366222
 		       0.0008383    0.0016930     0.0156400    0.0212802     0.7972319   -0.5355977     0.0195195   -0.0361304
      80000000     0.0117633   -0.0383967     0.7528685   -0.6022430     0.0192762    0.0226562     0.0013366    0.0015743 
 		       0.7522471   -0.6020852     0.0132625   -0.0396798     0.0013039    0.0015838     0.0194350    0.0224695
 		       0.0191829    0.0226833     0.0013292    0.0016547     0.0140022   -0.0393735     0.7485859   -0.5998637
 		       0.0013299    0.0016150     0.0194086    0.0224293     0.7485154   -0.5994213     0.0145437   -0.0409142
      90000000     0.0056569   -0.0424327     0.6985324   -0.6614496     0.0231330    0.0232323     0.0017491    0.0013839 
 		       0.6982362   -0.6604411     0.0082938   -0.0445090     0.0017566    0.0014333     0.0234014    0.0229468
 		       0.0231394    0.0232368     0.0018105    0.0013789     0.0077169   -0.0427925     0.6946821   -0.6579582
 		       0.0017933    0.0013387     0.0233117    0.0228918     0.6947142   -0.6579080     0.0087606   -0.0442994
     100000000     0.0002327   -0.0454020     0.6396711   -0.7146737     0.0270932    0.0232401     0.0021326    0.0011910 
 		       0.6400216   -0.7151837     0.0034125   -0.0482055     0.0021631    0.0012035     0.0273075    0.0228453
 		       0.0270661    0.0231897     0.0021976    0.0011915     0.0014722   -0.0457593     0.6364323   -0.7116360
 		       0.0021009    0.0011395     0.0272840    0.0227826     0.6363786   -0.7112596     0.0030102   -0.0469246
     110000000    -0.0053021   -0.0476116     0.5774673   -0.7628139     0.0310365    0.0225740     0.0024827    0.0008895 
 		       0.5779327   -0.7631369    -0.0020742   -0.0506583     0.0025875    0.0009037     0.0312703    0.0221383
 		       0.0309501    0.0226103     0.0025709    0.0008568    -0.0046521   -0.0482738     0.5736539   -0.7611779
 		       0.0025057    0.0008872     0.0311792    0.0221111     0.5742711   -0.7609282    -0.0028359   -0.0493582
     120000000    -0.0112112   -0.0486512     0.5118040   -0.8056571     0.0348463    0.0213802     0.0028621    0.0004235 
 		       0.5118238   -0.8059877    -0.0083711   -0.0510837     0.0029353    0.0004398     0.0350451    0.0207681
 		       0.0347387    0.0213279     0.0028838    0.0003906    -0.0100764   -0.0506583     0.5080884   -0.8039811
 		       0.0028661    0.0004652     0.0350037    0.0207845     0.5099672   -0.8027498    -0.0083901   -0.0521402
     130000000    -0.0175980   -0.0487109     0.4426559   -0.8430656     0.0383440    0.0196066     0.0030816   -0.0001159 
 		       0.4430647   -0.8431056    -0.0152801   -0.0508536     0.0031216   -0.0001525     0.0386090    0.0188890
 		       0.0383463    0.0195546     0.0031127   -0.0001501    -0.0159236   -0.0517192     0.4407033   -0.8402506
 		       0.0030781   -0.0000784     0.0385405    0.0189190     0.4409703   -0.8406516    -0.0148681   -0.0543309
     140000000    -0.0241595   -0.0485040     0.3716942   -0.8738275     0.0416837    0.0172565     0.0031709   -0.0006287 
 		       0.3722957   -0.8753386    -0.0223164   -0.0507497     0.0032305   -0.0007391     0.0419296    0.0164592
 		       0.0416117    0.0172992     0.0032366   -0.0006771    -0.0221248   -0.0513539     0.3692220   -0.8719842
 		       0.0031786   -0.0005922     0.0417758    0.0164833     0.3680126   -0.8723958    -0.0209083   -0.0553385
     150000000    -0.0310918   -0.0475495     0.2993574   -0.8999703     0.0446025    0.0144928     0.0032351   -0.0012684 
 		       0.2976449   -0.9011235    -0.0292489   -0.0507802     0.0031878   -0.0013229     0.0447664    0.0136144
 		       0.0444646    0.0145303     0.0032569   -0.0012308    -0.0284458   -0.0485232     0.2952434   -0.8978310
 		       0.0032938   -0.0012679     0.0446639    0.0136439     0.2958330   -0.8970919    -0.0272943   -0.0546825
     160000000    -0.0370036   -0.0448951     0.2228022   -0.9196546     0.0470768    0.0112926     0.0031464   -0.0019699 
 		       0.2225976   -0.9211583    -0.0347894   -0.0500711     0.0030600   -0.0018548     0.0471647    0.0103512
 		       0.0470415    0.0113645     0.0031420   -0.0019642    -0.0345437   -0.0444394     0.2203196   -0.9157432
 		       0.0031919   -0.0019998     0.0471633    0.0103637     0.2209495   -0.9165701    -0.0335769   -0.0525818
     170000000    -0.0412346   -0.0410987     0.1479582   -0.9328668     0.0490287    0.0078287     0.0028242   -0.0025341 
 		       0.1463741   -0.9330770    -0.0392002   -0.0478596     0.0028344   -0.0024878     0.0490373    0.0067069
 		       0.0489793    0.0078940     0.0027909   -0.0024597    -0.0400340   -0.0395347     0.1457469   -0.9285303
 		       0.0028035   -0.0025860     0.0489981    0.0068167     0.1453128   -0.9286448    -0.0387902   -0.0492430
     180000000    -0.0450252   -0.0368266     0.0696591   -0.9398147     0.0505007    0.0040834     0.0024378   -0.0031370 
 		       0.0712832   -0.9407522    -0.0431572   -0.0444093     0.0024693   -0.0029144     0.0504779    0.0029369
 		       0.0504209    0.0041781     0.0023670   -0.0029846    -0.0448391   -0.0350358     0.0689205   -0.9364197
 		       0.0023833   -0.0030655     0.0504531    0.0029648     0.0687417   -0.9364912    -0.0443285   -0.0455271
     190000000    -0.0488249   -0.0318585    -0.0065278   -0.9403656     0.0514783    0.0002826     0.0019192   -0.0035381 
 		      -0.0061034   -0.9410554    -0.0476291   -0.0394643     0.0019202   -0.0034625     0.0513107   -0.0011763
 		       0.0514190    0.0002830     0.0019039   -0.0033505    -0.0488011   -0.0302599    -0.0081827   -0.9371794
 		       0.0019581   -0.0034286     0.0513231   -0.0010521    -0.0078648   -0.9368482    -0.0490759   -0.0405886
     200000000    -0.0523688   -0.0263868    -0.0816608   -0.9348601     0.0518033   -0.0037026     0.0013530   -0.0038792 
 		      -0.0836113   -0.9357408    -0.0518345   -0.0341338     0.0014217   -0.0037325     0.0515871   -0.0052217
 		       0.0517845   -0.0036815     0.0014523   -0.0036845    -0.0515840   -0.0266048    -0.0845792   -0.9307857
 		       0.0014620   -0.0038806     0.0514887   -0.0051712    -0.0843882   -0.9314086    -0.0528555   -0.0356456
     210000000    -0.0543094   -0.0208967    -0.1575397   -0.9231886     0.0515844   -0.0076533     0.0007239   -0.0040594 
 		      -0.1587002   -0.9230510    -0.0545733   -0.0289626     0.0007403   -0.0040234     0.0512003   -0.0091820
 		       0.0516010   -0.0076389     0.0008061   -0.0039680    -0.0543160   -0.0223931    -0.1577032   -0.9198735
 		       0.0006475   -0.0041569     0.0512232   -0.0091435    -0.1588099   -0.9199206    -0.0557797   -0.0300295
     220000000    -0.0548699   -0.0164458    -0.2320105   -0.9056649     0.0509284   -0.0116373     0.0001357   -0.0041334 
 		      -0.2315859   -0.9061499    -0.0559835   -0.0253203     0.0001927   -0.0040571     0.0504205   -0.0132175
 		       0.0509195   -0.0116089     0.0002103   -0.0040773    -0.0564350   -0.0178380    -0.2323163   -0.9024969
 		       0.0000681   -0.0041184     0.0503638   -0.0131656    -0.2336114   -0.9019836    -0.0570158   -0.0250880
     230000000    -0.0544460   -0.0121991    -0.3043631   -0.8822646     0.0496533   -0.0153418    -0.0005358   -0.0042014 
 		      -0.3045863   -0.8825422    -0.0563656   -0.0216234    -0.0003857   -0.0040797     0.0489524   -0.0169562
 		       0.0496284   -0.0153075    -0.0003217   -0.0041035    -0.0574114   -0.0124801    -0.3040089   -0.8776231
 		      -0.0004259   -0.0041397     0.0489020   -0.0169708    -0.3049771   -0.8788702    -0.0570407   -0.0199838
     240000000    -0.0531150   -0.0074487    -0.3731197   -0.8533677     0.0480468   -0.0189232    -0.0011797   -0.0040691 
 		      -0.3741947   -0.8533848    -0.0554409   -0.0171461    -0.0010249   -0.0041046     0.0471641   -0.0205160
 		       0.0479342   -0.0187625    -0.0010473   -0.0040698    -0.0564936   -0.0067745    -0.3730720   -0.8498749
 		      -0.0010654   -0.0040763     0.0470080   -0.0205442    -0.3748598   -0.8502320    -0.0564337   -0.0155317
     250000000    -0.0509044   -0.0025172    -0.4406481   -0.8200414     0.0456596   -0.0220781    -0.0017261   -0.0036924 
 		      -0.4397018   -0.8201331    -0.0536551   -0.0118256    -0.0017261   -0.0038314     0.0446969   -0.0237613
 		       0.0456967   -0.0219750    -0.0017155   -0.0038163    -0.0544609   -0.0019457    -0.4403034   -0.8153002
 		      -0.0017879   -0.0037594     0.0446127   -0.0236943    -0.4411511   -0.8154981    -0.0558748   -0.0109179
     260000000    -0.0488500    0.0017108    -0.5048184   -0.7801306     0.0431927   -0.0249883    -0.0021852   -0.0033973 
 		      -0.5040281   -0.7810453    -0.0524117   -0.0070632    -0.0022746   -0.0034945     0.0418740   -0.0265038
 		       0.0431723   -0.0248763    -0.0022466   -0.0034454    -0.0511124    0.0022465    -0.5049457   -0.7755434
 		      -0.0022049   -0.0034973     0.0418243   -0.0264907    -0.5035680   -0.7765877    -0.0554147   -0.0063819
     270000000    -0.0465782    0.0062597    -0.5644068   -0.7357363     0.0402270   -0.0273700    -0.0025454   -0.0031549 
 		      -0.5651107   -0.7367166    -0.0516838   -0.0031339    -0.0026497   -0.0029852     0.0387841   -0.0289331
 		       0.0401842   -0.0273162    -0.0025936   -0.0031395    -0.0470885    0.0057686    -0.5644829   -0.7320628
 		      -0.0026021   -0.0032002     0.0387779   -0.0289349    -0.5644516   -0.7318940    -0.0537432   -0.0018720
     280000000    -0.0432739    0.0101769    -0.6218009   -0.6871217     0.0368851   -0.0292116    -0.0030887   -0.0027668 
 		      -0.6222600   -0.6869009    -0.0499357    0.0006301    -0.0028489   -0.0025944     0.0353946   -0.0307986
 		       0.0368880   -0.0292214    -0.0029548   -0.0026672    -0.0425243    0.0090976    -0.6207860   -0.6832545
 		      -0.0031231   -0.0027355     0.0352895   -0.0308146    -0.6206650   -0.6830004    -0.0510569    0.0019801
     290000000    -0.0383134    0.0121617    -0.6751482   -0.6331416     0.0336453   -0.0306757    -0.0034455   -0.0022020 
 		      -0.6746258   -0.6340560    -0.0470073    0.0027031    -0.0032113   -0.0021797     0.0317790   -0.0322704
 		       0.0335444   -0.0306693    -0.0032055   -0.0021691    -0.0380101    0.0118950    -0.6725435   -0.6298677
 		      -0.0034348   -0.0021329     0.0317765   -0.0322345    -0.6722048   -0.6298136    -0.0473216    0.0047773
     300000000    -0.0331714    0.0132369    -0.7238917   -0.5751771     0.0299648   -0.0316340    -0.0035879   -0.0015551 
 		      -0.7230468   -0.5759737    -0.0430007    0.0040956    -0.0034211   -0.0017129     0.0280198   -0.0331136
 		       0.0299790   -0.0316122    -0.0034811   -0.0016624    -0.0335458    0.0145295    -0.7203384   -0.5723332
 		      -0.0035691   -0.0015169     0.0279995   -0.0330236    -0.7210543   -0.5725550    -0.0431206    0.0066889
     310000000    -0.0280211    0.0135163    -0.7661743   -0.5159898     0.0263512   -0.0320761    -0.0035264   -0.0009990 
 		      -0.7663149   -0.5155597    -0.0391151    0.0050973    -0.0034863   -0.0011592     0.0242769   -0.0333778
 		       0.0264234   -0.0320623    -0.0035085   -0.0011410    -0.0294276    0.0161690    -0.7635504   -0.5128226
 		      -0.0035773   -0.0010749     0.0242395   -0.0333449    -0.7635381   -0.5114145    -0.0389373    0.0074411
     320000000    -0.0230883    0.0136897    -0.8040129   -0.4509766     0.0228460   -0.0320166    -0.0035378   -0.0005958 
 		      -0.8041183   -0.4509514    -0.0354455    0.0065020    -0.0035077   -0.0006193     0.0205298   -0.0331468
 		       0.0228103   -0.0319503    -0.0034978   -0.0006788    -0.0249332    0.0163365    -0.8015102   -0.4487588
 		      -0.0035702   -0.0005945     0.0205357   -0.0330423    -0.8014123   -0.4479392    -0.0350655    0.0082419
     330000000    -0.0180753    0.0126809    -0.8371350   -0.3827401     0.0193746   -0.0313624    -0.0033328   -0.0001968 
 		      -0.8369792   -0.3834738    -0.0316942    0.0066718    -0.0034320   -0.0002114     0.0170107   -0.0323881
 		       0.0192768   -0.0313207    -0.0034379   -0.0001125    -0.0205701    0.0150628    -0.8345683   -0.3817273
 		      -0.0034151   -0.0001103     0.0169414   -0.0323256    -0.8335261   -0.3816428    -0.0316096    0.0086118
     340000000    -0.0138899    0.0108278    -0.8646089   -0.3142310     0.0160550   -0.0302391    -0.0032995    0.0001701 
 		      -0.8649219   -0.3155135    -0.0286271    0.0055923    -0.0032623    0.0002149     0.0135515   -0.0310509
 		       0.0160451   -0.0301878    -0.0033248    0.0002130    -0.0158468    0.0125249    -0.8611082   -0.3107962
 		      -0.0032553    0.0002082     0.0135125   -0.0309650    -0.8612542   -0.3132739    -0.0281349    0.0083204
     350000000    -0.0098762    0.0084833    -0.8853973   -0.2446497     0.0130420   -0.0286065    -0.0031458    0.0005870 
 		      -0.8859004   -0.2453095    -0.0254827    0.0039923    -0.0031022    0.0005745     0.0104448   -0.0292243
 		       0.0130101   -0.0286292    -0.0030253    0.0006020    -0.0108394    0.0091632    -0.8823939   -0.2416641
 		      -0.0031387    0.0005513     0.0104247   -0.0292345    -0.8825160   -0.2410293    -0.0248281    0.0069182
     360000000    -0.0061425    0.0047566    -0.9022706   -0.1705790     0.0103498   -0.0265828    -0.0028132    0.0008272 
 		      -0.9013507   -0.1695941    -0.0216658    0.0014239    -0.0028522    0.0007921     0.0076055   -0.0271272
 		       0.0103124   -0.0265961    -0.0028327    0.0008220    -0.0054705    0.0053437    -0.8988809   -0.1694392
 		      -0.0029317    0.0008663     0.0075746   -0.0270725    -0.8981764   -0.1690746    -0.0221464    0.0040236
     370000000    -0.0033511    0.0003149    -0.9120503   -0.0969376     0.0078821   -0.0243148    -0.0024651    0.0010821 
 		      -0.9117932   -0.0960933    -0.0186459   -0.0017880    -0.0026267    0.0009783     0.0051655   -0.0245153
 		       0.0080211   -0.0242088    -0.0025409    0.0010913    -0.0010387    0.0011808    -0.9086602   -0.0963208
 		      -0.0025314    0.0010729     0.0052603   -0.0245056    -0.9087741   -0.0963743    -0.0202879    0.0004920
     380000000    -0.0019138   -0.0043822    -0.9155126   -0.0232565     0.0059848   -0.0215998    -0.0022137    0.0011186 
 		      -0.9158525   -0.0223310    -0.0168385   -0.0050413    -0.0023063    0.0011804     0.0033244   -0.0216583
 		       0.0060590   -0.0216146    -0.0022730    0.0011851     0.0022195   -0.0030119    -0.9122444   -0.0215614
 		      -0.0022878    0.0011627     0.0033078   -0.0216260    -0.9122467   -0.0224304    -0.0190510   -0.0034623
     390000000    -0.0007356   -0.0088956    -0.9137936    0.0501773     0.0046441   -0.0187367    -0.0020583    0.0011652 
 		      -0.9129652    0.0509483    -0.0167980   -0.0082106    -0.0019673    0.0012445     0.0018963   -0.0185447
 		       0.0045875   -0.0186933    -0.0019739    0.0012309     0.0035162   -0.0074628    -0.9096146    0.0522743
 		      -0.0019551    0.0011691     0.0018626   -0.0184909    -0.9094929    0.0527052    -0.0174528   -0.0070765
     400000000     0.0009545   -0.0138262    -0.9059544    0.1243102     0.0036031   -0.0156176    -0.0018903    0.0012436 
 		      -0.9057417    0.1238833    -0.0161489   -0.0112824    -0.0017669    0.0011813     0.0009588   -0.0152696
 		       0.0036551   -0.0156363    -0.0018618    0.0011991     0.0029043   -0.0119077    -0.9018876    0.1247980
 		      -0.0018407    0.0012296     0.0009866   -0.0152415    -0.9011396    0.1252098    -0.0160186   -0.0103799
     410000000     0.0016865   -0.0202522    -0.8918980    0.1974121     0.0032751   -0.0124151    -0.0017211    0.0011969 
 		      -0.8926834    0.1963093    -0.0160832   -0.0157999    -0.0016222    0.0011565     0.0005111   -0.0118683
 		       0.0032168   -0.0124144    -0.0017337    0.0011556     0.0012684   -0.0170241    -0.8873790    0.1974406
 		      -0.0017168    0.0012500     0.0005534   -0.0118557    -0.8880151    0.1976471    -0.0148600   -0.0144993
     420000000     0.0003077   -0.0261820    -0.8716301    0.2673846     0.0033085   -0.0092506    -0.0016064    0.0011394 
