! MS46524B
! 1918203/M1: 91020113/M2: 91020112
! 9/9/2020 2:28:19 PM
! C:\USERS\ANRITSUUSER\DESKTOP\2118 -5.S4P
! CHANNEL.1
! TR.MEASUREMENT
! CORRECTED.DATA
# GHZ S RI R 50.0
! FREQ.HZ          S11RE        S11IM         S12RE        S12IM         S13RE        S13IM         S14RE        S14IM         
!		       S21RE        S21IM         S22RE        S22IM         S23RE        S23IM         S24RE        S24IM         
!		       S31RE        S31IM         S32RE        S32IM         S33RE        S33IM         S34RE        S34IM         
!		       S41RE        S41IM         S42RE        S42IM         S43RE        S43IM         S44RE        S44IM         
!; PortSelection: Port_1234
      10000000     0.0202062   -0.0040677     0.9769680   -0.0860061     0.0009638    0.0041723    -0.0005267    0.0002830 
 		       0.9773894   -0.0864200     0.0197908   -0.0034123    -0.0005287    0.0002481     0.0009130    0.0042144
 		       0.0009093    0.0041144    -0.0005477    0.0002483     0.0223776   -0.0033250     0.9716753   -0.0862822
 		      -0.0005363    0.0002094     0.0008950    0.0041337     0.9703109   -0.0860811     0.0220873   -0.0028341
      20000000     0.0216429   -0.0100897     0.9631501   -0.1683975     0.0020869    0.0079649    -0.0004897    0.0006496 
 		       0.9634122   -0.1685092     0.0209445   -0.0087302    -0.0004835    0.0006311     0.0020648    0.0079597
 		       0.0020833    0.0079598    -0.0004962    0.0006439     0.0238923   -0.0093351     0.9579747   -0.1692154
 		      -0.0005124    0.0006589     0.0020388    0.0079871     0.9575673   -0.1681344     0.0229495   -0.0083899
      30000000     0.0225991   -0.0175450     0.9429939   -0.2483039     0.0038202    0.0115279    -0.0003256    0.0010901 
 		       0.9438239   -0.2483241     0.0214169   -0.0158361    -0.0003031    0.0010716     0.0037894    0.0115342
 		       0.0038241    0.0114850    -0.0003236    0.0010997     0.0244934   -0.0162965     0.9370942   -0.2494852
 		      -0.0003297    0.0010929     0.0037835    0.0114862     0.9359507   -0.2484339     0.0229708   -0.0148100
      40000000     0.0218914   -0.0253019     0.9167902   -0.3263362     0.0061638    0.0147331     0.0000239    0.0014760 
 		       0.9167424   -0.3261346     0.0198907   -0.0233876    -0.0000135    0.0014696     0.0060827    0.0147300
 		       0.0061592    0.0147068    -0.0000083    0.0014730     0.0243976   -0.0232963     0.9099665   -0.3264159
 		       0.0000221    0.0015022     0.0060237    0.0146646     0.9099086   -0.3256057     0.0224397   -0.0218117
      50000000     0.0195537   -0.0320752     0.8847376   -0.4007116     0.0089581    0.0174514     0.0004322    0.0017851 
 		       0.8839304   -0.4004135     0.0167904   -0.0299723     0.0004425    0.0017976     0.0088268    0.0175123
 		       0.0089391    0.0174404     0.0004559    0.0017691     0.0233909   -0.0303295     0.8774951   -0.4010617
 		       0.0004578    0.0017587     0.0087942    0.0174709     0.8775861   -0.3999418     0.0209613   -0.0294746
      60000000     0.0164890   -0.0385215     0.8465553   -0.4722507     0.0122244    0.0197504     0.0009767    0.0020157 
 		       0.8461726   -0.4727102     0.0128900   -0.0359115     0.0009477    0.0019686     0.0120180    0.0198187
 		       0.0122062    0.0196749     0.0008757    0.0019485     0.0208530   -0.0372710     0.8387809   -0.4722810
 		       0.0009475    0.0019619     0.0119741    0.0197976     0.8389279   -0.4712339     0.0177648   -0.0372781
      70000000     0.0112724   -0.0453664     0.8019640   -0.5403283     0.0157627    0.0213750     0.0016026    0.0019848 
 		       0.8017020   -0.5398396     0.0074850   -0.0418913     0.0015294    0.0020343     0.0155747    0.0215635
 		       0.0157532    0.0213691     0.0015016    0.0020479     0.0162192   -0.0437024     0.7947488   -0.5384445
 		       0.0015939    0.0020109     0.0154571    0.0215087     0.7945673   -0.5372882     0.0122267   -0.0441824
      80000000     0.0044473   -0.0517617     0.7527489   -0.6031883     0.0196011    0.0225502     0.0021974    0.0018675 
 		       0.7519053   -0.6030167     0.0006601   -0.0475398     0.0021493    0.0018754     0.0192762    0.0227340
 		       0.0195606    0.0224881     0.0021404    0.0019470     0.0097370   -0.0487764     0.7455913   -0.6012155
 		       0.0022885    0.0018874     0.0192606    0.0227200     0.7454055   -0.6009040     0.0052046   -0.0489691
      90000000    -0.0033419   -0.0568380     0.6982493   -0.6619019     0.0235892    0.0230350     0.0027700    0.0016230 
 		       0.6980707   -0.6616662    -0.0066832   -0.0515669     0.0026729    0.0016423     0.0232260    0.0233142
 		       0.0235551    0.0230021     0.0027497    0.0016321     0.0023535   -0.0529904     0.6909720   -0.6591348
 		       0.0028305    0.0015584     0.0232353    0.0232857     0.6912239   -0.6592928    -0.0027613   -0.0519805
     100000000    -0.0103236   -0.0606247     0.6388091   -0.7152789     0.0275794    0.0228522     0.0032505    0.0012132 
 		       0.6393955   -0.7163462    -0.0136947   -0.0541192     0.0032017    0.0013037     0.0271702    0.0232946
 		       0.0275493    0.0228340     0.0032435    0.0012675    -0.0050852   -0.0565851     0.6326736   -0.7129222
 		       0.0032543    0.0012064     0.0271641    0.0232723     0.6322691   -0.7122473    -0.0106124   -0.0537083
     110000000    -0.0174108   -0.0637238     0.5765517   -0.7635077     0.0315803    0.0220542     0.0037146    0.0007695 
 		       0.5765080   -0.7639116    -0.0211013   -0.0549872     0.0036925    0.0008303     0.0311324    0.0226475
 		       0.0314937    0.0221283     0.0036856    0.0008425    -0.0124955   -0.0595624     0.5691766   -0.7621363
 		       0.0037035    0.0007930     0.0310489    0.0225980     0.5698279   -0.7606124    -0.0183889   -0.0549708
     120000000    -0.0249991   -0.0652543     0.5101965   -0.8061205     0.0353658    0.0206822     0.0040974    0.0001493 
 		       0.5107415   -0.8072039    -0.0292779   -0.0534929     0.0040574    0.0002049     0.0349054    0.0213590
 		       0.0352579    0.0207379     0.0040705    0.0002078    -0.0194123   -0.0623534     0.5039886   -0.8037958
 		       0.0041029    0.0001853     0.0348267    0.0213602     0.5041974   -0.8036366    -0.0261090   -0.0564312
     130000000    -0.0331088   -0.0656372     0.4414502   -0.8432482     0.0389390    0.0188650     0.0042924   -0.0005503 
 		       0.4420782   -0.8434514    -0.0377563   -0.0507921     0.0042619   -0.0004886     0.0385132    0.0195251
 		       0.0389091    0.0187497     0.0042530   -0.0005359    -0.0265030   -0.0639536     0.4356932   -0.8400609
 		       0.0043165   -0.0005640     0.0384192    0.0195408     0.4344782   -0.8409495    -0.0341492   -0.0566859
     140000000    -0.0414528   -0.0656607     0.3699788   -0.8735521     0.0422666    0.0162893     0.0044208   -0.0012689 
 		       0.3706179   -0.8753166    -0.0460211   -0.0480080     0.0043262   -0.0012280     0.0417252    0.0172175
 		       0.0421416    0.0163197     0.0042929   -0.0012072    -0.0340594   -0.0634733     0.3628407   -0.8719463
 		       0.0044505   -0.0012669     0.0416359    0.0172394     0.3631906   -0.8713188    -0.0416916   -0.0554053
     150000000    -0.0501837   -0.0647534     0.2979062   -0.9002794     0.0450744    0.0132963     0.0043918   -0.0020339 
 		       0.2975429   -0.9008023    -0.0538866   -0.0452962     0.0042359   -0.0019988     0.0446682    0.0144256
 		       0.0449253    0.0134246     0.0043315   -0.0019551    -0.0418361   -0.0606981     0.2900526   -0.8972518
 		       0.0043992   -0.0021024     0.0445544    0.0144861     0.2902968   -0.8962946    -0.0491296   -0.0519696
     160000000    -0.0577313   -0.0620573     0.2209640   -0.9195613     0.0474897    0.0100510     0.0042238   -0.0029292 
 		       0.2217307   -0.9205120    -0.0596215   -0.0414215     0.0039826   -0.0027443     0.0470567    0.0112871
 		       0.0473950    0.0100047     0.0040346   -0.0028099    -0.0494195   -0.0566446     0.2151369   -0.9145603
 		       0.0042292   -0.0029722     0.0470051    0.0113363     0.2144271   -0.9153259    -0.0561922   -0.0472561
     170000000    -0.0636919   -0.0580401     0.1455295   -0.9315073     0.0493174    0.0063558     0.0037766   -0.0037000 
 		       0.1451610   -0.9324069    -0.0641096   -0.0361779     0.0036245   -0.0034865     0.0490672    0.0078809
 		       0.0492855    0.0063895     0.0036016   -0.0034737    -0.0563052   -0.0515229     0.1397390   -0.9265110
 		       0.0036920   -0.0037790     0.0489161    0.0078494     0.1390554   -0.9270744    -0.0618483   -0.0408375
     180000000    -0.0691071   -0.0532643     0.0680317   -0.9387909     0.0506683    0.0024962     0.0032069   -0.0043626 
 		       0.0691932   -0.9397668    -0.0673282   -0.0292715     0.0031154   -0.0040451     0.0505563    0.0041350
 		       0.0505974    0.0025062     0.0030612   -0.0040087    -0.0624385   -0.0465994     0.0622124   -0.9330060
 		       0.0031257   -0.0042891     0.0504742    0.0042173     0.0623808   -0.9331174    -0.0670645   -0.0337882
     190000000    -0.0743526   -0.0477106    -0.0072217   -0.9391525     0.0514775   -0.0015563     0.0025272   -0.0048925 
 		      -0.0079304   -0.9401391    -0.0707021   -0.0209763     0.0024693   -0.0045644     0.0513869    0.0003640
 		       0.0515160   -0.0015625     0.0024290   -0.0044304    -0.0676827   -0.0415425    -0.0134416   -0.9338526
 		       0.0025765   -0.0047770     0.0513966    0.0003823    -0.0135219   -0.9334782    -0.0713231   -0.0261618
     200000000    -0.0793503   -0.0416656    -0.0821403   -0.9334043     0.0517450   -0.0056975     0.0017789   -0.0053062 
 		      -0.0838138   -0.9345546    -0.0733698   -0.0126392     0.0017667   -0.0048921     0.0519013   -0.0036192
 		       0.0516892   -0.0056375     0.0017858   -0.0048194    -0.0719087   -0.0375697    -0.0900701   -0.9266090
 		       0.0018607   -0.0053680     0.0517739   -0.0036264    -0.0889692   -0.9274402    -0.0742930   -0.0179006
     210000000    -0.0826273   -0.0353164    -0.1590356   -0.9218619     0.0513038   -0.0097001     0.0009556   -0.0055447 
 		      -0.1591903   -0.9215063    -0.0741781   -0.0047640     0.0009679   -0.0051006     0.0516815   -0.0075116
 		       0.0513481   -0.0096531     0.0010951   -0.0051129    -0.0755879   -0.0327163    -0.1642952   -0.9150242
 		       0.0009268   -0.0056536     0.0516640   -0.0074686    -0.1641568   -0.9154957    -0.0755210   -0.0095152
     220000000    -0.0845402   -0.0299503    -0.2331360   -0.9044831     0.0504410   -0.0137834     0.0001726   -0.0056344 
 		      -0.2323028   -0.9046628    -0.0731269    0.0016100     0.0002538   -0.0051388     0.0510147   -0.0114485
 		       0.0503952   -0.0137326     0.0002588   -0.0052053    -0.0789069   -0.0273569    -0.2379957   -0.8968623
 		       0.0000908   -0.0056209     0.0509747   -0.0113450    -0.2382007   -0.8967093    -0.0750626   -0.0014478
     230000000    -0.0851709   -0.0248029    -0.3045950   -0.8808485     0.0490060   -0.0175673    -0.0006288   -0.0056305 
 		      -0.3040884   -0.8816459    -0.0705579    0.0075847    -0.0004421   -0.0051128     0.0497537   -0.0151405
 		       0.0488708   -0.0175504    -0.0004240   -0.0051773    -0.0812177   -0.0210917    -0.3082483   -0.8719353
 		      -0.0006406   -0.0055795     0.0497128   -0.0150720    -0.3095919   -0.8728904    -0.0726108    0.0062972
     240000000    -0.0849342   -0.0188758    -0.3732763   -0.8525550     0.0470514   -0.0211148    -0.0014730   -0.0054812 
 		      -0.3739140   -0.8521694    -0.0664247    0.0139858    -0.0012011   -0.0051367     0.0481959   -0.0185338
 		       0.0469981   -0.0210114    -0.0013310   -0.0050943    -0.0811923   -0.0146316    -0.3775838   -0.8440775
 		      -0.0014370   -0.0054312     0.0480006   -0.0185490    -0.3778404   -0.8440781    -0.0692770    0.0129693
     250000000    -0.0835631   -0.0129200    -0.4402348   -0.8191615     0.0445738   -0.0243335    -0.0022498   -0.0050501 
 		      -0.4387347   -0.8191295    -0.0611439    0.0208831    -0.0020552   -0.0047802     0.0460199   -0.0216945
 		       0.0446539   -0.0242642    -0.0020594   -0.0047510    -0.0802302   -0.0085424    -0.4447592   -0.8088772
 		      -0.0022355   -0.0050950     0.0459036   -0.0217758    -0.4441116   -0.8093389    -0.0655929    0.0196018
     260000000    -0.0823851   -0.0073959    -0.5038543   -0.7787306     0.0417615   -0.0271672    -0.0028059   -0.0045118 
 		      -0.5037290   -0.7797194    -0.0562892    0.0266618    -0.0027439   -0.0043464     0.0434476   -0.0244963
 		       0.0418247   -0.0271105    -0.0026417   -0.0042132    -0.0776864   -0.0034246    -0.5079364   -0.7688839
 		      -0.0028133   -0.0045471     0.0433756   -0.0245033    -0.5072090   -0.7698322    -0.0616752    0.0257392
     270000000    -0.0809840   -0.0013367    -0.5642371   -0.7345926     0.0385429   -0.0295606    -0.0032907   -0.0041880 
 		      -0.5636277   -0.7363333    -0.0517788    0.0310094    -0.0030638   -0.0036983     0.0406099   -0.0269982
 		       0.0385338   -0.0295149    -0.0030884   -0.0037051    -0.0745058    0.0012628    -0.5668024   -0.7245803
 		      -0.0032694   -0.0042124     0.0404886   -0.0270462    -0.5672538   -0.7247122    -0.0565139    0.0313807
     280000000    -0.0782099    0.0038470    -0.6193359   -0.6874106     0.0351176   -0.0313995    -0.0039005   -0.0036529 
 		      -0.6210597   -0.6868599    -0.0463313    0.0349333    -0.0034602   -0.0032076     0.0374461   -0.0289345
 		       0.0350443   -0.0314358    -0.0034767   -0.0032347    -0.0706053    0.0058491    -0.6231156   -0.6753367
 		      -0.0039446   -0.0036334     0.0373135   -0.0290023    -0.6231677   -0.6752032    -0.0499063    0.0360468
     290000000    -0.0735325    0.0070387    -0.6743411   -0.6328906     0.0315667   -0.0328129    -0.0042663   -0.0029635 
 		      -0.6742896   -0.6333706    -0.0390677    0.0361791    -0.0037247   -0.0026644     0.0341917   -0.0304394
 		       0.0314564   -0.0327830    -0.0037405   -0.0026675    -0.0667817    0.0098779    -0.6748405   -0.6221194
 		      -0.0042793   -0.0028400     0.0340091   -0.0304279    -0.6740536   -0.6214626    -0.0422084    0.0389310
     300000000    -0.0686065    0.0095046    -0.7231512   -0.5754386     0.0276280   -0.0337635    -0.0045137   -0.0021494 
 		      -0.7214501   -0.5766951    -0.0312466    0.0363353    -0.0039840   -0.0020573     0.0305877   -0.0314862
 		       0.0277177   -0.0335482    -0.0039184   -0.0020049    -0.0628532    0.0137723    -0.7221795   -0.5639310
 		      -0.0044403   -0.0021584     0.0305784   -0.0314440    -0.7222974   -0.5655543    -0.0339841    0.0403002
     310000000    -0.0637209    0.0110295    -0.7659283   -0.5158977     0.0238050   -0.0340493    -0.0043949   -0.0013734 
 		      -0.7653314   -0.5159134    -0.0238367    0.0359106    -0.0039639   -0.0013974     0.0270916   -0.0319754
 		       0.0238846   -0.0339629    -0.0039348   -0.0014150    -0.0590023    0.0167149    -0.7641912   -0.5049638
 		      -0.0043271   -0.0015399     0.0270638   -0.0319053    -0.7645901   -0.5031570    -0.0257698    0.0400366
     320000000    -0.0588111    0.0125288    -0.8035411   -0.4505708     0.0200458   -0.0337192    -0.0043142   -0.0008792 
 		      -0.8033740   -0.4517055    -0.0166655    0.0351111    -0.0039748   -0.0008210     0.0236330   -0.0318363
 		       0.0200315   -0.0337077    -0.0039104   -0.0008503    -0.0549536    0.0181582    -0.8016664   -0.4400954
 		      -0.0043384   -0.0009651     0.0236173   -0.0318471    -0.8019225   -0.4397239    -0.0180200    0.0391094
     330000000    -0.0536103    0.0128572    -0.8362582   -0.3830576     0.0164560   -0.0329719    -0.0040828   -0.0003593 
 		      -0.8369502   -0.3830972    -0.0100256    0.0326325    -0.0037226   -0.0002611     0.0201484   -0.0313074
 		       0.0163861   -0.0328754    -0.0037856   -0.0003129    -0.0506820    0.0182621    -0.8339876   -0.3736500
 		      -0.0041740   -0.0003537     0.0202182   -0.0313270    -0.8332114   -0.3726780    -0.0109248    0.0376142
     340000000    -0.0491354    0.0118675    -0.8644525   -0.3141774     0.0129163   -0.0316449    -0.0039311    0.0000670 
 		      -0.8648664   -0.3146694    -0.0042791    0.0284220    -0.0035025    0.0001325     0.0169374   -0.0303898
 		       0.0128676   -0.0316209    -0.0034621    0.0000985    -0.0460217    0.0171174    -0.8601741   -0.3031132
 		      -0.0038517    0.0001011     0.0169047   -0.0302805    -0.8608603   -0.3041885    -0.0040344    0.0347280
     350000000    -0.0448198    0.0104364    -0.8860121   -0.2444369     0.0097226   -0.0298787    -0.0036610    0.0004983 
 		      -0.8862755   -0.2445329     0.0011563    0.0232688    -0.0032419    0.0004120     0.0138910   -0.0288566
 		       0.0097393   -0.0297904    -0.0032014    0.0003909    -0.0410301    0.0149189    -0.8814948   -0.2329491
 		      -0.0036379    0.0004752     0.0140415   -0.0287583    -0.8814598   -0.2322142     0.0023316    0.0303375
     360000000    -0.0406538    0.0077241    -0.9020922   -0.1709668     0.0068834   -0.0276697    -0.0032332    0.0007611 
 		      -0.9022448   -0.1695414     0.0066480    0.0169405    -0.0030221    0.0006057     0.0111968   -0.0269560
 		       0.0068393   -0.0274831    -0.0029480    0.0007064    -0.0357142    0.0124081    -0.8970717   -0.1600886
 		      -0.0032635    0.0007578     0.0112609   -0.0268906    -0.8958575   -0.1597086     0.0077501    0.0240089
     370000000    -0.0374319    0.0041611    -0.9122607   -0.0975282     0.0043610   -0.0249931    -0.0028191    0.0009523 
 		      -0.9116750   -0.0966917     0.0111392    0.0097949    -0.0026516    0.0008621     0.0089442   -0.0246598
 		       0.0044325   -0.0249473    -0.0026587    0.0008552    -0.0310488    0.0094380    -0.9060853   -0.0878808
 		      -0.0028657    0.0009322     0.0088789   -0.0246557    -0.9062701   -0.0876740     0.0114878    0.0161040
     380000000    -0.0355750    0.0002601    -0.9160499   -0.0237711     0.0023332   -0.0219744    -0.0024646    0.0009631 
 		      -0.9152653   -0.0225985     0.0133906    0.0025779    -0.0022794    0.0009516     0.0069946   -0.0220338
 		       0.0023985   -0.0219956    -0.0022963    0.0009402    -0.0276267    0.0062697    -0.9086328   -0.0138109
 		      -0.0024675    0.0009901     0.0069819   -0.0220115    -0.9091754   -0.0126205     0.0143832    0.0077227
     390000000    -0.0339025   -0.0034023    -0.9141203    0.0501799     0.0009083   -0.0188818    -0.0022890    0.0008631 
 		      -0.9132725    0.0502080     0.0134180   -0.0045641    -0.0019981    0.0008672     0.0055149   -0.0193083
 		       0.0008235   -0.0188516    -0.0019830    0.0009039    -0.0262427    0.0028215    -0.9059203    0.0608506
 		      -0.0022264    0.0009157     0.0055811   -0.0191992    -0.9059211    0.0608961     0.0167424   -0.0001710
     400000000    -0.0314056   -0.0079675    -0.9061572    0.1242863    -0.0001288   -0.0154990    -0.0020117    0.0008238 
 		      -0.9061509    0.1241369     0.0135068   -0.0116277    -0.0018182    0.0008187     0.0046107   -0.0162554
 		      -0.0001446   -0.0155281    -0.0018300    0.0007466    -0.0265262   -0.0009048    -0.8970340    0.1342058
 		      -0.0020447    0.0008799     0.0046683   -0.0162673    -0.8972131    0.1332091     0.0183298   -0.0082562
     410000000    -0.0301927   -0.0139286    -0.8915041    0.1982036    -0.0005503   -0.0121298    -0.0018923    0.0007622 
 		      -0.8928567    0.1975318     0.0122081   -0.0201562    -0.0017351    0.0006239     0.0041763   -0.0132561
 		      -0.0005418   -0.0120594    -0.0017841    0.0005658    -0.0279613   -0.0051676    -0.8819963    0.2063534
 		      -0.0018770    0.0006737     0.0042141   -0.0132201    -0.8824884    0.2063270     0.0191058   -0.0170056
     420000000    -0.0309570   -0.0196393    -0.8716559    0.2681967    -0.0004411   -0.0086482    -0.0017885    0.0005647 
