! MS46524B
! 1918203/M1: 91020113/M2: 91020112
! 9/9/2020 2:28:19 PM
! C:\USERS\ANRITSUUSER\DESKTOP\2118 -5.S4P
! CHANNEL.1
! TR.MEASUREMENT
! CORRECTED.DATA
# GHZ S RI R 50.0
! FREQ.HZ          S11RE        S11IM         S12RE        S12IM         S13RE        S13IM         S14RE        S14IM         
!		       S21RE        S21IM         S22RE        S22IM         S23RE        S23IM         S24RE        S24IM         
!		       S31RE        S31IM         S32RE        S32IM         S33RE        S33IM         S34RE        S34IM         
!		       S41RE        S41IM         S42RE        S42IM         S43RE        S43IM         S44RE        S44IM         
!; PortSelection: Port_1234
      10000000     0.0096225   -0.0024467     0.9899453   -0.0454059     0.0003235    0.0019370    -0.0002730    0.0000759 
 		       0.9911848   -0.0455078     0.0093508   -0.0019784    -0.0001712    0.0001004     0.0002798    0.0018914
 		       0.0003213    0.0018356    -0.0001530    0.0000342     0.0116359   -0.0017277     0.9851201   -0.0459603
 		      -0.0002151    0.0001294     0.0003289    0.0018450     0.9841270   -0.0453149     0.0114113   -0.0012791
      20000000     0.0103806   -0.0054103     0.9857293   -0.0891258     0.0006150    0.0036087    -0.0002325    0.0002412 
 		       0.9862885   -0.0889975     0.0100542   -0.0044720    -0.0002398    0.0002385     0.0006039    0.0036495
 		       0.0006134    0.0036475    -0.0002594    0.0002114     0.0125588   -0.0050397     0.9808889   -0.0901337
 		      -0.0002196    0.0002657     0.0006021    0.0036398     0.9802210   -0.0897873     0.0119235   -0.0039649
      30000000     0.0116509   -0.0091918     0.9797930   -0.1326724     0.0010957    0.0053351    -0.0002417    0.0004393 
 		       0.9802991   -0.1320975     0.0112233   -0.0081933    -0.0002150    0.0004351     0.0010745    0.0053195
 		       0.0010531    0.0053299    -0.0002373    0.0004565     0.0133668   -0.0085081     0.9741075   -0.1340281
 		      -0.0002507    0.0004353     0.0010439    0.0053089     0.9732356   -0.1333844     0.0124085   -0.0070021
      40000000     0.0122322   -0.0133276     0.9723633   -0.1753947     0.0016493    0.0070013    -0.0001833    0.0006221 
 		       0.9723192   -0.1751759     0.0115668   -0.0125668    -0.0001746    0.0006409     0.0016502    0.0069777
 		       0.0016344    0.0069926    -0.0001763    0.0006466     0.0142779   -0.0118420     0.9662176   -0.1769434
 		      -0.0001845    0.0006637     0.0016283    0.0069752     0.9654949   -0.1758287     0.0134287   -0.0103731
      50000000     0.0119902   -0.0167263     0.9633923   -0.2174051     0.0023859    0.0085955    -0.0000879    0.0008599 
 		       0.9624346   -0.2174986     0.0111320   -0.0163938    -0.0000975    0.0008617     0.0024034    0.0086082
 		       0.0023685    0.0086067    -0.0000537    0.0008162     0.0151306   -0.0152131     0.9560922   -0.2194187
 		      -0.0001057    0.0008155     0.0023631    0.0086016     0.9558519   -0.2184782     0.0145331   -0.0144866
      60000000     0.0116427   -0.0199968     0.9516514   -0.2593981     0.0032302    0.0101287     0.0000123    0.0010231 
 		       0.9509333   -0.2594211     0.0106698   -0.0199765     0.0000697    0.0009945     0.0032460    0.0101125
 		       0.0032182    0.0101358     0.0000715    0.0009931     0.0155162   -0.0188315     0.9444243   -0.2609693
 		       0.0000115    0.0010087     0.0032190    0.0101237     0.9439668   -0.2600064     0.0153292   -0.0193464
      70000000     0.0104608   -0.0240098     0.9374683   -0.3008406     0.0041774    0.0115727     0.0001870    0.0011831 
 		       0.9378821   -0.3002604     0.0097449   -0.0240995     0.0002463    0.0011944     0.0042619    0.0115748
 		       0.0042140    0.0115861     0.0001735    0.0011823     0.0147007   -0.0227025     0.9308245   -0.3009184
 		       0.0001811    0.0011982     0.0041985    0.0115602     0.9302670   -0.2996321     0.0148758   -0.0245766
      80000000     0.0083206   -0.0287462     0.9236173   -0.3408656     0.0053747    0.0129701     0.0004119    0.0013298 
 		       0.9218531   -0.3404067     0.0082249   -0.0290578     0.0003915    0.0012955     0.0053618    0.0129335
 		       0.0053567    0.0129651     0.0003723    0.0013604     0.0124684   -0.0262460     0.9155646   -0.3411099
 		       0.0004414    0.0013188     0.0053452    0.0129468     0.9153386   -0.3408567     0.0130023   -0.0288578
      90000000     0.0052281   -0.0332461     0.9057204   -0.3803961     0.0065639    0.0141924     0.0005974    0.0014109 
 		       0.9059470   -0.3799607     0.0062471   -0.0336449     0.0006386    0.0013874     0.0066015    0.0142059
 		       0.0065980    0.0142067     0.0006173    0.0014383     0.0093828   -0.0296380     0.8986263   -0.3800934
 		       0.0006095    0.0014337     0.0066145    0.0142047     0.8986795   -0.3802344     0.0103045   -0.0324191
     100000000     0.0026266   -0.0368206     0.8871086   -0.4180668     0.0079425    0.0153905     0.0008266    0.0014962 
 		       0.8882555   -0.4189957     0.0044911   -0.0374790     0.0008356    0.0015041     0.0079508    0.0153885
 		       0.0079370    0.0153313     0.0008430    0.0014926     0.0063424   -0.0330147     0.8801796   -0.4186177
 		       0.0007952    0.0014622     0.0078643    0.0153526     0.8799009   -0.4183802     0.0074083   -0.0354199
     110000000     0.0002742   -0.0402681     0.8677073   -0.4565946     0.0094089    0.0164444     0.0010333    0.0015613 
 		       0.8682303   -0.4564674     0.0024735   -0.0407852     0.0010480    0.0015390     0.0093706    0.0164190
 		       0.0093549    0.0163905     0.0010739    0.0015510     0.0035000   -0.0365562     0.8596330   -0.4577587
 		       0.0010414    0.0015779     0.0093580    0.0163478     0.8604417   -0.4575579     0.0045943   -0.0386060
     120000000    -0.0025397   -0.0433582     0.8454443   -0.4923150     0.0109188    0.0173575     0.0012909    0.0016410 
 		       0.8466416   -0.4929913    -0.0008486   -0.0434286     0.0013193    0.0016309     0.0109037    0.0173618
 		       0.0108813    0.0173343     0.0013378    0.0016231     0.0016185   -0.0400718     0.8388124   -0.4933593
 		       0.0012752    0.0016359     0.0108457    0.0172788     0.8389954   -0.4917268     0.0027012   -0.0423268
     130000000    -0.0057897   -0.0462793     0.8224231   -0.5280436     0.0124954    0.0181766     0.0015959    0.0016287 
 		       0.8229988   -0.5284600    -0.0051875   -0.0455656     0.0016244    0.0015899     0.0125361    0.0181340
 		       0.0124860    0.0181285     0.0016409    0.0015645    -0.0004068   -0.0437053     0.8159604   -0.5279809
 		       0.0015861    0.0015959     0.0124702    0.0181080     0.8160877   -0.5277539     0.0001972   -0.0466853
     140000000    -0.0092999   -0.0494844     0.7982252   -0.5623938     0.0141918    0.0188369     0.0018515    0.0016185 
 		       0.7989031   -0.5624465    -0.0096151   -0.0481960     0.0019209    0.0015065     0.0142377    0.0188079
 		       0.0141816    0.0188101     0.0018630    0.0015065    -0.0031302   -0.0465681     0.7908736   -0.5632512
 		       0.0018442    0.0016136     0.0141607    0.0188103     0.7905558   -0.5638109    -0.0023886   -0.0507132
     150000000    -0.0131551   -0.0532847     0.7734440   -0.5950972     0.0159473    0.0193995     0.0021224    0.0015796 
 		       0.7730319   -0.5960811    -0.0138126   -0.0518778     0.0021320    0.0014129     0.0159508    0.0193770
 		       0.0158613    0.0193254     0.0021758    0.0014936    -0.0069564   -0.0487631     0.7653158   -0.5965486
 		       0.0021567    0.0015614     0.0158878    0.0193182     0.7650674   -0.5955408    -0.0057387   -0.0542235
     160000000    -0.0175602   -0.0562560     0.7453650   -0.6280109     0.0177426    0.0197941     0.0024915    0.0014206 
 		       0.7459994   -0.6288976    -0.0176036   -0.0550386     0.0024136    0.0012990     0.0177790    0.0196786
 		       0.0176596    0.0197185     0.0024522    0.0013676    -0.0116397   -0.0500757     0.7367871   -0.6279457
 		       0.0025202    0.0013931     0.0176970    0.0197281     0.7370834   -0.6282409    -0.0095142   -0.0573235
     170000000    -0.0218072   -0.0578279     0.7171432   -0.6585020     0.0195984    0.0200197     0.0027670    0.0012595 
 		       0.7166984   -0.6590952    -0.0209827   -0.0573783     0.0026890    0.0011869     0.0195252    0.0199883
 		       0.0194801    0.0199550     0.0026893    0.0011942    -0.0168735   -0.0505978     0.7086074   -0.6578563
 		       0.0027710    0.0011832     0.0194902    0.0199330     0.7081210   -0.6584629    -0.0135158   -0.0594101
     180000000    -0.0258068   -0.0585587     0.6864780   -0.6888164     0.0214440    0.0201378     0.0030373    0.0010748 
 		       0.6878607   -0.6886636    -0.0244790   -0.0584504     0.0029328    0.0009539     0.0213791    0.0200727
 		       0.0213386    0.0200747     0.0028965    0.0009479    -0.0222704   -0.0509801     0.6782858   -0.6882758
 		       0.0029933    0.0010672     0.0213264    0.0201025     0.6786399   -0.6879424    -0.0179209   -0.0613896
     190000000    -0.0303122   -0.0594518     0.6559247   -0.7165661     0.0232539    0.0201074     0.0032567    0.0008298 
 		       0.6567712   -0.7168751    -0.0290745   -0.0592367     0.0031795    0.0007551     0.0233002    0.0200364
 		       0.0232207    0.0200684     0.0030634    0.0007719    -0.0273304   -0.0514068     0.6474437   -0.7165719
 		       0.0031833    0.0008911     0.0231649    0.0200516     0.6477636   -0.7152060    -0.0227720   -0.0631473
     200000000    -0.0357621   -0.0606157     0.6244109   -0.7423679     0.0250799    0.0198559     0.0035120    0.0005578 
 		       0.6245607   -0.7442095    -0.0349813   -0.0599128     0.0033652    0.0004822     0.0251616    0.0198015
 		       0.0250398    0.0198598     0.0033208    0.0005572    -0.0315953   -0.0522764     0.6147766   -0.7423876
 		       0.0034972    0.0006324     0.0250276    0.0198303     0.6153522   -0.7425542    -0.0282258   -0.0646522
     210000000    -0.0417048   -0.0609903     0.5903986   -0.7685391     0.0269300    0.0194770     0.0036648    0.0002947 
 		       0.5903149   -0.7689673    -0.0408785   -0.0599850     0.0035677    0.0001502     0.0269160    0.0195574
 		       0.0269295    0.0195509     0.0035335    0.0002493    -0.0361767   -0.0534449     0.5827529   -0.7667115
 		       0.0036983    0.0002355     0.0268969    0.0195629     0.5825881   -0.7675180    -0.0337004   -0.0656821
     220000000    -0.0464080   -0.0612516     0.5571361   -0.7924342     0.0288057    0.0190086     0.0038082   -0.0000245 
 		       0.5565257   -0.7919849    -0.0456819   -0.0603129     0.0036426   -0.0000859     0.0288090    0.0190535
 		       0.0287853    0.0190975     0.0036799   -0.0000767    -0.0405822   -0.0545306     0.5475057   -0.7914513
 		       0.0037889   -0.0000904     0.0287211    0.0191091     0.5473084   -0.7913841    -0.0387908   -0.0660162
     230000000    -0.0501739   -0.0614764     0.5207623   -0.8139551     0.0305703    0.0184451     0.0040218   -0.0003673 
 		       0.5214488   -0.8148256    -0.0493523   -0.0605508     0.0037379   -0.0003622     0.0306002    0.0183692
 		       0.0305895    0.0184800     0.0037723   -0.0003289    -0.0454405   -0.0556413     0.5118858   -0.8128217
 		       0.0039330   -0.0003097     0.0305438    0.0184636     0.5122033   -0.8130802    -0.0435464   -0.0652792
     240000000    -0.0537546   -0.0611410     0.4855208   -0.8347169     0.0324140    0.0178293     0.0041703   -0.0006936 
 		       0.4851991   -0.8358423    -0.0527427   -0.0600639     0.0039089   -0.0007009     0.0324303    0.0176843
 		       0.0323378    0.0177178     0.0039733   -0.0007143    -0.0504912   -0.0555155     0.4761240   -0.8330469
 		       0.0041102   -0.0006875     0.0323237    0.0176995     0.4760373   -0.8341956    -0.0476334   -0.0643837
     250000000    -0.0579844   -0.0596986     0.4509308   -0.8539612     0.0340957    0.0168311     0.0041076   -0.0011435 
 		       0.4506552   -0.8532196    -0.0570563   -0.0579241     0.0040319   -0.0010526     0.0341446    0.0167459
 		       0.0340737    0.0169107     0.0040319   -0.0011598    -0.0552263   -0.0548733     0.4395289   -0.8519120
 		       0.0040939   -0.0011650     0.0340501    0.0167856     0.4398882   -0.8524987    -0.0519879   -0.0634691
     260000000    -0.0621154   -0.0581968     0.4111159   -0.8717763     0.0357946    0.0157909     0.0041293   -0.0014319 
 		       0.4123380   -0.8712933    -0.0614558   -0.0556435     0.0039766   -0.0016144     0.0356802    0.0158502
 		       0.0357539    0.0158579     0.0038719   -0.0015952    -0.0592579   -0.0534619     0.4027725   -0.8687869
 		       0.0041199   -0.0014324     0.0357060    0.0158576     0.4025040   -0.8694904    -0.0568859   -0.0627403
     270000000    -0.0666393   -0.0572689     0.3747126   -0.8865598     0.0373575    0.0146310     0.0041713   -0.0017388 
 		       0.3762851   -0.8867132    -0.0657831   -0.0539763     0.0038790   -0.0019356     0.0373678    0.0147343
 		       0.0373590    0.0146437     0.0039758   -0.0018458    -0.0627977   -0.0514794     0.3639885   -0.8848755
 		       0.0041604   -0.0017335     0.0372405    0.0147012     0.3642950   -0.8836492    -0.0620396   -0.0620104
     280000000    -0.0721774   -0.0563545     0.3366355   -0.9010724     0.0388387    0.0134342     0.0042383   -0.0022128 
 		       0.3363897   -0.9018894    -0.0711336   -0.0527720     0.0038432   -0.0022468     0.0388093    0.0133749
 		       0.0389331    0.0133679     0.0038732   -0.0022578    -0.0658946   -0.0487185     0.3255202   -0.8979818
 		       0.0042544   -0.0022780     0.0388277    0.0134096     0.3253622   -0.8984023    -0.0676569   -0.0605425
     290000000    -0.0764566   -0.0538788     0.2972929   -0.9146070     0.0402832    0.0120937     0.0042155   -0.0027395 
 		       0.2973296   -0.9150901    -0.0750804   -0.0510013     0.0038529   -0.0025620     0.0402192    0.0120278
 		       0.0402565    0.0120811     0.0038128   -0.0025721    -0.0686560   -0.0458894     0.2868696   -0.9097489
 		       0.0041393   -0.0028184     0.0402795    0.0120485     0.2873470   -0.9097071    -0.0727117   -0.0585368
     300000000    -0.0799092   -0.0510345     0.2572409   -0.9253089     0.0416088    0.0105538     0.0039682   -0.0031875 
 		       0.2582511   -0.9251088    -0.0785439   -0.0482841     0.0037061   -0.0030404     0.0415655    0.0105798
 		       0.0415927    0.0106378     0.0036535   -0.0030105    -0.0727125   -0.0422757     0.2467146   -0.9203563
 		       0.0038709   -0.0031609     0.0415555    0.0106201     0.2475610   -0.9213735    -0.0772685   -0.0558773
     310000000    -0.0826522   -0.0479114     0.2186592   -0.9346787     0.0429194    0.0091474     0.0036782   -0.0035421 
 		       0.2186332   -0.9349007    -0.0811214   -0.0450485     0.0035507   -0.0034129     0.0428492    0.0089601
 		       0.0428518    0.0091225     0.0034799   -0.0033615    -0.0767977   -0.0389771     0.2078580   -0.9284446
 		       0.0037173   -0.0034665     0.0428216    0.0090258     0.2068241   -0.9295688    -0.0804609   -0.0527358
     320000000    -0.0863338   -0.0443648     0.1781562   -0.9413500     0.0440083    0.0074251     0.0034655   -0.0038254 
 		       0.1772027   -0.9420529    -0.0849218   -0.0415231     0.0032266   -0.0038460     0.0439620    0.0073673
 		       0.0439593    0.0074629     0.0033146   -0.0037093    -0.0813170   -0.0355416     0.1684528   -0.9360389
 		       0.0035755   -0.0038182     0.0439120    0.0074425     0.1664272   -0.9367822    -0.0839082   -0.0492967
     330000000    -0.0896015   -0.0406634     0.1367208   -0.9472790     0.0449800    0.0056348     0.0032623   -0.0040765 
 		       0.1363254   -0.9469734    -0.0884512   -0.0380325     0.0029635   -0.0041237     0.0450062    0.0056579
 		       0.0450383    0.0056595     0.0029797   -0.0041298    -0.0855350   -0.0324811     0.1276397   -0.9424768
 		       0.0032344   -0.0042414     0.0448862    0.0056850     0.1264785   -0.9407208    -0.0872016   -0.0460935
     340000000    -0.0924490   -0.0372774     0.0971727   -0.9516413     0.0459289    0.0038753     0.0031058   -0.0045075 
 		       0.0982869   -0.9517757    -0.0917883   -0.0348175     0.0026378   -0.0044629     0.0459645    0.0037875
 		       0.0459327    0.0038976     0.0026537   -0.0044825    -0.0886851   -0.0294559     0.0858780   -0.9445519
 		       0.0028939   -0.0044992     0.0458749    0.0038419     0.0882343   -0.9446500    -0.0913338   -0.0423817
     350000000    -0.0950081   -0.0340876     0.0586973   -0.9534190     0.0467673    0.0021445     0.0027640   -0.0049401 
 		       0.0580016   -0.9542803    -0.0944017   -0.0321069     0.0023443   -0.0046767     0.0466871    0.0019858
 		       0.0466972    0.0020333     0.0023561   -0.0047995    -0.0907280   -0.0265990     0.0470142   -0.9461846
 		       0.0028687   -0.0048243     0.0466699    0.0020604     0.0457933   -0.9473259    -0.0954346   -0.0379369
     360000000    -0.0971262   -0.0298677     0.0164963   -0.9537455     0.0474606    0.0001517     0.0022778   -0.0053424 
 		       0.0154937   -0.9554126    -0.0959992   -0.0280893     0.0020771   -0.0049976     0.0474397    0.0000115
 		       0.0473061    0.0000804     0.0020750   -0.0049890    -0.0921390   -0.0230753     0.0069258   -0.9473842
 		       0.0024183   -0.0053038     0.0473140    0.0001447     0.0058314   -0.9464175    -0.0992776   -0.0335927
     370000000    -0.0989337   -0.0250354    -0.0242997   -0.9541419     0.0479038   -0.0018917     0.0017950   -0.0054534 
 		      -0.0254166   -0.9526868    -0.0969501   -0.0236195     0.0017066   -0.0052648     0.0479664   -0.0018881
 		       0.0478819   -0.0017644     0.0016860   -0.0052938    -0.0933291   -0.0175863    -0.0340479   -0.9457930
 		       0.0019109   -0.0055194     0.0478024   -0.0019488    -0.0340828   -0.9456126    -0.1016741   -0.0296711
     380000000    -0.0992431   -0.0209930    -0.0633494   -0.9512448     0.0483143   -0.0038782     0.0014276   -0.0055625 
 		      -0.0640221   -0.9500648    -0.0978444   -0.0177110     0.0011967   -0.0055057     0.0482729   -0.0038993
 		       0.0482506   -0.0037798     0.0012049   -0.0054613    -0.0935929   -0.0118050    -0.0731735   -0.9417469
 		       0.0013786   -0.0055750     0.0481375   -0.0038098    -0.0734220   -0.9426029    -0.1030037   -0.0260509
     390000000    -0.1007624   -0.0174785    -0.1042224   -0.9467618     0.0486346   -0.0058013     0.0011254   -0.0057807 
 		      -0.1034979   -0.9453115    -0.0980745   -0.0129162     0.0006376   -0.0055255     0.0485764   -0.0059715
 		       0.0485360   -0.0057925     0.0006894   -0.0055543    -0.0944442   -0.0058407    -0.1133045   -0.9372103
 		       0.0010906   -0.0058092     0.0485456   -0.0058574    -0.1137953   -0.9375206    -0.1047117   -0.0223213
     400000000    -0.1028829   -0.0135054    -0.1429154   -0.9406047     0.0486807   -0.0078676     0.0006841   -0.0060813 
 		      -0.1433091   -0.9411477    -0.1000529   -0.0087091     0.0002532   -0.0056167     0.0486067   -0.0079195
 		       0.0487243   -0.0078615     0.0002479   -0.0055582    -0.0952449   -0.0004371    -0.1527253   -0.9307687
 		       0.0007075   -0.0059155     0.0486484   -0.0079208    -0.1530032   -0.9305319    -0.1058214   -0.0181518
     410000000    -0.1043745   -0.0085897    -0.1826953   -0.9333817     0.0487687   -0.0099034     0.0001976   -0.0062334 
 		      -0.1819683   -0.9343144    -0.1017144   -0.0044223    -0.0002158   -0.0056537     0.0486465   -0.0101031
 		       0.0486442   -0.0099710    -0.0001683   -0.0055936    -0.0956620    0.0045737    -0.1923814   -0.9225041
 		       0.0002450   -0.0062006     0.0486650   -0.0099654    -0.1909793   -0.9233657    -0.1081321   -0.0135763
     420000000    -0.1042271   -0.0036205    -0.2204713   -0.9238207     0.0486461   -0.0120417    -0.0003917   -0.0062193 
