! MS46524B
! 1918203/M1: 91020113/M2: 91020112
! 9/9/2020 2:28:19 PM
! C:\USERS\ANRITSUUSER\DESKTOP\2118 -5.S4P
! CHANNEL.1
! TR.MEASUREMENT
! CORRECTED.DATA
# GHZ S RI R 50.0
! FREQ.GHZ         S11RE        S11IM         S12RE        S12IM         S13RE        S13IM         S14RE        S14IM         
!		       S21RE        S21IM         S22RE        S22IM         S23RE        S23IM         S24RE        S24IM         
!		       S31RE        S31IM         S32RE        S32IM         S33RE        S33IM         S34RE        S34IM         
!		       S41RE        S41IM         S42RE        S42IM         S43RE        S43IM         S44RE        S44IM         
!; PortSelection: Port_1234
   0.010000000     0.0216842   -0.0022561     0.9722214   -0.0854757     0.0010308    0.0041955    -0.0005816    0.0000906 
 		       0.9734204   -0.0856552     0.0216339   -0.0017614    -0.0005771    0.0000841     0.0010402    0.0042473
 		       0.0009495    0.0042069    -0.0005912    0.0001218     0.0218991   -0.0020995     0.9735109   -0.0870224
 		      -0.0006369    0.0001713     0.0009891    0.0041655     0.9722211   -0.0858984     0.0217650   -0.0015605
   0.020000000     0.0240579   -0.0069059     0.9594811   -0.1678970     0.0021741    0.0079709    -0.0006563    0.0004778 
 		       0.9593915   -0.1682587     0.0237505   -0.0057786    -0.0006318    0.0005151     0.0022458    0.0079656
 		       0.0021640    0.0080147    -0.0006768    0.0005195     0.0235977   -0.0072609     0.9595410   -0.1694060
 		      -0.0006896    0.0004757     0.0022263    0.0080029     0.9589726   -0.1684578     0.0230676   -0.0063803
   0.030000000     0.0256297   -0.0131059     0.9389263   -0.2484458     0.0039089    0.0115040    -0.0005447    0.0008941 
 		       0.9390142   -0.2480658     0.0252547   -0.0116889    -0.0005374    0.0008816     0.0039998    0.0114818
 		       0.0039080    0.0115556    -0.0005467    0.0009218     0.0241726   -0.0133257     0.9386491   -0.2495310
 		      -0.0005436    0.0009014     0.0039527    0.0115310     0.9379840   -0.2486358     0.0233436   -0.0119353
   0.040000000     0.0254688   -0.0195140     0.9124458   -0.3262774     0.0061524    0.0147213    -0.0003019    0.0012602 
 		       0.9123994   -0.3260925     0.0252081   -0.0179657    -0.0002986    0.0012427     0.0062779    0.0146365
 		       0.0061389    0.0147372    -0.0002756    0.0013077     0.0240112   -0.0195258     0.9118915   -0.3266034
 		      -0.0002908    0.0012733     0.0062538    0.0146955     0.9118176   -0.3251542     0.0230382   -0.0179210
   0.050000000     0.0238455   -0.0253426     0.8801523   -0.3997989     0.0088817    0.0174772     0.0000831    0.0015679 
 		       0.8800272   -0.3997574     0.0238983   -0.0237071     0.0000456    0.0015702     0.0090902    0.0173864
 		       0.0088852    0.0175603     0.0000530    0.0015319     0.0229953   -0.0258137     0.8785585   -0.4006008
 		       0.0000925    0.0015466     0.0090261    0.0174685     0.8791465   -0.3999197     0.0222335   -0.0243448
   0.060000000     0.0211284   -0.0311131     0.8415542   -0.4713643     0.0120561    0.0197824     0.0005136    0.0017515 
 		       0.8410279   -0.4709524     0.0216152   -0.0295336     0.0005088    0.0017269     0.0123070    0.0196444
 		       0.0120863    0.0198538     0.0005055    0.0017353     0.0206451   -0.0320455     0.8406367   -0.4716031
 		       0.0004627    0.0017453     0.0122588    0.0197087     0.8406186   -0.4706064     0.0202661   -0.0310837
   0.070000000     0.0169541   -0.0372569     0.7973776   -0.5383652     0.0156461    0.0215551     0.0010253    0.0017836 
 		       0.7967139   -0.5382281     0.0179223   -0.0355333     0.0009882    0.0018308     0.0158664    0.0213336
 		       0.0155719    0.0216620     0.0009773    0.0018534     0.0164962   -0.0378007     0.7965197   -0.5374023
 		       0.0009925    0.0018716     0.0158549    0.0214021     0.7964056   -0.5370077     0.0166859   -0.0377246
   0.080000000     0.0112746   -0.0429732     0.7474833   -0.6013214     0.0193936    0.0227942     0.0015366    0.0017563 
 		       0.7477837   -0.6015386     0.0129518   -0.0411869     0.0015204    0.0017699     0.0196818    0.0224550
 		       0.0193362    0.0228847     0.0015410    0.0018144     0.0110785   -0.0426521     0.7480539   -0.6007637
 		       0.0016150    0.0018118     0.0196879    0.0225653     0.7479579   -0.6006863     0.0118253   -0.0430497
   0.090000000     0.0050416   -0.0477690     0.6933267   -0.6591909     0.0232663    0.0233354     0.0020687    0.0016158 
 		       0.6930914   -0.6594960     0.0074054   -0.0458535     0.0020131    0.0015926     0.0235892    0.0229789
 		       0.0232660    0.0234649     0.0020842    0.0016071     0.0047781   -0.0466074     0.6934934   -0.6591569
 		       0.0021282    0.0015898     0.0236201    0.0230702     0.6937718   -0.6592732     0.0058867   -0.0474497
   0.100000000    -0.0007231   -0.0514029     0.6347943   -0.7138209     0.0272770    0.0233330     0.0025947    0.0013314 
 		       0.6350418   -0.7133396     0.0021771   -0.0494894     0.0024850    0.0013771     0.0275892    0.0228467
 		       0.0272155    0.0234560     0.0024958    0.0013395    -0.0017867   -0.0498132     0.6350446   -0.7124009
 		       0.0025761    0.0013257     0.0276329    0.0229235     0.6354184   -0.7125608    -0.0006097   -0.0508626
   0.110000000    -0.0072461   -0.0537476     0.5728949   -0.7616566     0.0311178    0.0227325     0.0030590    0.0008878 
 		       0.5722044   -0.7610275    -0.0038087   -0.0520027     0.0029477    0.0009932     0.0316085    0.0220171
 		       0.0312222    0.0228599     0.0029358    0.0010293    -0.0084806   -0.0522338     0.5716077   -0.7615565
 		       0.0030532    0.0009210     0.0315484    0.0221351     0.5716119   -0.7611879    -0.0075365   -0.0532704
   0.120000000    -0.0146785   -0.0543845     0.5056777   -0.8031776     0.0349277    0.0214485     0.0034489    0.0003060 
 		       0.5064574   -0.8038717    -0.0108453   -0.0529077     0.0033118    0.0004569     0.0353224    0.0206354
 		       0.0349975    0.0216054     0.0033460    0.0004567    -0.0149751   -0.0543023     0.5052869   -0.8041053
 		       0.0034512    0.0003338     0.0353987    0.0207719     0.5072003   -0.8034953    -0.0144493   -0.0552857
   0.130000000    -0.0225541   -0.0538340     0.4373968   -0.8411293     0.0384922    0.0196450     0.0036076   -0.0003606 
 		       0.4372403   -0.8404518    -0.0182170   -0.0529635     0.0035873   -0.0001754     0.0388324    0.0186734
 		       0.0385653    0.0198495     0.0035809   -0.0001891    -0.0219105   -0.0553021     0.4373652   -0.8398104
 		       0.0035755   -0.0003038     0.0389226    0.0188090     0.4377285   -0.8408259    -0.0220746   -0.0561808
   0.140000000    -0.0302990   -0.0528572     0.3665250   -0.8724256     0.0417860    0.0174187     0.0036655   -0.0009574 
 		       0.3666027   -0.8718671    -0.0255372   -0.0530867     0.0036442   -0.0008023     0.0421331    0.0162213
 		       0.0418687    0.0175004     0.0036390   -0.0007788    -0.0291711   -0.0544409     0.3678178   -0.8713377
 		       0.0036372   -0.0009398     0.0421677    0.0163293     0.3667954   -0.8712005    -0.0292604   -0.0552721
   0.150000000    -0.0379341   -0.0508377     0.2938184   -0.8976591     0.0447097    0.0147074     0.0036192   -0.0016683 
 		       0.2936552   -0.8968785    -0.0326762   -0.0526784     0.0035889   -0.0015157     0.0449342    0.0133411
 		       0.0447706    0.0148240     0.0036737   -0.0014812    -0.0365844   -0.0520607     0.2930510   -0.8965783
 		       0.0036265   -0.0016385     0.0450404    0.0134926     0.2938876   -0.8967245    -0.0356364   -0.0528474
   0.160000000    -0.0439728   -0.0479283     0.2177726   -0.9158522     0.0470942    0.0114719     0.0034027   -0.0023302 
 		       0.2170841   -0.9162974    -0.0381837   -0.0513656     0.0034903   -0.0021165     0.0473542    0.0100332
 		       0.0473018    0.0116218     0.0035906   -0.0021523    -0.0428528   -0.0487594     0.2173195   -0.9157307
 		       0.0034306   -0.0024317     0.0474680    0.0101714     0.2184590   -0.9156880    -0.0412875   -0.0496944
   0.170000000    -0.0484474   -0.0439293     0.1413523   -0.9287868     0.0492103    0.0078559     0.0030567   -0.0029140 
 		       0.1432669   -0.9279307    -0.0425987   -0.0486209     0.0032142   -0.0027517     0.0492153    0.0063814
 		       0.0493715    0.0081548     0.0031919   -0.0028064    -0.0484666   -0.0440159     0.1431881   -0.9283506
 		       0.0030152   -0.0029655     0.0493045    0.0064676     0.1426152   -0.9280317    -0.0458608   -0.0456031
   0.180000000    -0.0524509   -0.0391585     0.0655170   -0.9353756     0.0506374    0.0041814     0.0026079   -0.0035128 
 		       0.0656927   -0.9345733    -0.0469349   -0.0445050     0.0028070   -0.0033116     0.0506124    0.0024936
 		       0.0507733    0.0044355     0.0027732   -0.0032876    -0.0526737   -0.0400334     0.0665652   -0.9356146
 		       0.0026132   -0.0034117     0.0507399    0.0026251     0.0670485   -0.9351634    -0.0502422   -0.0413653
   0.190000000    -0.0569035   -0.0333436    -0.0113175   -0.9348912     0.0516084    0.0004051     0.0020441   -0.0039661 
 		      -0.0091747   -0.9353201    -0.0515180   -0.0391119     0.0022948   -0.0037870     0.0513814   -0.0014608
 		       0.0517851    0.0005367     0.0022975   -0.0037032    -0.0559394   -0.0357783    -0.0095478   -0.9346235
 		       0.0021453   -0.0038412     0.0516064   -0.0013457    -0.0092901   -0.9351692    -0.0539468   -0.0366641
   0.200000000    -0.0606203   -0.0267386    -0.0872763   -0.9296573     0.0520222   -0.0035905     0.0014498   -0.0042713 
 		      -0.0871195   -0.9290259    -0.0557213   -0.0327746     0.0016453   -0.0040975     0.0516007   -0.0056789
 		       0.0521060   -0.0034269     0.0017493   -0.0041120    -0.0583011   -0.0314089    -0.0865295   -0.9289604
 		       0.0015372   -0.0043587     0.0516746   -0.0055240    -0.0854342   -0.9291865    -0.0576020   -0.0315292
   0.210000000    -0.0633495   -0.0205492    -0.1617480   -0.9172971     0.0517985   -0.0074322     0.0007964   -0.0045232 
 		      -0.1615261   -0.9171706    -0.0587855   -0.0269471     0.0010134   -0.0044078     0.0512145   -0.0096936
 		       0.0519615   -0.0073785     0.0010300   -0.0044272    -0.0608679   -0.0260725    -0.1597700   -0.9185280
 		       0.0007772   -0.0046726     0.0514246   -0.0096035    -0.1591186   -0.9176283    -0.0602806   -0.0255691
   0.220000000    -0.0643575   -0.0151125    -0.2352730   -0.8995410     0.0510871   -0.0113913     0.0000754   -0.0046796 
 		      -0.2346243   -0.8988106    -0.0604748   -0.0222405     0.0002853   -0.0045333     0.0503070   -0.0136292
 		       0.0513459   -0.0113291     0.0003530   -0.0045980    -0.0626001   -0.0202535    -0.2346979   -0.9001712
 		       0.0000405   -0.0047019     0.0504327   -0.0136216    -0.2335957   -0.9010605    -0.0615979   -0.0195914
   0.230000000    -0.0640395   -0.0091185    -0.3070656   -0.8755057     0.0498855   -0.0150433    -0.0005926   -0.0047016 
 		      -0.3072883   -0.8757742    -0.0611124   -0.0176758    -0.0002744   -0.0045933     0.0488127   -0.0174144
 		       0.0500208   -0.0150531    -0.0003327   -0.0046444    -0.0642060   -0.0136413    -0.3068615   -0.8760218
 		      -0.0006118   -0.0046574     0.0489308   -0.0173602    -0.3059347   -0.8771467    -0.0620415   -0.0133301
   0.240000000    -0.0622565   -0.0029022    -0.3768764   -0.8459324     0.0481550   -0.0185838    -0.0014434   -0.0045771 
 		      -0.3759559   -0.8464951    -0.0602058   -0.0131508    -0.0009091   -0.0046526     0.0468072   -0.0209248
 		       0.0483356   -0.0184666    -0.0010772   -0.0045879    -0.0642355   -0.0066375    -0.3745274   -0.8472623
 		      -0.0013235   -0.0045682     0.0469780   -0.0208711    -0.3750592   -0.8469448    -0.0615715   -0.0074817
   0.250000000    -0.0594717    0.0035953    -0.4431577   -0.8116865     0.0459086   -0.0217768    -0.0021310   -0.0042344 
 		      -0.4415061   -0.8124037    -0.0582070   -0.0077989    -0.0017475   -0.0043925     0.0444312   -0.0240961
 		       0.0460657   -0.0216453    -0.0017161   -0.0043246    -0.0628166   -0.0010682    -0.4417288   -0.8131526
 		      -0.0021016   -0.0042061     0.0445256   -0.0241176    -0.4425640   -0.8128043    -0.0606115   -0.0024349
   0.260000000    -0.0566341    0.0088573    -0.5070567   -0.7719240     0.0433854   -0.0244980    -0.0026746   -0.0036727 
 		      -0.5065009   -0.7722713    -0.0564102   -0.0030497    -0.0023607   -0.0038981     0.0416146   -0.0269146
 		       0.0435519   -0.0246123    -0.0023490   -0.0038821    -0.0597537    0.0033777    -0.5047870   -0.7733124
 		      -0.0026507   -0.0037129     0.0418561   -0.0268973    -0.5044757   -0.7720613    -0.0587959    0.0022165
   0.270000000    -0.0532644    0.0131071    -0.5648534   -0.7279796     0.0405135   -0.0270006    -0.0030417   -0.0032918 
 		      -0.5657845   -0.7279401    -0.0544626    0.0012096    -0.0027889   -0.0033872     0.0384132   -0.0292192
 		       0.0405926   -0.0268949    -0.0027250   -0.0035680    -0.0556188    0.0070153    -0.5651748   -0.7285956
 		      -0.0030889   -0.0033705     0.0386009   -0.0292942    -0.5652277   -0.7289041    -0.0561729    0.0063184
   0.280000000    -0.0488304    0.0166748    -0.6221679   -0.6792411     0.0372404   -0.0290250    -0.0034622   -0.0028331 
 		      -0.6226030   -0.6785167    -0.0512410    0.0053011    -0.0030732   -0.0029683     0.0349666   -0.0311880
 		       0.0374625   -0.0289749    -0.0032670   -0.0030229    -0.0506672    0.0098286    -0.6215715   -0.6798664
 		      -0.0034992   -0.0028277     0.0351389   -0.0311997    -0.6213562   -0.6797940    -0.0525400    0.0091733
   0.290000000    -0.0433939    0.0184565    -0.6742544   -0.6257089     0.0339202   -0.0303477    -0.0037417   -0.0023067 
 		      -0.6740354   -0.6255485    -0.0471701    0.0081848    -0.0033635   -0.0024998     0.0313584   -0.0325310
 		       0.0340697   -0.0304274    -0.0034865   -0.0024943    -0.0453256    0.0123267    -0.6741664   -0.6252242
 		      -0.0037656   -0.0022240     0.0314250   -0.0325251    -0.6731837   -0.6268822    -0.0480043    0.0114016
   0.300000000    -0.0380433    0.0196870    -0.7217655   -0.5679982     0.0303481   -0.0313251    -0.0039151   -0.0016339 
 		      -0.7220560   -0.5683706    -0.0426978    0.0102468    -0.0037071   -0.0019390     0.0274932   -0.0333269
 		       0.0305178   -0.0313871    -0.0036884   -0.0019384    -0.0403729    0.0150463    -0.7201743   -0.5693935
 		      -0.0038727   -0.0016581     0.0277094   -0.0332888    -0.7204094   -0.5705376    -0.0433771    0.0126594
   0.310000000    -0.0323143    0.0207018    -0.7649706   -0.5078115     0.0267850   -0.0318161    -0.0038650   -0.0010432 
 		      -0.7641253   -0.5081972    -0.0382940    0.0119631    -0.0037426   -0.0014334     0.0238236   -0.0335794
 		       0.0269684   -0.0318045    -0.0038003   -0.0013743    -0.0356097    0.0166365    -0.7636943   -0.5081808
 		      -0.0038690   -0.0011673     0.0238914   -0.0336001    -0.7642465   -0.5083464    -0.0384429    0.0139105
   0.320000000    -0.0269679    0.0210232    -0.8028290   -0.4419369     0.0232226   -0.0317186    -0.0038066   -0.0005212 
 		      -0.8015198   -0.4437701    -0.0335298    0.0128201    -0.0037536   -0.0007965     0.0200323   -0.0332707
 		       0.0233447   -0.0317230    -0.0037391   -0.0008524    -0.0311427    0.0175969    -0.8024867   -0.4447378
 		      -0.0038737   -0.0006622     0.0201089   -0.0333452    -0.8008284   -0.4447294    -0.0339013    0.0149408
   0.330000000    -0.0216793    0.0200230    -0.8342710   -0.3759025     0.0198494   -0.0310620    -0.0036925   -0.0000979 
 		      -0.8344589   -0.3749078    -0.0293749    0.0124017    -0.0036801   -0.0003201     0.0164406   -0.0324416
 		       0.0199634   -0.0311102    -0.0037308   -0.0003786    -0.0269014    0.0175158    -0.8337994   -0.3776720
 		      -0.0037749   -0.0000477     0.0164311   -0.0324921    -0.8338563   -0.3787944    -0.0290313    0.0155215
   0.340000000    -0.0166922    0.0177660    -0.8606121   -0.3067189     0.0166067   -0.0299354    -0.0035849    0.0002632 
 		      -0.8615041   -0.3074589    -0.0254593    0.0108398    -0.0034906    0.0000767     0.0129206   -0.0310594
 		       0.0166366   -0.0299755    -0.0035206    0.0001394    -0.0223036    0.0159850    -0.8605880   -0.3093318
 		      -0.0035077    0.0003474     0.0129902   -0.0311557    -0.8607085   -0.3100144    -0.0240555    0.0148228
   0.350000000    -0.0111103    0.0148771    -0.8823154   -0.2373794     0.0135438   -0.0282974    -0.0033331    0.0007684 
 		      -0.8820844   -0.2362780    -0.0216734    0.0088720    -0.0032385    0.0003177     0.0097897   -0.0292553
 		       0.0135980   -0.0284025    -0.0032701    0.0003123    -0.0178029    0.0132751    -0.8818029   -0.2375849
 		      -0.0033111    0.0006872     0.0099258   -0.0292817    -0.8823150   -0.2379557    -0.0194727    0.0123387
   0.360000000    -0.0054911    0.0103369    -0.8968166   -0.1633532     0.0109031   -0.0264347    -0.0029333    0.0010686 
 		      -0.8977715   -0.1649580    -0.0179078    0.0061566    -0.0030700    0.0006955     0.0070081   -0.0269754
 		       0.0109499   -0.0263971    -0.0030284    0.0007301    -0.0133668    0.0091891    -0.8973950   -0.1649063
 		      -0.0029988    0.0009716     0.0071085   -0.0270609    -0.8976016   -0.1656446    -0.0156735    0.0079905
   0.370000000    -0.0015733    0.0053016    -0.9072278   -0.0905323     0.0085271   -0.0240766    -0.0025556    0.0011582 
 		      -0.9064441   -0.0916307    -0.0148627    0.0026651    -0.0027399    0.0009134     0.0045848   -0.0243534
 		       0.0086050   -0.0240910    -0.0027459    0.0008931    -0.0096831    0.0048012    -0.9070042   -0.0921560
 		      -0.0025900    0.0012011     0.0047146   -0.0243826    -0.9074076   -0.0923154    -0.0131553    0.0023179
   0.380000000     0.0003670    0.0007279    -0.9110324   -0.0170645     0.0066605   -0.0214487    -0.0022192    0.0012937 
 		      -0.9110224   -0.0168130    -0.0138171   -0.0007750    -0.0024242    0.0010733     0.0027166   -0.0213986
 		       0.0067528   -0.0214345    -0.0024600    0.0010695    -0.0070563   -0.0000960    -0.9096628   -0.0189607
 		      -0.0022531    0.0012614     0.0026937   -0.0213788    -0.9109545   -0.0187055    -0.0116818   -0.0031897
   0.390000000     0.0013936   -0.0045422    -0.9072887    0.0565808     0.0052622   -0.0185544    -0.0020524    0.0012835 
 		      -0.9071326    0.0571430    -0.0127380   -0.0046274    -0.0021545    0.0010761     0.0012677   -0.0182158
 		       0.0052659   -0.0185766    -0.0022280    0.0010947    -0.0059265   -0.0053663    -0.9078549    0.0553351
 		      -0.0020163    0.0012483     0.0012905   -0.0182407    -0.9077970    0.0556721    -0.0102571   -0.0079333
   0.400000000     0.0020589   -0.0107465    -0.8991421    0.1309887     0.0043130   -0.0154648    -0.0017889    0.0012047 
 		      -0.8991110    0.1316688    -0.0115367   -0.0099323    -0.0019938    0.0010841     0.0003903   -0.0149202
 		       0.0043218   -0.0155413    -0.0020425    0.0010342    -0.0061482   -0.0105267    -0.8985152    0.1286138
 		      -0.0017857    0.0012193     0.0004321   -0.0149480    -0.8999560    0.1288330    -0.0098353   -0.0123291
   0.410000000     0.0020560   -0.0174802    -0.8853766    0.2020267     0.0038687   -0.0124149    -0.0016357    0.0011879 
 		      -0.8854687    0.2019606    -0.0107249   -0.0153825    -0.0017990    0.0010493     0.0000038   -0.0115214
 		       0.0039348   -0.0123211    -0.0018957    0.0010417    -0.0069247   -0.0157257    -0.8851693    0.2010068
 		      -0.0016645    0.0010946     0.0000959   -0.0115757    -0.8858506    0.2003142    -0.0093641   -0.0166562
   0.420000000     0.0003930   -0.0240313    -0.8641124    0.2737012     0.0040204   -0.0091992    -0.0015371    0.0010447 
