! MS46524B
! 1918203/M1: 91020113/M2: 91020112
! 9/9/2020 2:28:19 PM
! C:\USERS\ANRITSUUSER\DESKTOP\2118 -5.S4P
! CHANNEL.1
! TR.MEASUREMENT
! CORRECTED.DATA
# GHZ S RI R 50.0
! FREQ.GHZ         S11RE        S11IM         S12RE        S12IM         S13RE        S13IM         S14RE        S14IM         
!		       S21RE        S21IM         S22RE        S22IM         S23RE        S23IM         S24RE        S24IM         
!		       S31RE        S31IM         S32RE        S32IM         S33RE        S33IM         S34RE        S34IM         
!		       S41RE        S41IM         S42RE        S42IM         S43RE        S43IM         S44RE        S44IM         
!; PortSelection: Port_1234
   0.010000000     0.0108046   -0.0012824     0.9866564   -0.0463097     0.0003251    0.0018901    -0.0002680    0.0000472 
 		       0.9862655   -0.0461562     0.0106809   -0.0009817    -0.0001761    0.0000930     0.0003280    0.0018929
 		       0.0002883    0.0019410    -0.0002039    0.0000437     0.0124436   -0.0008383     0.9860182   -0.0468013
 		      -0.0002222   -0.0000226     0.0003282    0.0019837     0.9849474   -0.0457613     0.0123109   -0.0005170
   0.020000000     0.0120447   -0.0036067     0.9822079   -0.0900279     0.0006556    0.0036580    -0.0002811    0.0001684 
 		       0.9821079   -0.0902068     0.0116155   -0.0029653    -0.0002623    0.0001500     0.0006310    0.0036267
 		       0.0006613    0.0036745    -0.0002595    0.0001761     0.0136312   -0.0032286     0.9806626   -0.0908024
 		      -0.0003031    0.0001779     0.0006412    0.0036369     0.9805750   -0.0902614     0.0131007   -0.0027892
   0.030000000     0.0135204   -0.0063636     0.9761451   -0.1332380     0.0011077    0.0053597    -0.0002777    0.0003300 
 		       0.9761854   -0.1337671     0.0128991   -0.0054572    -0.0002757    0.0003367     0.0011082    0.0053233
 		       0.0011090    0.0053775    -0.0003067    0.0003670     0.0146070   -0.0060831     0.9744877   -0.1346229
 		      -0.0003039    0.0003118     0.0010956    0.0053593     0.9736540   -0.1335255     0.0137018   -0.0055002
   0.040000000     0.0145769   -0.0092779     0.9680635   -0.1763080     0.0016861    0.0070196    -0.0002702    0.0004699 
 		       0.9683262   -0.1764277     0.0138547   -0.0085996    -0.0002338    0.0004907     0.0016568    0.0069744
 		       0.0016991    0.0070165    -0.0002375    0.0005247     0.0154638   -0.0090572     0.9655828   -0.1767318
 		      -0.0002809    0.0005125     0.0017138    0.0069969     0.9662034   -0.1762826     0.0142661   -0.0084500
   0.050000000     0.0148695   -0.0122922     0.9587323   -0.2179457     0.0023939    0.0085905    -0.0002026    0.0006872 
 		       0.9586031   -0.2183031     0.0141864   -0.0117802    -0.0001943    0.0006734     0.0023734    0.0085959
 		       0.0024007    0.0086094    -0.0001754    0.0007002     0.0162059   -0.0121080     0.9561071   -0.2190976
 		      -0.0002018    0.0006594     0.0024053    0.0085756     0.9556655   -0.2179798     0.0150876   -0.0118135
   0.060000000     0.0144461   -0.0152568     0.9471811   -0.2598938     0.0032729    0.0101405    -0.0000831    0.0008564 
 		       0.9462351   -0.2595087     0.0137494   -0.0150003    -0.0000784    0.0008517     0.0032360    0.0101253
 		       0.0032492    0.0101259    -0.0000925    0.0008367     0.0164306   -0.0152756     0.9442143   -0.2607100
 		      -0.0001010    0.0008162     0.0032341    0.0101245     0.9439813   -0.2596628     0.0156993   -0.0155121
   0.070000000     0.0137499   -0.0184219     0.9335449   -0.3006091     0.0042471    0.0116001     0.0000382    0.0009750 
 		       0.9330790   -0.3006381     0.0130662   -0.0181943     0.0000410    0.0009911     0.0042361    0.0115795
 		       0.0042555    0.0116057     0.0000239    0.0009938     0.0159296   -0.0185110     0.9298600   -0.3007720
 		       0.0000389    0.0009646     0.0042249    0.0115491     0.9295859   -0.2996730     0.0158513   -0.0197289
   0.080000000     0.0127926   -0.0222658     0.9178590   -0.3403932     0.0053770    0.0129695     0.0001657    0.0011190 
 		       0.9185989   -0.3406488     0.0123236   -0.0218012     0.0001833    0.0011188     0.0053347    0.0129245
 		       0.0054086    0.0129348     0.0001789    0.0011643     0.0146583   -0.0216478     0.9152952   -0.3407869
 		       0.0001983    0.0011271     0.0053285    0.0129226     0.9153469   -0.3403648     0.0152713   -0.0235713
   0.090000000     0.0113091   -0.0262268     0.9013115   -0.3794064     0.0066144    0.0142463     0.0003300    0.0012380 
 		       0.9017177   -0.3798175     0.0110231   -0.0256309     0.0003291    0.0012343     0.0065819    0.0142104
 		       0.0066463    0.0142261     0.0004136    0.0012239     0.0127237   -0.0247996     0.8980990   -0.3799597
 		       0.0003663    0.0012554     0.0065925    0.0141900     0.8985233   -0.3798344     0.0139279   -0.0273496
   0.100000000     0.0100135   -0.0296084     0.8839679   -0.4186055     0.0079455    0.0154278     0.0004936    0.0013671 
 		       0.8830151   -0.4185556     0.0097427   -0.0288937     0.0005001    0.0012974     0.0079002    0.0153797
 		       0.0079722    0.0153838     0.0005406    0.0013293     0.0106051   -0.0279566     0.8796388   -0.4180933
 		       0.0005377    0.0013569     0.0079189    0.0153243     0.8799425   -0.4182367     0.0121001   -0.0311154
   0.110000000     0.0084832   -0.0328119     0.8641568   -0.4562040     0.0093704    0.0164429     0.0007351    0.0014181 
 		       0.8630376   -0.4552836     0.0080522   -0.0318426     0.0007290    0.0014116     0.0093013    0.0164339
 		       0.0093787    0.0164433     0.0007327    0.0014330     0.0083301   -0.0311999     0.8591300   -0.4561973
 		       0.0006941    0.0014224     0.0093456    0.0164156     0.8597419   -0.4551336     0.0098022   -0.0347660
   0.120000000     0.0061650   -0.0357800     0.8412127   -0.4918800     0.0109001    0.0173971     0.0010119    0.0014949 
 		       0.8422347   -0.4921196     0.0055564   -0.0347017     0.0009830    0.0014586     0.0108307    0.0173509
 		       0.0109187    0.0173635     0.0009623    0.0014593     0.0063183   -0.0345784     0.8373812   -0.4914105
 		       0.0009814    0.0015064     0.0108540    0.0173606     0.8374845   -0.4919543     0.0073358   -0.0386041
   0.130000000     0.0028481   -0.0384173     0.8187829   -0.5270987     0.0125157    0.0181649     0.0012305    0.0014360 
 		       0.8179056   -0.5270412     0.0021689   -0.0374094     0.0012567    0.0014408     0.0124038    0.0181696
 		       0.0125268    0.0181131     0.0012136    0.0014270     0.0043898   -0.0384612     0.8144465   -0.5265986
 		       0.0012547    0.0014456     0.0124526    0.0181632     0.8153600   -0.5259971     0.0044365   -0.0426422
   0.140000000    -0.0003421   -0.0412145     0.7949848   -0.5624288     0.0141630    0.0188752     0.0014730    0.0013860 
 		       0.7953604   -0.5620341    -0.0009610   -0.0401089     0.0014545    0.0014172     0.0140777    0.0188609
 		       0.0142208    0.0188104     0.0014126    0.0014550     0.0014912   -0.0413337     0.7906429   -0.5603675
 		       0.0014680    0.0014141     0.0140919    0.0188339     0.7910424   -0.5600885     0.0010137   -0.0458224
   0.150000000    -0.0038323   -0.0438758     0.7696270   -0.5953229     0.0159550    0.0194486     0.0017619    0.0013904 
 		       0.7686176   -0.5950270    -0.0037648   -0.0431732     0.0016975    0.0013985     0.0158842    0.0194162
 		       0.0159022    0.0194122     0.0017050    0.0013940    -0.0019716   -0.0440545     0.7646428   -0.5937390
 		       0.0017119    0.0013847     0.0158483    0.0193955     0.7640046   -0.5936108    -0.0026692   -0.0486538
   0.160000000    -0.0070803   -0.0464304     0.7417722   -0.6269379     0.0177654    0.0197949     0.0019913    0.0013438 
 		       0.7420037   -0.6269511    -0.0060104   -0.0462479     0.0019115    0.0012511     0.0175481    0.0198062
 		       0.0177207    0.0198006     0.0019232    0.0013218    -0.0052691   -0.0455298     0.7365413   -0.6271681
 		       0.0020076    0.0012904     0.0175805    0.0198096     0.7377989   -0.6252542    -0.0056682   -0.0504706
   0.170000000    -0.0102307   -0.0481124     0.7131419   -0.6587813     0.0195917    0.0200582     0.0022178    0.0012349 
 		       0.7132569   -0.6569952    -0.0086318   -0.0485412     0.0021580    0.0012531     0.0193969    0.0201074
 		       0.0195641    0.0200008     0.0021804    0.0012075    -0.0093561   -0.0469441     0.7086211   -0.6557066
 		       0.0021945    0.0011250     0.0194617    0.0200923     0.7086429   -0.6559573    -0.0093194   -0.0520119
   0.180000000    -0.0135748   -0.0491710     0.6837739   -0.6879643     0.0214176    0.0201170     0.0024241    0.0009802 
 		       0.6832058   -0.6872398    -0.0119328   -0.0497480     0.0023926    0.0010454     0.0212160    0.0202011
 		       0.0214112    0.0201400     0.0024030    0.0009752    -0.0130464   -0.0477479     0.6794974   -0.6853842
 		       0.0023592    0.0009706     0.0212469    0.0201786     0.6793057   -0.6852385    -0.0127407   -0.0534883
   0.190000000    -0.0174169   -0.0498838     0.6523642   -0.7149277     0.0232107    0.0201416     0.0026230    0.0008001 
 		       0.6534001   -0.7143847    -0.0158999   -0.0504467     0.0025729    0.0008985     0.0231076    0.0201819
 		       0.0232795    0.0201713     0.0025182    0.0008978    -0.0163627   -0.0485341     0.6478646   -0.7128643
 		       0.0025220    0.0008625     0.0230820    0.0202063     0.6483874   -0.7128847    -0.0164486   -0.0546195
   0.200000000    -0.0217319   -0.0510394     0.6204530   -0.7418011     0.0251401    0.0199281     0.0028570    0.0006024 
 		       0.6202822   -0.7417829    -0.0205778   -0.0513449     0.0027683    0.0006482     0.0249608    0.0200552
 		       0.0251406    0.0199000     0.0027343    0.0006830    -0.0194090   -0.0493131     0.6165138   -0.7393725
 		       0.0028747    0.0006851     0.0249655    0.0199952     0.6151122   -0.7396581    -0.0205351   -0.0558898
   0.210000000    -0.0264404   -0.0524966     0.5876033   -0.7670908     0.0269275    0.0196465     0.0030192    0.0003861 
 		       0.5866653   -0.7665623    -0.0255919   -0.0524019     0.0029422    0.0004503     0.0268197    0.0197274
 		       0.0269718    0.0196088     0.0029506    0.0004424    -0.0227817   -0.0506465     0.5844777   -0.7630777
 		       0.0031097    0.0003085     0.0268757    0.0197032     0.5843349   -0.7639346    -0.0253338   -0.0570240
   0.220000000    -0.0304899   -0.0535645     0.5540403   -0.7900858     0.0288342    0.0192034     0.0031978    0.0001815 
 		       0.5532015   -0.7902997    -0.0297918   -0.0532012     0.0031517    0.0002412     0.0287106    0.0193188
 		       0.0288759    0.0191378     0.0031401    0.0001981    -0.0263235   -0.0513593     0.5484312   -0.7884039
 		       0.0031514    0.0000706     0.0286739    0.0193438     0.5497119   -0.7877884    -0.0295222   -0.0574377
   0.230000000    -0.0343043   -0.0540432     0.5173470   -0.8122852     0.0306451    0.0185986     0.0033358   -0.0001560 
 		       0.5183954   -0.8131884    -0.0332597   -0.0536077     0.0032941   -0.0000203     0.0304190    0.0187440
 		       0.0306863    0.0185789     0.0032692    0.0000166    -0.0306862   -0.0521466     0.5140046   -0.8104498
 		       0.0033065   -0.0001276     0.0304866    0.0187200     0.5150042   -0.8090523    -0.0344128   -0.0572088
   0.240000000    -0.0379880   -0.0540560     0.4831313   -0.8323340     0.0324027    0.0178549     0.0035397   -0.0004642 
 		       0.4828336   -0.8335598    -0.0361986   -0.0536367     0.0034539   -0.0002560     0.0322792    0.0180656
 		       0.0324737    0.0177160     0.0034601   -0.0003012    -0.0356237   -0.0523428     0.4783879   -0.8296587
 		       0.0035372   -0.0004457     0.0322604    0.0179847     0.4788302   -0.8306812    -0.0391548   -0.0567927
   0.250000000    -0.0424328   -0.0530059     0.4467133   -0.8525558     0.0341785    0.0169641     0.0034804   -0.0008857 
 		       0.4473241   -0.8511187    -0.0398445   -0.0525788     0.0035649   -0.0006848     0.0339772    0.0171681
 		       0.0340929    0.0169491     0.0034885   -0.0007037    -0.0405476   -0.0521649     0.4423243   -0.8485356
 		       0.0035867   -0.0009053     0.0339841    0.0171397     0.4422312   -0.8497407    -0.0436962   -0.0562470
   0.260000000    -0.0470409   -0.0518395     0.4083518   -0.8698438     0.0358207    0.0159244     0.0034444   -0.0011634 
 		       0.4087781   -0.8696515    -0.0439398   -0.0514209     0.0035003   -0.0010811     0.0356013    0.0162256
 		       0.0358601    0.0158934     0.0035093   -0.0010563    -0.0448626   -0.0516285     0.4052188   -0.8660945
 		       0.0035204   -0.0011729     0.0356223    0.0162476     0.4051850   -0.8654644    -0.0485379   -0.0554337
   0.270000000    -0.0506691   -0.0505704     0.3722881   -0.8845634     0.0373849    0.0149200     0.0034767   -0.0014485 
 		       0.3714965   -0.8847483    -0.0476898   -0.0501467     0.0034568   -0.0014137     0.0372226    0.0150618
 		       0.0374347    0.0148191     0.0035018   -0.0013197    -0.0486307   -0.0504740     0.3676782   -0.8806649
 		       0.0035848   -0.0014626     0.0373111    0.0150394     0.3676689   -0.8810445    -0.0531413   -0.0546718
   0.280000000    -0.0547383   -0.0495361     0.3332963   -0.9000103     0.0388987    0.0135759     0.0035726   -0.0018094 
 		       0.3327684   -0.9001355    -0.0517566   -0.0493705     0.0033688   -0.0016763     0.0387806    0.0138596
 		       0.0390013    0.0134903     0.0034794   -0.0016495    -0.0514239   -0.0486955     0.3288726   -0.8947061
 		       0.0035807   -0.0018738     0.0387798    0.0137921     0.3292537   -0.8948222    -0.0576903   -0.0536673
   0.290000000    -0.0577532   -0.0480599     0.2950096   -0.9115939     0.0404208    0.0122468     0.0034943   -0.0022111 
 		       0.2938145   -0.9116696    -0.0556133   -0.0485227     0.0033742   -0.0019167     0.0402616    0.0125623
 		       0.0404208    0.0121066     0.0033985   -0.0019674    -0.0538513   -0.0462975     0.2890530   -0.9074708
 		       0.0034853   -0.0022667     0.0402267    0.0125115     0.2909909   -0.9071344    -0.0613157   -0.0524316
   0.300000000    -0.0605179   -0.0462039     0.2551814   -0.9220402     0.0417686    0.0107265     0.0034267   -0.0025562 
 		       0.2538062   -0.9236254    -0.0589122   -0.0466983     0.0033709   -0.0023707     0.0415889    0.0110263
 		       0.0417964    0.0107048     0.0032711   -0.0023880    -0.0563757   -0.0439694     0.2514248   -0.9174694
 		       0.0032902   -0.0025023     0.0416937    0.0110441     0.2526496   -0.9178473    -0.0640615   -0.0507071
   0.310000000    -0.0633609   -0.0434226     0.2155249   -0.9325706     0.0430356    0.0091794     0.0032175   -0.0029115 
 		       0.2158036   -0.9319261    -0.0620181   -0.0440707     0.0031987   -0.0027218     0.0428889    0.0095402
 		       0.0430676    0.0092237     0.0031502   -0.0027107    -0.0589435   -0.0409156     0.2118731   -0.9266174
 		       0.0032642   -0.0028104     0.0429074    0.0095225     0.2123887   -0.9281878    -0.0671601   -0.0487272
   0.320000000    -0.0666295   -0.0410262     0.1741643   -0.9395531     0.0441705    0.0075785     0.0030122   -0.0031809 
 		       0.1750717   -0.9389685    -0.0651871   -0.0410442     0.0029753   -0.0030137     0.0439834    0.0078481
 		       0.0441944    0.0074405     0.0030738   -0.0030107    -0.0622182   -0.0379321     0.1723824   -0.9349101
 		       0.0031869   -0.0031567     0.0440490    0.0078011     0.1724011   -0.9336207    -0.0701972   -0.0461933
   0.330000000    -0.0702814   -0.0386396     0.1344454   -0.9455020     0.0451981    0.0057264     0.0029446   -0.0034320 
 		       0.1341568   -0.9442648    -0.0683028   -0.0381490     0.0028182   -0.0032915     0.0451617    0.0063095
 		       0.0452627    0.0057238     0.0027775   -0.0033873    -0.0657362   -0.0351228     0.1319660   -0.9398984
 		       0.0029604   -0.0036452     0.0451069    0.0061261     0.1323745   -0.9390912    -0.0734409   -0.0430662
   0.340000000    -0.0727615   -0.0365425     0.0949868   -0.9485170     0.0461509    0.0039853     0.0027535   -0.0038602 
 		       0.0950592   -0.9500504    -0.0707067   -0.0354956     0.0025929   -0.0036080     0.0460312    0.0043503
 		       0.0461211    0.0038884     0.0025912   -0.0036106    -0.0696758   -0.0315726     0.0919995   -0.9435165
 		       0.0026004   -0.0038308     0.0460173    0.0043019     0.0938629   -0.9426028    -0.0777443   -0.0391342
   0.350000000    -0.0743997   -0.0338882     0.0542727   -0.9516788     0.0469708    0.0021560     0.0024915   -0.0042123 
 		       0.0534573   -0.9512256    -0.0726056   -0.0325274     0.0024324   -0.0038799     0.0467963    0.0025281
 		       0.0469107    0.0019736     0.0023450   -0.0038271    -0.0721212   -0.0291806     0.0507346   -0.9450104
 		       0.0024865   -0.0041464     0.0468230    0.0025223     0.0530432   -0.9456788    -0.0813855   -0.0346391
   0.360000000    -0.0764162   -0.0302085     0.0134313   -0.9518533     0.0475628    0.0001145     0.0020773   -0.0046210 
 		       0.0134762   -0.9530323    -0.0743901   -0.0292275     0.0021271   -0.0041211     0.0475548    0.0006369
 		       0.0476048    0.0000919     0.0019851   -0.0041730    -0.0750868   -0.0257779     0.0107517   -0.9449257
 		       0.0021132   -0.0045318     0.0474806    0.0006292     0.0124735   -0.9462725    -0.0845602   -0.0306406
   0.370000000    -0.0784254   -0.0249333    -0.0253326   -0.9511372     0.0481352   -0.0018587     0.0015334   -0.0046389 
 		      -0.0255918   -0.9504033    -0.0772222   -0.0248230     0.0017314   -0.0044636     0.0480506   -0.0013410
 		       0.0481230   -0.0019489     0.0016706   -0.0043663    -0.0766584   -0.0221517    -0.0271489   -0.9440102
 		       0.0015881   -0.0046961     0.0480936   -0.0013570    -0.0273624   -0.9442016    -0.0861943   -0.0262525
   0.380000000    -0.0796663   -0.0204995    -0.0654231   -0.9483876     0.0485136   -0.0037254     0.0011734   -0.0046857 
 		      -0.0658047   -0.9483895    -0.0792009   -0.0208438     0.0012644   -0.0045964     0.0485827   -0.0031954
 		       0.0485597   -0.0038620     0.0012788   -0.0045591    -0.0781067   -0.0189293    -0.0675163   -0.9408318
 		       0.0011617   -0.0048079     0.0484885   -0.0033937    -0.0678131   -0.9419529    -0.0875552   -0.0224350
   0.390000000    -0.0814027   -0.0166707    -0.1065213   -0.9439675     0.0488951   -0.0057965     0.0009889   -0.0049181 
 		      -0.1060552   -0.9431921    -0.0811973   -0.0180947     0.0009374   -0.0047188     0.0488120   -0.0052695
 		       0.0488332   -0.0059334     0.0008941   -0.0047214    -0.0783595   -0.0150338    -0.1071883   -0.9363638
 		       0.0008578   -0.0049801     0.0487957   -0.0053294    -0.1068709   -0.9371384    -0.0880857   -0.0191323
   0.400000000    -0.0826443   -0.0135121    -0.1457605   -0.9370593     0.0489978   -0.0079267     0.0005464   -0.0050728 
 		      -0.1467755   -0.9377738    -0.0824880   -0.0153144     0.0005926   -0.0047508     0.0490677   -0.0073354
 		       0.0490567   -0.0079544     0.0005919   -0.0047671    -0.0784498   -0.0115938    -0.1464086   -0.9303951
 		       0.0005234   -0.0050909     0.0491102   -0.0073784    -0.1457812   -0.9311193    -0.0881957   -0.0154280
   0.410000000    -0.0838027   -0.0103783    -0.1853455   -0.9308454     0.0490591   -0.0099969     0.0000685   -0.0051926 
 		      -0.1845686   -0.9311541    -0.0831703   -0.0124354     0.0002962   -0.0049163     0.0491053   -0.0094397
 		       0.0489853   -0.0101316     0.0002537   -0.0047942    -0.0789064   -0.0079386    -0.1863465   -0.9231547
 		       0.0001227   -0.0051279     0.0491255   -0.0095134    -0.1846331   -0.9241186    -0.0891363   -0.0112187
   0.420000000    -0.0835160   -0.0066498    -0.2244689   -0.9206560     0.0488923   -0.0121356    -0.0003309   -0.0052136 
