! MS46524B
! 1918203/M1: 91020113/M2: 91020112
! 9/9/2020 2:28:19 PM
! C:\USERS\ANRITSUUSER\DESKTOP\2118 -5.S4P
! CHANNEL.1
! TR.MEASUREMENT
! CORRECTED.DATA
# GHZ S RI R 50.0
! FREQ.GHZ         S11RE        S11IM         S12RE        S12IM         S13RE        S13IM         S14RE        S14IM         
!		       S21RE        S21IM         S22RE        S22IM         S23RE        S23IM         S24RE        S24IM         
!		       S31RE        S31IM         S32RE        S32IM         S33RE        S33IM         S34RE        S34IM         
!		       S41RE        S41IM         S42RE        S42IM         S43RE        S43IM         S44RE        S44IM         
!; PortSelection: Port_1234
   0.010000000     0.0103244   -0.0031140     0.9870927   -0.0453635     0.0002894    0.0017687    -0.0002660    0.0001727 
 		       0.9871969   -0.0454862     0.0100947   -0.0028835    -0.0001973    0.0001733     0.0003349    0.0017282
 		       0.0003485    0.0018029    -0.0002987    0.0001358     0.0106002   -0.0031447     0.9874319   -0.0466552
 		      -0.0002219    0.0001688     0.0003429    0.0017585     0.9859151   -0.0459427     0.0104542   -0.0027534
   0.020000000     0.0116649   -0.0074266     0.9827837   -0.0894998     0.0006442    0.0034384    -0.0002609    0.0003800 
 		       0.9828026   -0.0899711     0.0110520   -0.0066629    -0.0002362    0.0003576     0.0006374    0.0034271
 		       0.0006114    0.0034499    -0.0002450    0.0003664     0.0113294   -0.0080391     0.9825556   -0.0911243
 		      -0.0002445    0.0003257     0.0006567    0.0034465     0.9816623   -0.0900263     0.0106819   -0.0073109
   0.030000000     0.0129506   -0.0124680     0.9761609   -0.1339276     0.0010865    0.0050299    -0.0002342    0.0005970 
 		       0.9760846   -0.1338074     0.0120419   -0.0113960    -0.0002061    0.0005744     0.0010386    0.0050438
 		       0.0010619    0.0050878    -0.0002204    0.0006196     0.0115842   -0.0130498     0.9760555   -0.1345239
 		      -0.0002421    0.0006151     0.0010808    0.0050823     0.9759227   -0.1335230     0.0103603   -0.0119308
   0.040000000     0.0132599   -0.0176220     0.9681375   -0.1768154     0.0016219    0.0066235    -0.0001286    0.0007934 
 		       0.9682947   -0.1771884     0.0121542   -0.0166565    -0.0001404    0.0008616     0.0015992    0.0066486
 		       0.0016022    0.0066970    -0.0001023    0.0008483     0.0116617   -0.0180193     0.9670064   -0.1774888
 		      -0.0001044    0.0008404     0.0015764    0.0066586     0.9679785   -0.1765362     0.0100973   -0.0167003
   0.050000000     0.0127137   -0.0223343     0.9584801   -0.2188573     0.0023180    0.0081594    -0.0000404    0.0010802 
 		       0.9582720   -0.2189639     0.0115278   -0.0213269     0.0000000    0.0010928     0.0023260    0.0081476
 		       0.0022588    0.0081864     0.0000189    0.0010186     0.0116957   -0.0229177     0.9574232   -0.2202302
 		      -0.0000119    0.0010891     0.0023063    0.0081839     0.9562547   -0.2186495     0.0100970   -0.0216756
   0.060000000     0.0118182   -0.0270496     0.9467510   -0.2610961     0.0031260    0.0096535     0.0001615    0.0012763 
 		       0.9461641   -0.2611495     0.0104530   -0.0261272     0.0001790    0.0012877     0.0031830    0.0096075
 		       0.0031429    0.0096615     0.0001798    0.0012770     0.0110901   -0.0280298     0.9458687   -0.2615820
 		       0.0001628    0.0012689     0.0031179    0.0096416     0.9455782   -0.2606038     0.0097365   -0.0272523
   0.070000000     0.0102200   -0.0325625     0.9333118   -0.3023115     0.0041075    0.0110167     0.0003822    0.0014914 
 		       0.9329558   -0.3023927     0.0088469   -0.0313355     0.0003620    0.0014392     0.0040988    0.0109832
 		       0.0041177    0.0110050     0.0003415    0.0014927     0.0093674   -0.0333149     0.9321271   -0.3014048
 		       0.0003671    0.0014774     0.0040835    0.0109594     0.9314713   -0.3006166     0.0084620   -0.0332552
   0.080000000     0.0075473   -0.0383279     0.9171341   -0.3428942     0.0052090    0.0123059     0.0006069    0.0016030 
 		       0.9173589   -0.3427231     0.0064261   -0.0367817     0.0005933    0.0015804     0.0051447    0.0122722
 		       0.0051490    0.0123343     0.0006784    0.0016185     0.0065263   -0.0383651     0.9172825   -0.3417698
 		       0.0006530    0.0016627     0.0051463    0.0122932     0.9171876   -0.3416513     0.0063153   -0.0386071
   0.090000000     0.0044696   -0.0440343     0.9001080   -0.3820007     0.0063649    0.0135217     0.0008712    0.0017608 
 		       0.8993279   -0.3816057     0.0034378   -0.0419802     0.0008815    0.0017310     0.0063654    0.0134649
 		       0.0063321    0.0134959     0.0008940    0.0017592     0.0029896   -0.0432311     0.8999468   -0.3811707
 		       0.0008846    0.0017674     0.0063559    0.0134978     0.9002082   -0.3811180     0.0031426   -0.0436545
   0.100000000     0.0018657   -0.0488945     0.8816800   -0.4208829     0.0076802    0.0145853     0.0011426    0.0018625 
 		       0.8813152   -0.4212308     0.0006463   -0.0464106     0.0011259    0.0018084     0.0076567    0.0145370
 		       0.0076402    0.0146279     0.0011916    0.0018119    -0.0009525   -0.0479116     0.8810818   -0.4197297
 		       0.0011850    0.0018312     0.0076353    0.0145441     0.8813118   -0.4197056    -0.0005177   -0.0482063
   0.110000000    -0.0012741   -0.0535778     0.8606059   -0.4582320     0.0090040    0.0155912     0.0014734    0.0019349 
 		       0.8605983   -0.4584315    -0.0025429   -0.0506155     0.0014383    0.0019016     0.0090436    0.0155489
 		       0.0090163    0.0156356     0.0014138    0.0018952    -0.0046895   -0.0526018     0.8611175   -0.4581609
 		       0.0015009    0.0019300     0.0090218    0.0155711     0.8602118   -0.4581463    -0.0045998   -0.0525855
   0.120000000    -0.0054033   -0.0576274     0.8387216   -0.4945140     0.0104632    0.0164206     0.0018263    0.0019201 
 		       0.8393347   -0.4948589    -0.0069204   -0.0542568     0.0017483    0.0019373     0.0104665    0.0163347
 		       0.0104517    0.0165147     0.0017418    0.0019223    -0.0080112   -0.0570622     0.8388265   -0.4939071
 		       0.0018479    0.0019309     0.0104501    0.0164076     0.8390849   -0.4934890    -0.0085359   -0.0571175
   0.130000000    -0.0104261   -0.0612807     0.8159256   -0.5300702     0.0120325    0.0171519     0.0022328    0.0018507 
 		       0.8151820   -0.5293885    -0.0119767   -0.0575827     0.0020722    0.0018615     0.0120089    0.0170598
 		       0.0120190    0.0172658     0.0021392    0.0018726    -0.0116877   -0.0616776     0.8149114   -0.5290509
 		       0.0022103    0.0018372     0.0119654    0.0171764     0.8162364   -0.5285227    -0.0133555   -0.0617388
   0.140000000    -0.0156558   -0.0652717     0.7916940   -0.5650413     0.0136118    0.0177852     0.0025260    0.0017430 
 		       0.7904476   -0.5640078    -0.0171774   -0.0611907     0.0024533    0.0017902     0.0135757    0.0177227
 		       0.0136577    0.0178437     0.0024258    0.0018111    -0.0163162   -0.0655581     0.7911895   -0.5628145
 		       0.0025178    0.0017795     0.0135738    0.0177811     0.7901757   -0.5632339    -0.0183459   -0.0653903
   0.150000000    -0.0215984   -0.0690649     0.7652814   -0.5974881     0.0153010    0.0183085     0.0028582    0.0016385 
 		       0.7644041   -0.5972346    -0.0223321   -0.0650093     0.0027365    0.0016782     0.0152418    0.0181854
 		       0.0152593    0.0183559     0.0027985    0.0016912    -0.0221069   -0.0689573     0.7646481   -0.5956796
 		       0.0028653    0.0016556     0.0152020    0.0182753     0.7648619   -0.5963115    -0.0244026   -0.0683616
   0.160000000    -0.0273288   -0.0722052     0.7374057   -0.6289765     0.0170042    0.0186260     0.0031460    0.0014398 
 		       0.7370961   -0.6293039    -0.0271039   -0.0685356     0.0030436    0.0014767     0.0168764    0.0184988
 		       0.0169732    0.0187110     0.0031299    0.0015248    -0.0278217   -0.0713234     0.7363864   -0.6292465
 		       0.0032204    0.0014681     0.0169403    0.0186436     0.7376590   -0.6277953    -0.0297043   -0.0701172
   0.170000000    -0.0324588   -0.0739038     0.7084240   -0.6597890     0.0187145    0.0188685     0.0034446    0.0012278 
 		       0.7072733   -0.6596553    -0.0316305   -0.0703973     0.0033806    0.0013290     0.0186663    0.0187781
 		       0.0187124    0.0189022     0.0033683    0.0012796    -0.0344555   -0.0734006     0.7077109   -0.6593562
 		       0.0034756    0.0012357     0.0186278    0.0188603     0.7080020   -0.6590993    -0.0355332   -0.0715516
   0.180000000    -0.0375385   -0.0752076     0.6781633   -0.6894194     0.0204916    0.0188349     0.0037346    0.0009702 
 		       0.6779006   -0.6882968    -0.0365394   -0.0714662     0.0036746    0.0010512     0.0203597    0.0188357
 		       0.0204754    0.0190000     0.0036779    0.0010468    -0.0402286   -0.0745039     0.6790085   -0.6879078
 		       0.0036832    0.0009442     0.0203591    0.0189324     0.6778877   -0.6883128    -0.0409196   -0.0723969
   0.190000000    -0.0435034   -0.0763259     0.6459165   -0.7165028     0.0222159    0.0188682     0.0040013    0.0006578 
 		       0.6467801   -0.7160430    -0.0424746   -0.0722237     0.0039390    0.0007707     0.0221014    0.0187835
 		       0.0222277    0.0189207     0.0038525    0.0007596    -0.0456530   -0.0753046     0.6458326   -0.7151119
 		       0.0039642    0.0006874     0.0221146    0.0188388     0.6470708   -0.7153318    -0.0464680   -0.0730233
   0.200000000    -0.0504279   -0.0773635     0.6133136   -0.7436281     0.0239565    0.0186339     0.0042623    0.0003446 
 		       0.6135711   -0.7421116    -0.0495869   -0.0726521     0.0041580    0.0004153     0.0238883    0.0184598
 		       0.0240060    0.0187308     0.0041840    0.0004598    -0.0503461   -0.0759032     0.6147439   -0.7426198
 		       0.0042888    0.0004216     0.0238656    0.0186284     0.6139959   -0.7419058    -0.0521505   -0.0737490
   0.210000000    -0.0575225   -0.0782007     0.5807630   -0.7673872     0.0256700    0.0182842     0.0044540   -0.0000257 
 		       0.5796493   -0.7678838    -0.0569613   -0.0728313     0.0044190    0.0000594     0.0255930    0.0181614
 		       0.0257368    0.0184136     0.0044087    0.0000904    -0.0554547   -0.0769004     0.5817903   -0.7661399
 		       0.0045469   -0.0000600     0.0256092    0.0183235     0.5821552   -0.7660888    -0.0585617   -0.0742244
   0.220000000    -0.0636075   -0.0788501     0.5463980   -0.7905987     0.0274132    0.0178487     0.0046312   -0.0003683 
 		       0.5457794   -0.7903307    -0.0630047   -0.0727777     0.0045339   -0.0002777     0.0272838    0.0177680
 		       0.0275053    0.0179420     0.0045540   -0.0002765    -0.0610390   -0.0773708     0.5462328   -0.7903289
 		       0.0046736   -0.0004374     0.0273542    0.0178916     0.5490162   -0.7896852    -0.0646506   -0.0736110
   0.230000000    -0.0695470   -0.0788758     0.5102350   -0.8116428     0.0291510    0.0172054     0.0048617   -0.0008033 
 		       0.5107267   -0.8129175    -0.0682404   -0.0724702     0.0047253   -0.0006452     0.0290077    0.0171547
 		       0.0291401    0.0173574     0.0047243   -0.0005808    -0.0674705   -0.0775695     0.5109599   -0.8116702
 		       0.0047784   -0.0007610     0.0290842    0.0172469     0.5123246   -0.8123505    -0.0711355   -0.0722258
   0.240000000    -0.0753078   -0.0779491     0.4747523   -0.8325533     0.0307720    0.0164788     0.0049673   -0.0013590 
 		       0.4745814   -0.8327048    -0.0731372   -0.0712209     0.0048389   -0.0010537     0.0306096    0.0163974
 		       0.0307622    0.0166010     0.0048563   -0.0011562    -0.0748797   -0.0772310     0.4764552   -0.8318605
 		       0.0049076   -0.0012491     0.0306082    0.0165548     0.4758686   -0.8318309    -0.0774110   -0.0703689
   0.250000000    -0.0814785   -0.0759327     0.4376742   -0.8518841     0.0324100    0.0156248     0.0048811   -0.0018207 
 		       0.4382435   -0.8498892    -0.0784379   -0.0686820     0.0049882   -0.0015786     0.0321206    0.0154907
 		       0.0323356    0.0156900     0.0049136   -0.0015967    -0.0820154   -0.0762553     0.4399160   -0.8500011
 		       0.0049242   -0.0017451     0.0322424    0.0157039     0.4393852   -0.8512270    -0.0834325   -0.0684311
   0.260000000    -0.0878022   -0.0736716     0.4004601   -0.8682386     0.0339976    0.0146720     0.0048861   -0.0022712 
 		       0.4012776   -0.8671964    -0.0840124   -0.0660674     0.0048554   -0.0021380     0.0337619    0.0145639
 		       0.0339742    0.0147581     0.0048141   -0.0020913    -0.0882827   -0.0748151     0.4019374   -0.8666199
 		       0.0048741   -0.0022027     0.0337317    0.0147975     0.4018558   -0.8670771    -0.0896492   -0.0662129
   0.270000000    -0.0935696   -0.0714300     0.3631844   -0.8827871     0.0352978    0.0136187     0.0047528   -0.0026894 
 		       0.3640395   -0.8815820    -0.0893043   -0.0634846     0.0047217   -0.0026051     0.0352151    0.0135512
 		       0.0353351    0.0136567     0.0047860   -0.0025198    -0.0933341   -0.0728499     0.3643810   -0.8822603
 		       0.0049197   -0.0026730     0.0353308    0.0136668     0.3639382   -0.8819234    -0.0954841   -0.0641539
   0.280000000    -0.0995214   -0.0688881     0.3250594   -0.8970401     0.0367993    0.0123927     0.0047490   -0.0032083 
 		       0.3239611   -0.8969908    -0.0951447   -0.0611637     0.0046265   -0.0029384     0.0365464    0.0124445
 		       0.0368217    0.0125270     0.0047021   -0.0030987    -0.0973140   -0.0698767     0.3262286   -0.8960540
 		       0.0048277   -0.0032534     0.0367200    0.0125392     0.3271177   -0.8950603    -0.1008387   -0.0614199
   0.290000000    -0.1041121   -0.0656726     0.2860328   -0.9085606     0.0380777    0.0111786     0.0046142   -0.0037077 
 		       0.2866204   -0.9079064    -0.1001443   -0.0580635     0.0045291   -0.0034174     0.0378847    0.0111038
 		       0.0382024    0.0112080     0.0045340   -0.0034654    -0.1009968   -0.0660758     0.2859952   -0.9078434
 		       0.0045711   -0.0037254     0.0379565    0.0111513     0.2875864   -0.9077899    -0.1053632   -0.0582389
   0.300000000    -0.1082125   -0.0621117     0.2475760   -0.9180259     0.0392717    0.0096930     0.0044105   -0.0041893 
 		       0.2462794   -0.9189698    -0.1046963   -0.0540504     0.0043621   -0.0038848     0.0390852    0.0096344
 		       0.0393423    0.0098384     0.0043605   -0.0039389    -0.1050868   -0.0620735     0.2484168   -0.9166816
 		       0.0042824   -0.0040918     0.0392015    0.0098219     0.2500048   -0.9177933    -0.1088698   -0.0543358
   0.310000000    -0.1124098   -0.0577283     0.2068954   -0.9279416     0.0404402    0.0082542     0.0040671   -0.0045355 
 		       0.2078447   -0.9273582    -0.1084578   -0.0496025     0.0041351   -0.0043469     0.0403127    0.0082485
 		       0.0405368    0.0084245     0.0041184   -0.0043131    -0.1091881   -0.0574652     0.2086239   -0.9264875
 		       0.0041034   -0.0044478     0.0403791    0.0083543     0.2089748   -0.9279513    -0.1123126   -0.0501450
   0.320000000    -0.1168166   -0.0534613     0.1658560   -0.9340801     0.0415211    0.0066009     0.0037712   -0.0048824 
 		       0.1664403   -0.9338558    -0.1124122   -0.0445980     0.0038292   -0.0048194     0.0413034    0.0066597
 		       0.0415328    0.0067861     0.0038155   -0.0048017    -0.1141566   -0.0528689     0.1700088   -0.9347560
 		       0.0039264   -0.0049172     0.0412899    0.0067685     0.1688834   -0.9334474    -0.1159563   -0.0457256
   0.330000000    -0.1214714   -0.0495105     0.1277306   -0.9395047     0.0424193    0.0050899     0.0035673   -0.0053537 
 		       0.1255676   -0.9383928    -0.1163432   -0.0396293     0.0034978   -0.0051758     0.0422216    0.0050622
 		       0.0425158    0.0051539     0.0034896   -0.0052661    -0.1191978   -0.0485998     0.1295488   -0.9391887
 		       0.0035962   -0.0054113     0.0422942    0.0051356     0.1300645   -0.9381649    -0.1197982   -0.0408302
   0.340000000    -0.1248303   -0.0455091     0.0865675   -0.9426259     0.0433186    0.0034613     0.0031971   -0.0057050 
 		       0.0878515   -0.9432870    -0.1191977   -0.0348633     0.0031205   -0.0055324     0.0430717    0.0034003
 		       0.0433473    0.0034395     0.0030741   -0.0055818    -0.1241864   -0.0442323     0.0891336   -0.9426917
 		       0.0030979   -0.0057626     0.0431228    0.0034797     0.0907699   -0.9425312    -0.1245889   -0.0351255
   0.350000000    -0.1275872   -0.0409619     0.0481568   -0.9447473     0.0440406    0.0017213     0.0027966   -0.0062157 
 		       0.0462213   -0.9441987    -0.1213444   -0.0297642     0.0027199   -0.0058383     0.0437489    0.0016216
 		       0.0441112    0.0017653     0.0027741   -0.0058605    -0.1273053   -0.0401425     0.0490188   -0.9436597
 		       0.0027896   -0.0060916     0.0438751    0.0017789     0.0493798   -0.9446875    -0.1281966   -0.0284906
   0.360000000    -0.1299981   -0.0348316     0.0069120   -0.9442405     0.0445186   -0.0001500     0.0021545   -0.0065364 
 		       0.0062833   -0.9451229    -0.1232987   -0.0237926     0.0023516   -0.0060896     0.0443083   -0.0000670
 		       0.0445913   -0.0000344     0.0022865   -0.0062403    -0.1305616   -0.0352049     0.0079620   -0.9431593
 		       0.0022560   -0.0065635     0.0444702   -0.0000284     0.0094849   -0.9450536    -0.1313799   -0.0226731
   0.370000000    -0.1320775   -0.0272003    -0.0325582   -0.9428518     0.0450171   -0.0019374     0.0015296   -0.0066534 
 		      -0.0334721   -0.9417766    -0.1260078   -0.0172523     0.0017877   -0.0064891     0.0448939   -0.0019337
 		       0.0451710   -0.0018951     0.0018430   -0.0065068    -0.1323569   -0.0294827    -0.0298321   -0.9426067
 		       0.0016125   -0.0067682     0.0449474   -0.0018007    -0.0304211   -0.9431383    -0.1327713   -0.0161530
   0.380000000    -0.1331338   -0.0210406    -0.0707225   -0.9397217     0.0453658   -0.0038144     0.0010335   -0.0067399 
 		      -0.0719978   -0.9400405    -0.1271153   -0.0106910     0.0011638   -0.0067379     0.0451261   -0.0037730
 		       0.0454668   -0.0037180     0.0012529   -0.0067068    -0.1339976   -0.0240118    -0.0695060   -0.9402567
 		       0.0009963   -0.0067858     0.0452404   -0.0036248    -0.0703708   -0.9409555    -0.1331926   -0.0100918
   0.390000000    -0.1355904   -0.0158195    -0.1116946   -0.9357444     0.0456616   -0.0056908     0.0005180   -0.0069789 
 		      -0.1107760   -0.9348129    -0.1288410   -0.0062478     0.0007233   -0.0068006     0.0454092   -0.0055769
 		       0.0457945   -0.0056084     0.0007307   -0.0068549    -0.1347275   -0.0178411    -0.1092412   -0.9355341
 		       0.0005604   -0.0069897     0.0454819   -0.0054984    -0.1091494   -0.9361244    -0.1328224   -0.0045271
   0.400000000    -0.1371122   -0.0103867    -0.1515349   -0.9280887     0.0457531   -0.0075484     0.0000580   -0.0071341 
 		      -0.1523777   -0.9287453    -0.1301904   -0.0011975     0.0001955   -0.0068285     0.0455040   -0.0075211
 		       0.0459647   -0.0075024     0.0001196   -0.0068536    -0.1352914   -0.0123651    -0.1488640   -0.9285462
 		       0.0000453   -0.0070638     0.0457673   -0.0073620    -0.1477062   -0.9297580    -0.1317548    0.0013076
   0.410000000    -0.1379058   -0.0050823    -0.1902023   -0.9214017     0.0457530   -0.0095368    -0.0006650   -0.0071126 
 		      -0.1892013   -0.9215379    -0.1301735    0.0040044    -0.0003464   -0.0069422     0.0455203   -0.0094937
 		       0.0458966   -0.0094444    -0.0002744   -0.0069240    -0.1359535   -0.0071002    -0.1877429   -0.9214834
 		      -0.0005177   -0.0071338     0.0457631   -0.0093967    -0.1873995   -0.9222112    -0.1321508    0.0073444
   0.420000000    -0.1370214    0.0006660    -0.2283772   -0.9115567     0.0456402   -0.0113294    -0.0011620   -0.0071155 
