! MS46524B
! 1918203/M1: 91020113/M2: 91020112
! 9/9/2020 2:28:19 PM
! C:\USERS\ANRITSUUSER\DESKTOP\2118 -5.S4P
! CHANNEL.1
! TR.MEASUREMENT
! CORRECTED.DATA
# GHZ S RI R 50.0
! FREQ.GHZ         S11RE        S11IM         S12RE        S12IM         S13RE        S13IM         S14RE        S14IM         
!		       S21RE        S21IM         S22RE        S22IM         S23RE        S23IM         S24RE        S24IM         
!		       S31RE        S31IM         S32RE        S32IM         S33RE        S33IM         S34RE        S34IM         
!		       S41RE        S41IM         S42RE        S42IM         S43RE        S43IM         S44RE        S44IM         
!; PortSelection: Port_1234
   0.010000000     0.0199019   -0.0058331     0.9740850   -0.0867157     0.0009342    0.0040836    -0.0005228    0.0003261 
 		       0.9734852   -0.0866584     0.0195174   -0.0053150    -0.0004868    0.0003286     0.0008891    0.0040558
 		       0.0009229    0.0040199    -0.0004557    0.0003330     0.0202416   -0.0053909     0.9739909   -0.0877809
 		      -0.0004828    0.0003582     0.0009126    0.0040466     0.9728206   -0.0867501     0.0201965   -0.0050298
   0.020000000     0.0213652   -0.0140762     0.9602864   -0.1697903     0.0020665    0.0077265    -0.0003982    0.0008267 
 		       0.9598851   -0.1701764     0.0203077   -0.0130706    -0.0004070    0.0008515     0.0020369    0.0077164
 		       0.0020273    0.0077496    -0.0004012    0.0008382     0.0208235   -0.0142346     0.9593971   -0.1705249
 		      -0.0004206    0.0008650     0.0020266    0.0077618     0.9591874   -0.1698735     0.0203005   -0.0135605
   0.030000000     0.0217747   -0.0237690     0.9398423   -0.2508896     0.0038075    0.0111268    -0.0001608    0.0013521 
 		       0.9392306   -0.2506069     0.0201882   -0.0222798    -0.0001847    0.0013374     0.0037404    0.0111425
 		       0.0037782    0.0111799    -0.0001573    0.0013633     0.0197279   -0.0235935     0.9382080   -0.2509647
 		      -0.0001448    0.0013643     0.0036798    0.0111492     0.9378652   -0.2501693     0.0185730   -0.0223361
   0.040000000     0.0200325   -0.0335248     0.9125415   -0.3292797     0.0061075    0.0142082     0.0002682    0.0017890 
 		       0.9123512   -0.3290078     0.0180014   -0.0314967     0.0002638    0.0017738     0.0059504    0.0142443
 		       0.0060489    0.0142376     0.0003039    0.0018307     0.0176158   -0.0329196     0.9113203   -0.3288773
 		       0.0002724    0.0018163     0.0059410    0.0142699     0.9115176   -0.3270842     0.0157311   -0.0311390
   0.050000000     0.0163977   -0.0423842     0.8793970   -0.4038005     0.0088550    0.0168452     0.0007965    0.0021428 
 		       0.8792512   -0.4038473     0.0141701   -0.0393253     0.0008191    0.0021240     0.0086653    0.0168829
 		       0.0088189    0.0169000     0.0008179    0.0020713     0.0144268   -0.0420395     0.8779418   -0.4034542
 		       0.0008422    0.0021113     0.0086034    0.0169447     0.8778833   -0.4023392     0.0120490   -0.0398655
   0.060000000     0.0109875   -0.0507935     0.8395574   -0.4751032     0.0120048    0.0190255     0.0014507    0.0022582 
 		       0.8387919   -0.4750853     0.0085543   -0.0462809     0.0014694    0.0022678     0.0116831    0.0190857
 		       0.0119787    0.0190835     0.0014622    0.0022508     0.0096946   -0.0507142     0.8386457   -0.4745582
 		       0.0014426    0.0022867     0.0116717    0.0191554     0.8386230   -0.4738303     0.0069633   -0.0482659
   0.070000000     0.0039261   -0.0590628     0.7950667   -0.5426755     0.0155133    0.0205362     0.0021592    0.0022936 
 		       0.7942438   -0.5427179     0.0010746   -0.0526017     0.0021864    0.0022203     0.0151369    0.0207438
 		       0.0154928    0.0206146     0.0021912    0.0023020     0.0029067   -0.0585220     0.7938882   -0.5405173
 		       0.0021661    0.0023440     0.0150636    0.0208036     0.7939350   -0.5396861    -0.0001822   -0.0558572
   0.080000000    -0.0050093   -0.0665963     0.7438078   -0.6054991     0.0192151    0.0215272     0.0029106    0.0020772 
 		       0.7435749   -0.6062152    -0.0082882   -0.0581213     0.0028982    0.0020017     0.0187892    0.0218306
 		       0.0192389    0.0216666     0.0029188    0.0020072    -0.0054937   -0.0647435     0.7446453   -0.6032917
 		       0.0029645    0.0021359     0.0187057    0.0219078     0.7445756   -0.6032495    -0.0085622   -0.0614503
   0.090000000    -0.0146723   -0.0729182     0.6887586   -0.6635623     0.0230634    0.0218574     0.0036317    0.0017356 
 		       0.6878108   -0.6632186    -0.0182889   -0.0625396     0.0035679    0.0016327     0.0224931    0.0223711
 		       0.0230743    0.0220163     0.0035981    0.0016502    -0.0148221   -0.0695242     0.6894382   -0.6615852
 		       0.0036551    0.0017280     0.0225538    0.0224585     0.6896666   -0.6616641    -0.0179978   -0.0655399
   0.100000000    -0.0238161   -0.0775454     0.6285409   -0.7171339     0.0268948    0.0216587     0.0042677    0.0012576 
 		       0.6282703   -0.7169591    -0.0277502   -0.0654501     0.0040895    0.0011305     0.0262746    0.0222573
 		       0.0269471    0.0218119     0.0040756    0.0011228    -0.0245851   -0.0728827     0.6303881   -0.7145044
 		       0.0042736    0.0012408     0.0263329    0.0223680     0.6304411   -0.7145506    -0.0280210   -0.0680585
   0.110000000    -0.0339407   -0.0802663     0.5651124   -0.7637942     0.0307534    0.0208040     0.0047824    0.0004964 
 		       0.5647349   -0.7637964    -0.0372264   -0.0666576     0.0045919    0.0005110     0.0300649    0.0215820
 		       0.0307812    0.0209763     0.0046138    0.0005280    -0.0343428   -0.0751014     0.5667864   -0.7624660
 		       0.0048241    0.0006383     0.0300695    0.0216903     0.5671512   -0.7617998    -0.0382612   -0.0692977
   0.120000000    -0.0448812   -0.0808234     0.4981616   -0.8047044     0.0343139    0.0193831     0.0051751   -0.0003227 
 		       0.4980643   -0.8054713    -0.0470735   -0.0654330     0.0050051   -0.0002856     0.0335502    0.0202943
 		       0.0343512    0.0195138     0.0050047   -0.0003237    -0.0438741   -0.0764864     0.4990966   -0.8044384
 		       0.0052253   -0.0003262     0.0335909    0.0204437     0.5010474   -0.8038000    -0.0487509   -0.0695650
   0.130000000    -0.0564339   -0.0793096     0.4297429   -0.8413665     0.0377271    0.0173089     0.0053116   -0.0012868 
 		       0.4284555   -0.8401629    -0.0568285   -0.0621412     0.0051804   -0.0012533     0.0368701    0.0185836
 		       0.0376768    0.0175508     0.0051511   -0.0012731    -0.0543272   -0.0768664     0.4315176   -0.8390851
 		       0.0053961   -0.0012810     0.0369703    0.0187164     0.4323043   -0.8393285    -0.0595037   -0.0683239
   0.140000000    -0.0674937   -0.0770058     0.3577690   -0.8713905     0.0407078    0.0148980     0.0052847   -0.0022556 
 		       0.3577294   -0.8708669    -0.0663305   -0.0580924     0.0051289   -0.0021390     0.0400155    0.0163611
 		       0.0408014    0.0150956     0.0050904   -0.0021149    -0.0642556   -0.0742765     0.3611510   -0.8705381
 		       0.0053512   -0.0022139     0.0399821    0.0164518     0.3602085   -0.8700584    -0.0695626   -0.0641262
   0.150000000    -0.0780909   -0.0737801     0.2847783   -0.8959859     0.0434151    0.0120644     0.0050736   -0.0031282 
 		       0.2844716   -0.8948333    -0.0752401   -0.0533081     0.0048979   -0.0030685     0.0426686    0.0137723
 		       0.0434429    0.0121571     0.0049521   -0.0029899    -0.0745184   -0.0703582     0.2868661   -0.8943423
 		       0.0051340   -0.0031314     0.0427024    0.0139296     0.2865619   -0.8949711    -0.0780662   -0.0580406
   0.160000000    -0.0870903   -0.0693354     0.2090201   -0.9131919     0.0454840    0.0087034     0.0046605   -0.0040351 
 		       0.2078175   -0.9127808    -0.0826013   -0.0477415     0.0045348   -0.0039386     0.0448768    0.0107883
 		       0.0456544    0.0088929     0.0045475   -0.0039354    -0.0831198   -0.0647147     0.2118099   -0.9121691
 		       0.0047549   -0.0041019     0.0449870    0.0108875     0.2128313   -0.9124707    -0.0849245   -0.0505691
   0.170000000    -0.0944232   -0.0629317     0.1330447   -0.9246197     0.0472331    0.0051784     0.0040655   -0.0048823 
 		       0.1335923   -0.9235661    -0.0883987   -0.0403143     0.0039872   -0.0046937     0.0467132    0.0075136
 		       0.0473662    0.0053641     0.0039772   -0.0047736    -0.0909924   -0.0582768     0.1365294   -0.9240075
 		       0.0040828   -0.0049313     0.0467561    0.0076179     0.1361198   -0.9245925    -0.0904078   -0.0421270
   0.180000000    -0.1004306   -0.0550691     0.0583555   -0.9297878     0.0483321    0.0014466     0.0033269   -0.0055685 
 		       0.0569590   -0.9291341    -0.0926561   -0.0315851     0.0032791   -0.0052934     0.0481220    0.0040687
 		       0.0485931    0.0016157     0.0032453   -0.0053393    -0.0963175   -0.0519675     0.0609394   -0.9313694
 		       0.0034260   -0.0055076     0.0481736    0.0041619     0.0623906   -0.9303110    -0.0944955   -0.0337867
   0.190000000    -0.1061566   -0.0463634    -0.0180456   -0.9286249     0.0489884   -0.0023189     0.0024868   -0.0060826 
 		      -0.0180879   -0.9288798    -0.0963314   -0.0216686     0.0024702   -0.0058436     0.0488970    0.0003959
 		       0.0492356   -0.0022666     0.0024789   -0.0058262    -0.1002703   -0.0454089    -0.0150378   -0.9296260
 		       0.0026373   -0.0060413     0.0490273    0.0005370    -0.0145414   -0.9301702    -0.0976576   -0.0249053
   0.200000000    -0.1112336   -0.0371235    -0.0940125   -0.9222934     0.0490776   -0.0062679     0.0015360   -0.0064982 
 		      -0.0934026   -0.9213091    -0.0988409   -0.0110854     0.0015153   -0.0062764     0.0492658   -0.0031842
 		       0.0492522   -0.0061299     0.0015970   -0.0062352    -0.1030247   -0.0384874    -0.0898502   -0.9239035
 		       0.0016573   -0.0065924     0.0493117   -0.0031790    -0.0906996   -0.9236153    -0.1002586   -0.0160147
   0.210000000    -0.1150912   -0.0277803    -0.1671537   -0.9094713     0.0485644   -0.0102348     0.0005961   -0.0067678 
 		      -0.1677493   -0.9083039    -0.0999753   -0.0007465     0.0006039   -0.0064583     0.0490837   -0.0069326
 		       0.0488355   -0.0100342     0.0006113   -0.0064535    -0.1059230   -0.0303560    -0.1636562   -0.9123415
 		       0.0005796   -0.0069366     0.0492409   -0.0067988    -0.1636996   -0.9118550    -0.1013428   -0.0061589
   0.220000000    -0.1164606   -0.0190633    -0.2394373   -0.8907703     0.0476026   -0.0138868    -0.0004219   -0.0067993 
 		      -0.2397707   -0.8901479    -0.0992186    0.0082362    -0.0003313   -0.0064637     0.0484232   -0.0104061
 		       0.0478159   -0.0138599    -0.0003478   -0.0064309    -0.1077256   -0.0218634    -0.2370321   -0.8933642
 		      -0.0004480   -0.0068295     0.0485050   -0.0103961    -0.2367372   -0.8942930    -0.1005349    0.0031909
   0.230000000    -0.1159081   -0.0102431    -0.3114760   -0.8653173     0.0460714   -0.0175076    -0.0014579   -0.0067332 
 		      -0.3114135   -0.8662504    -0.0968395    0.0162259    -0.0012618   -0.0063364     0.0473734   -0.0138396
 		       0.0463180   -0.0173806    -0.0013014   -0.0063582    -0.1085394   -0.0122210    -0.3084973   -0.8691151
 		      -0.0013567   -0.0067173     0.0473841   -0.0138380    -0.3080113   -0.8707556    -0.0982615    0.0127267
   0.240000000    -0.1139513   -0.0012024    -0.3786246   -0.8365843     0.0441726   -0.0207899    -0.0024618   -0.0063709 
 		      -0.3788509   -0.8359146    -0.0926706    0.0235188    -0.0021902   -0.0061915     0.0456774   -0.0171090
 		       0.0443596   -0.0207122    -0.0021854   -0.0061384    -0.1077694   -0.0026133    -0.3755709   -0.8405372
 		      -0.0023707   -0.0065295     0.0457562   -0.0170062    -0.3766495   -0.8410261    -0.0944670    0.0213911
   0.250000000    -0.1101563    0.0084083    -0.4453169   -0.8032069     0.0417102   -0.0237746    -0.0033743   -0.0056834 
 		      -0.4431466   -0.8021621    -0.0868701    0.0309868    -0.0031186   -0.0056253     0.0437495   -0.0199563
 		       0.0418934   -0.0236802    -0.0030962   -0.0055904    -0.1056031    0.0051969    -0.4429654   -0.8069604
 		      -0.0033679   -0.0059315     0.0438653   -0.0199161    -0.4437490   -0.8054727    -0.0898622    0.0289451
   0.260000000    -0.1058225    0.0164239    -0.5068586   -0.7633732     0.0389480   -0.0263847    -0.0040472   -0.0049893 
 		      -0.5064568   -0.7632872    -0.0800562    0.0371815    -0.0038251   -0.0049176     0.0414201   -0.0224967
 		       0.0391536   -0.0264246    -0.0037235   -0.0049577    -0.1012498    0.0112651    -0.5057553   -0.7670110
 		      -0.0040602   -0.0051871     0.0414793   -0.0224905    -0.5046850   -0.7665305    -0.0840286    0.0352977
   0.270000000    -0.1006431    0.0226908    -0.5654985   -0.7186076     0.0358050   -0.0285904    -0.0045552   -0.0043375 
 		      -0.5657210   -0.7181445    -0.0728407    0.0423080    -0.0043182   -0.0041603     0.0387798   -0.0247613
 		       0.0360163   -0.0285872    -0.0042489   -0.0042732    -0.0954993    0.0160505    -0.5642823   -0.7223879
 		      -0.0045626   -0.0045466     0.0388659   -0.0247747    -0.5646219   -0.7233092    -0.0771935    0.0402693
   0.280000000    -0.0949464    0.0281693    -0.6212664   -0.6713849     0.0324713   -0.0303957    -0.0049696   -0.0036441 
 		      -0.6221089   -0.6675826    -0.0650371    0.0469144    -0.0047034   -0.0034993     0.0358990   -0.0266323
 		       0.0326757   -0.0303437    -0.0047531   -0.0034589    -0.0886344    0.0199450    -0.6209799   -0.6738775
 		      -0.0051067   -0.0037601     0.0359689   -0.0266326    -0.6204899   -0.6738798    -0.0691043    0.0435535
   0.290000000    -0.0873905    0.0321462    -0.6725835   -0.6167430     0.0290442   -0.0315114    -0.0052859   -0.0028605 
 		      -0.6708534   -0.6172333    -0.0558899    0.0506592    -0.0049465   -0.0026690     0.0328233   -0.0279297
 		       0.0290956   -0.0315837    -0.0049754   -0.0027231    -0.0811663    0.0231649    -0.6731117   -0.6198441
 		      -0.0054040   -0.0028986     0.0327260   -0.0280074    -0.6728473   -0.6206704    -0.0601919    0.0452705
   0.300000000    -0.0793240    0.0347718    -0.7187172   -0.5598085     0.0252640   -0.0322484    -0.0053938   -0.0020269 
 		      -0.7202432   -0.5592363    -0.0467236    0.0524405    -0.0050413   -0.0019281     0.0295265   -0.0289175
 		       0.0254482   -0.0322847    -0.0050693   -0.0019056    -0.0741878    0.0263794    -0.7183192   -0.5638480
 		      -0.0054108   -0.0020385     0.0296278   -0.0288661    -0.7189353   -0.5643474    -0.0512099    0.0452078
   0.310000000    -0.0711480    0.0367730    -0.7630673   -0.4982221     0.0215694   -0.0324966    -0.0052844   -0.0011882 
 		      -0.7615186   -0.4993656    -0.0380567    0.0523626    -0.0050292   -0.0011277     0.0263417   -0.0293454
 		       0.0218192   -0.0325386    -0.0049681   -0.0011816    -0.0669438    0.0284663    -0.7627972   -0.5028180
 		      -0.0053309   -0.0013462     0.0263241   -0.0293405    -0.7631091   -0.5034117    -0.0426036    0.0447401
   0.320000000    -0.0633258    0.0377393    -0.8000128   -0.4343717     0.0179042   -0.0320156    -0.0051266   -0.0005250 
 		      -0.7985120   -0.4344232    -0.0298199    0.0505272    -0.0049028   -0.0004514     0.0230369   -0.0293042
 		       0.0180434   -0.0321175    -0.0048660   -0.0004861    -0.0599855    0.0296837    -0.8004386   -0.4395444
 		      -0.0052381   -0.0006328     0.0230889   -0.0292459    -0.7989044   -0.4393446    -0.0347268    0.0438289
   0.330000000    -0.0553824    0.0370794    -0.8319136   -0.3695622     0.0144734   -0.0312171    -0.0048040    0.0000116 
 		      -0.8308019   -0.3670367    -0.0218788    0.0469749    -0.0045748    0.0001146     0.0199643   -0.0287426
 		       0.0145259   -0.0312099    -0.0046223    0.0000885    -0.0533380    0.0290141    -0.8315837   -0.3727265
 		      -0.0050170    0.0000541     0.0199029   -0.0286581    -0.8313349   -0.3739543    -0.0266962    0.0421533
   0.340000000    -0.0479552    0.0340948    -0.8567833   -0.3005711     0.0111118   -0.0298401    -0.0045134    0.0005534 
 		      -0.8573216   -0.2996235    -0.0143518    0.0416240    -0.0040963    0.0006012     0.0168373   -0.0276938
 		       0.0112118   -0.0298150    -0.0042098    0.0005643    -0.0467725    0.0268982    -0.8586562   -0.3046393
 		      -0.0046133    0.0006071     0.0168852   -0.0276970    -0.8581774   -0.3052409    -0.0189675    0.0383530
   0.350000000    -0.0404026    0.0305545    -0.8785936   -0.2302089     0.0080684   -0.0279059    -0.0041120    0.0009724 
 		      -0.8771145   -0.2286941    -0.0072282    0.0360397    -0.0038384    0.0008894     0.0140782   -0.0262781
 		       0.0080938   -0.0279687    -0.0037874    0.0009241    -0.0404142    0.0227147    -0.8790930   -0.2323577
 		      -0.0042173    0.0010369     0.0141180   -0.0263522    -0.8800428   -0.2333455    -0.0121194    0.0326934
   0.360000000    -0.0324513    0.0258677    -0.8931542   -0.1562383     0.0052895   -0.0255425    -0.0036321    0.0013487 
 		      -0.8921344   -0.1577746    -0.0010071    0.0301541    -0.0033929    0.0012380     0.0116716   -0.0244135
 		       0.0053901   -0.0256777    -0.0033252    0.0011845    -0.0343216    0.0174185    -0.8949386   -0.1601121
 		      -0.0036847    0.0013906     0.0116988   -0.0244838    -0.8951398   -0.1605434    -0.0067380    0.0243591
   0.370000000    -0.0257998    0.0197036    -0.9030021   -0.0849428     0.0030392   -0.0229612    -0.0030339    0.0013680 
 		      -0.9016387   -0.0839257     0.0039229    0.0228277    -0.0029004    0.0014493     0.0095492   -0.0223620
 		       0.0031880   -0.0229857    -0.0028849    0.0013608    -0.0293378    0.0111693    -0.9050239   -0.0875136
 		      -0.0031012    0.0014965     0.0095368   -0.0222501    -0.9045599   -0.0868838    -0.0033336    0.0143656
   0.380000000    -0.0218157    0.0126209    -0.9061936   -0.0108653     0.0011482   -0.0199517    -0.0026238    0.0014378 
 		      -0.9056927   -0.0093206     0.0058727    0.0148556    -0.0024944    0.0013397     0.0077801   -0.0197799
 		       0.0012644   -0.0200052    -0.0024508    0.0013722    -0.0255586    0.0043721    -0.9072762   -0.0137690
 		      -0.0027041    0.0014360     0.0077776   -0.0197874    -0.9081982   -0.0131070    -0.0016766    0.0047150
   0.390000000    -0.0197262    0.0052929    -0.9029772    0.0637347    -0.0001992   -0.0166781    -0.0022482    0.0013469 
 		      -0.9012009    0.0644266     0.0061092    0.0058769    -0.0021312    0.0012345     0.0064497   -0.0170918
 		      -0.0001614   -0.0167425    -0.0021233    0.0012262    -0.0237460   -0.0027113    -0.9048793    0.0609696
 		      -0.0023861    0.0013263     0.0065821   -0.0171152    -0.9054043    0.0601331    -0.0011105   -0.0041864
   0.400000000    -0.0186210   -0.0027342    -0.8929800    0.1380409    -0.0009937   -0.0133712    -0.0020925    0.0011604 
 		      -0.8919763    0.1382270     0.0059499   -0.0034646    -0.0018916    0.0010679     0.0057514   -0.0143467
 		      -0.0009853   -0.0134015    -0.0019674    0.0010274    -0.0235275   -0.0100835    -0.8953187    0.1346145
 		      -0.0021464    0.0012057     0.0057546   -0.0143463    -0.8962987    0.1338968    -0.0014546   -0.0123105
   0.410000000    -0.0175622   -0.0113107    -0.8791726    0.2099318    -0.0012172   -0.0098862    -0.0019860    0.0009546 
 		      -0.8785562    0.2080156     0.0059620   -0.0126052    -0.0018208    0.0008602     0.0053949   -0.0114683
 		      -0.0012342   -0.0099694    -0.0018181    0.0008981    -0.0240863   -0.0174135    -0.8814608    0.2062575
 		      -0.0020050    0.0009155     0.0054139   -0.0114259    -0.8809999    0.2060471    -0.0024137   -0.0201418
   0.420000000    -0.0183166   -0.0201592    -0.8573009    0.2803770    -0.0009296   -0.0065160    -0.0019214    0.0007210 
