! MS46524B
! 1918203/M1: 91020113/M2: 91020112
! 9/9/2020 2:28:19 PM
! C:\USERS\ANRITSUUSER\DESKTOP\2118 -5.S4P
! CHANNEL.1
! TR.MEASUREMENT
! CORRECTED.DATA
# GHZ S RI R 50.0
! FREQ.HZ          S11RE        S11IM         S12RE        S12IM         S13RE        S13IM         S14RE        S14IM         
!		       S21RE        S21IM         S22RE        S22IM         S23RE        S23IM         S24RE        S24IM         
!		       S31RE        S31IM         S32RE        S32IM         S33RE        S33IM         S34RE        S34IM         
!		       S41RE        S41IM         S42RE        S42IM         S43RE        S43IM         S44RE        S44IM         
!; PortSelection: Port_1234
      10000000     0.0207391   -0.0033411     0.9759468   -0.0863753     0.0008803    0.0040182    -0.0004839    0.0001017 
 		       0.9767283   -0.0861679     0.0204330   -0.0027963    -0.0005396    0.0001100     0.0009285    0.0039337
 		       0.0009121    0.0040077    -0.0005408    0.0001519     0.0218622   -0.0031201     0.9718824   -0.0858464
 		      -0.0004717    0.0000985     0.0008925    0.0039636     0.9706146   -0.0856904     0.0216684   -0.0026491
      20000000     0.0222267   -0.0086572     0.9619274   -0.1683325     0.0020416    0.0075435    -0.0005597    0.0004841 
 		       0.9625576   -0.1688065     0.0220423   -0.0076312    -0.0005258    0.0004918     0.0020687    0.0075350
 		       0.0019934    0.0075579    -0.0006024    0.0004905     0.0232326   -0.0089845     0.9583757   -0.1688020
 		      -0.0005837    0.0004431     0.0020521    0.0075091     0.9575596   -0.1678441     0.0227890   -0.0078699
      30000000     0.0232062   -0.0154862     0.9421208   -0.2490971     0.0036681    0.0108970    -0.0004565    0.0008111 
 		       0.9429604   -0.2488475     0.0230723   -0.0144135    -0.0004448    0.0008518     0.0037239    0.0108620
 		       0.0036348    0.0109164    -0.0004564    0.0008409     0.0237618   -0.0156690     0.9368897   -0.2490455
 		      -0.0004500    0.0008414     0.0037227    0.0108554     0.9361515   -0.2479205     0.0231477   -0.0140562
      40000000     0.0226387   -0.0226907     0.9152802   -0.3266906     0.0058490    0.0139315    -0.0002356    0.0011603 
 		       0.9154122   -0.3262655     0.0224912   -0.0219014    -0.0001886    0.0011898     0.0059367    0.0139029
 		       0.0057995    0.0139367    -0.0001911    0.0012126     0.0236399   -0.0223923     0.9112398   -0.3258258
 		      -0.0001731    0.0011869     0.0058684    0.0138302     0.9108597   -0.3248095     0.0232868   -0.0211031
      50000000     0.0203258   -0.0288013     0.8832655   -0.4010246     0.0084327    0.0165517     0.0001273    0.0014699 
 		       0.8827713   -0.4012881     0.0202533   -0.0285826     0.0001437    0.0014250     0.0085865    0.0164568
 		       0.0083898    0.0165074     0.0001756    0.0014325     0.0224505   -0.0290752     0.8780429   -0.4002869
 		       0.0001418    0.0014366     0.0085365    0.0164238     0.8779870   -0.3996619     0.0223484   -0.0287743
      60000000     0.0170738   -0.0343943     0.8444940   -0.4722720     0.0114323    0.0187404     0.0005899    0.0016557 
 		       0.8439930   -0.4724090     0.0171587   -0.0347457     0.0005996    0.0016289     0.0116689    0.0185889
 		       0.0114145    0.0187261     0.0005876    0.0015988     0.0197585   -0.0356981     0.8394772   -0.4712173
 		       0.0005769    0.0016090     0.0115882    0.0185604     0.8393364   -0.4706851     0.0198058   -0.0368672
      70000000     0.0120633   -0.0404919     0.8007410   -0.5405766     0.0147676    0.0204102     0.0010929    0.0016434 
 		       0.8001807   -0.5398520     0.0128732   -0.0412087     0.0010756    0.0016185     0.0149812    0.0201688
 		       0.0147422    0.0203460     0.0010706    0.0016569     0.0149071   -0.0416265     0.7956439   -0.5376530
 		       0.0011048    0.0016988     0.0149492    0.0201566     0.7952951   -0.5365018     0.0150342   -0.0441565
      80000000     0.0052546   -0.0460413     0.7507676   -0.6040373     0.0183507    0.0215138     0.0016429    0.0015536 
 		       0.7501537   -0.6036067     0.0070073   -0.0475874     0.0016103    0.0015507     0.0186654    0.0212216
 		       0.0182881    0.0214686     0.0016208    0.0015706     0.0082522   -0.0462006     0.7462186   -0.6004549
 		       0.0016512    0.0015825     0.0185561    0.0211799     0.7458593   -0.6003988     0.0087113   -0.0494770
      90000000    -0.0023283   -0.0502875     0.6958370   -0.6623377     0.0219759    0.0220075     0.0020656    0.0012911 
 		       0.6964308   -0.6620767     0.0006734   -0.0526687     0.0020808    0.0013395     0.0223515    0.0216419
 		       0.0219919    0.0220194     0.0021145    0.0013346     0.0007074   -0.0496674     0.6920287   -0.6583252
 		       0.0021345    0.0012958     0.0223513    0.0216315     0.6920402   -0.6582739     0.0015275   -0.0531476
     100000000    -0.0091436   -0.0531175     0.6372089   -0.7156132     0.0257546    0.0220357     0.0025056    0.0009978 
 		       0.6381223   -0.7162088    -0.0054670   -0.0563651     0.0024821    0.0010510     0.0261550    0.0215210
 		       0.0257211    0.0219719     0.0024971    0.0010074    -0.0068429   -0.0525165     0.6337517   -0.7119184
 		       0.0024481    0.0009787     0.0260822    0.0214882     0.6336936   -0.7112958    -0.0056356   -0.0556914
     110000000    -0.0159351   -0.0551038     0.5747876   -0.7639609     0.0294736    0.0214270     0.0028675    0.0006054 
 		       0.5748693   -0.7635648    -0.0121784   -0.0586470     0.0028803    0.0006394     0.0298730    0.0207496
 		       0.0293989    0.0214027     0.0029137    0.0006397    -0.0141625   -0.0546469     0.5700177   -0.7608994
 		       0.0028424    0.0006214     0.0298400    0.0207172     0.5705208   -0.7606947    -0.0128815   -0.0579313
     120000000    -0.0231693   -0.0556406     0.5080932   -0.8055535     0.0330288    0.0202740     0.0031647    0.0000732 
 		       0.5086282   -0.8066593    -0.0196969   -0.0587902     0.0032126    0.0001088     0.0334527    0.0193845
 		       0.0329219    0.0202356     0.0031880    0.0001050    -0.0207891   -0.0565109     0.5048417   -0.8034874
 		       0.0032154    0.0000761     0.0333761    0.0194484     0.5058507   -0.8028916    -0.0199458   -0.0605392
     130000000    -0.0307735   -0.0549861     0.4400551   -0.8439030     0.0364456    0.0185298     0.0033675   -0.0005201 
 		       0.4397593   -0.8435230    -0.0278421   -0.0578645     0.0033609   -0.0005260     0.0368323    0.0176080
 		       0.0363606    0.0186051     0.0033516   -0.0005601    -0.0280904   -0.0573060     0.4379385   -0.8393113
 		       0.0033376   -0.0005191     0.0367626    0.0176124     0.4365273   -0.8400760    -0.0274759   -0.0623052
     140000000    -0.0384168   -0.0538069     0.3677756   -0.8733875     0.0395018    0.0164112     0.0033835   -0.0011392 
 		       0.3682910   -0.8749670    -0.0360334   -0.0569017     0.0033509   -0.0011690     0.0399333    0.0151783
 		       0.0394394    0.0164069     0.0033992   -0.0011319    -0.0351296   -0.0557621     0.3661777   -0.8705197
 		       0.0034023   -0.0011000     0.0398256    0.0152563     0.3650795   -0.8707991    -0.0351971   -0.0625396
     150000000    -0.0462774   -0.0517886     0.2957664   -0.9000015     0.0422482    0.0137963     0.0033529   -0.0018319 
 		       0.2944009   -0.9004577    -0.0439273   -0.0561089     0.0033023   -0.0017618     0.0425898    0.0124817
 		       0.0421453    0.0138209     0.0034115   -0.0017482    -0.0422181   -0.0519752     0.2926584   -0.8956690
 		       0.0033929   -0.0018366     0.0424780    0.0124712     0.2931987   -0.8953823    -0.0424494   -0.0608181
     160000000    -0.0530883   -0.0481062     0.2199509   -0.9183851     0.0446481    0.0108232     0.0031409   -0.0025564 
 		       0.2191080   -0.9197421    -0.0502500   -0.0544305     0.0030887   -0.0024960     0.0448065    0.0091868
 		       0.0445615    0.0108372     0.0031483   -0.0025164    -0.0491273   -0.0468870     0.2176231   -0.9142600
 		       0.0032104   -0.0025806     0.0447910    0.0093761     0.2169098   -0.9141240    -0.0494373   -0.0577375
     170000000    -0.0576619   -0.0429148     0.1444038   -0.9314551     0.0464646    0.0075504     0.0028219   -0.0031633 
 		       0.1438386   -0.9311810    -0.0553112   -0.0510795     0.0027101   -0.0030437     0.0465819    0.0058038
 		       0.0463880    0.0075632     0.0026797   -0.0031117    -0.0550091   -0.0406820     0.1418600   -0.9263705
 		       0.0027274   -0.0032163     0.0465361    0.0059104     0.1419132   -0.9266255    -0.0553878   -0.0530922
     180000000    -0.0618652   -0.0372963     0.0657363   -0.9379400     0.0478266    0.0040282     0.0022603   -0.0037159 
 		       0.0667490   -0.9387805    -0.0596723   -0.0464051     0.0022680   -0.0036083     0.0478188    0.0021891
 		       0.0477761    0.0040697     0.0021965   -0.0035724    -0.0599455   -0.0350986     0.0662711   -0.9332765
 		       0.0021844   -0.0036883     0.0478118    0.0022441     0.0657428   -0.9337192    -0.0612356   -0.0481108
     190000000    -0.0656804   -0.0310222    -0.0104159   -0.9383129     0.0487572    0.0004458     0.0015773   -0.0041618 
 		      -0.0104960   -0.9389163    -0.0642286   -0.0401533     0.0016452   -0.0039689     0.0485757   -0.0016370
 		       0.0487581    0.0004803     0.0016983   -0.0039537    -0.0639345   -0.0292484    -0.0103700   -0.9341745
 		       0.0016487   -0.0040478     0.0485914   -0.0015807    -0.0093173   -0.9335071    -0.0664259   -0.0420849
     200000000    -0.0692219   -0.0242634    -0.0846650   -0.9322029     0.0490817   -0.0033021     0.0009585   -0.0044376 
 		      -0.0862174   -0.9333029    -0.0685434   -0.0335975     0.0010477   -0.0042746     0.0488057   -0.0055110
 		       0.0490880   -0.0032894     0.0010569   -0.0042675    -0.0668531   -0.0242237    -0.0859737   -0.9274576
 		       0.0010420   -0.0044688     0.0486983   -0.0055269    -0.0862733   -0.9281912    -0.0704426   -0.0356041
     210000000    -0.0708954   -0.0173393    -0.1615918   -0.9202639     0.0489814   -0.0070378     0.0002051   -0.0046089 
 		      -0.1616063   -0.9202081    -0.0712222   -0.0273501     0.0002578   -0.0044364     0.0484951   -0.0093944
 		       0.0489393   -0.0069580     0.0004345   -0.0044617    -0.0691961   -0.0188220    -0.1597053   -0.9161254
 		       0.0001471   -0.0046567     0.0484668   -0.0093444    -0.1604219   -0.9164487    -0.0731492   -0.0286915
     220000000    -0.0708195   -0.0115768    -0.2350790   -0.9028230     0.0484035   -0.0106824    -0.0004884   -0.0045927 
 		      -0.2347130   -0.9027719    -0.0722248   -0.0223525    -0.0004203   -0.0044429     0.0475192   -0.0132193
 		       0.0483167   -0.0106335    -0.0004065   -0.0044634    -0.0706575   -0.0132145    -0.2349844   -0.8981622
 		      -0.0005419   -0.0046058     0.0475387   -0.0131077    -0.2356441   -0.8979540    -0.0742164   -0.0225348
     230000000    -0.0696755   -0.0063286    -0.3070640   -0.8788195     0.0471611   -0.0141818    -0.0011619   -0.0045666 
 		      -0.3069460   -0.8790632    -0.0720714   -0.0178088    -0.0009619   -0.0044198     0.0461276   -0.0167772
 		       0.0471407   -0.0141369    -0.0010442   -0.0044820    -0.0709044   -0.0066630    -0.3052118   -0.8736865
 		      -0.0011490   -0.0044449     0.0461378   -0.0166774    -0.3063887   -0.8747414    -0.0734221   -0.0159932
     240000000    -0.0675456   -0.0005095    -0.3762366   -0.8494368     0.0456568   -0.0174832    -0.0018938   -0.0043089 
 		      -0.3770617   -0.8494441    -0.0704623   -0.0123103    -0.0016952   -0.0042421     0.0442459   -0.0201480
 		       0.0456556   -0.0174151    -0.0017605   -0.0042792    -0.0691316   -0.0002531    -0.3744703   -0.8461731
 		      -0.0018046   -0.0043537     0.0442507   -0.0200617    -0.3749325   -0.8458263    -0.0720997   -0.0106795
     250000000    -0.0643528    0.0053459    -0.4430386   -0.8157629     0.0435872   -0.0205328    -0.0026205   -0.0039480 
 		      -0.4421549   -0.8161197    -0.0678855   -0.0059734    -0.0024837   -0.0039627     0.0419932   -0.0230974
 		       0.0435772   -0.0203586    -0.0024343   -0.0039729    -0.0662218    0.0055738    -0.4415894   -0.8112686
 		      -0.0025777   -0.0039360     0.0419516   -0.0230616    -0.4414769   -0.8113181    -0.0707452   -0.0049742
     260000000    -0.0610422    0.0104427    -0.5061726   -0.7763109     0.0412912   -0.0230902    -0.0029999   -0.0033927 
 		      -0.5062827   -0.7763317    -0.0656244   -0.0003663    -0.0030960   -0.0034367     0.0392790   -0.0258060
 		       0.0413108   -0.0231041    -0.0029193   -0.0034021    -0.0617313    0.0103835    -0.5040833   -0.7720091
 		      -0.0028853   -0.0034610     0.0393429   -0.0257584    -0.5036544   -0.7726679    -0.0691764    0.0004052
     270000000    -0.0578172    0.0155244    -0.5665540   -0.7313168     0.0385592   -0.0254173    -0.0034675   -0.0030482 
 		      -0.5653988   -0.7329907    -0.0639033    0.0039294    -0.0033935   -0.0029170     0.0363743   -0.0279939
 		       0.0384471   -0.0254127    -0.0033922   -0.0029026    -0.0563157    0.0142948    -0.5642335   -0.7274607
 		      -0.0034323   -0.0030374     0.0363533   -0.0281158    -0.5637057   -0.7277485    -0.0664509    0.0055201
     280000000    -0.0531690    0.0197825    -0.6211767   -0.6833118     0.0355891   -0.0273212    -0.0038822   -0.0025351 
 		      -0.6234716   -0.6822382    -0.0613231    0.0079911    -0.0037068   -0.0023929     0.0330114   -0.0298844
 		       0.0355645   -0.0272688    -0.0037544   -0.0024344    -0.0506251    0.0178632    -0.6208141   -0.6783038
 		      -0.0039535   -0.0024412     0.0330355   -0.0298286    -0.6209220   -0.6783094    -0.0626442    0.0100681
     290000000    -0.0466730    0.0219030    -0.6756440   -0.6293944     0.0323867   -0.0287221    -0.0042151   -0.0018569 
 		      -0.6751071   -0.6302201    -0.0570466    0.0102458    -0.0039413   -0.0018921     0.0296371   -0.0312067
 		       0.0323869   -0.0287052    -0.0039404   -0.0018235    -0.0451709    0.0208838    -0.6721583   -0.6257023
 		      -0.0042202   -0.0017744     0.0296029   -0.0311584    -0.6712629   -0.6260112    -0.0575956    0.0130286
     300000000    -0.0401959    0.0228038    -0.7239807   -0.5715952     0.0291429   -0.0297051    -0.0043386   -0.0010300 
 		      -0.7230297   -0.5721021    -0.0517869    0.0116419    -0.0040984   -0.0012528     0.0259744   -0.0319981
 		       0.0291475   -0.0296247    -0.0041069   -0.0012210    -0.0394152    0.0234420    -0.7192577   -0.5678203
 		      -0.0041896   -0.0011307     0.0260097   -0.0319533    -0.7200044   -0.5696286    -0.0520175    0.0148612
     310000000    -0.0338106    0.0227174    -0.7664929   -0.5117133     0.0257453   -0.0302066    -0.0042096   -0.0003937 
 		      -0.7664279   -0.5115578    -0.0468333    0.0124575    -0.0041613   -0.0005890     0.0224226   -0.0322653
 		       0.0257498   -0.0301406    -0.0041037   -0.0005979    -0.0341146    0.0247575    -0.7617844   -0.5087565
 		      -0.0041927   -0.0004972     0.0224460   -0.0322444    -0.7625156   -0.5076753    -0.0466454    0.0154398
     320000000    -0.0276572    0.0224624    -0.8037341   -0.4468908     0.0224548   -0.0301600    -0.0040238    0.0001319 
 		      -0.8039706   -0.4465420    -0.0420066    0.0136212    -0.0041385   -0.0000524     0.0188734   -0.0320520
 		       0.0224458   -0.0301035    -0.0040302   -0.0000141    -0.0286534    0.0246056    -0.7997388   -0.4449264
 		      -0.0041266    0.0000579     0.0187916   -0.0319386    -0.8002759   -0.4437493    -0.0415111    0.0157309
     330000000    -0.0215341    0.0207751    -0.8371123   -0.3776418     0.0192723   -0.0296699    -0.0038171    0.0006002 
 		      -0.8365554   -0.3795071    -0.0375240    0.0131264    -0.0039160    0.0005182     0.0153379   -0.0312632
 		       0.0192040   -0.0295511    -0.0038033    0.0005053    -0.0231097    0.0223856    -0.8324177   -0.3777556
 		      -0.0039224    0.0005967     0.0153385   -0.0311981    -0.8316197   -0.3774421    -0.0369303    0.0156787
     340000000    -0.0163071    0.0177908    -0.8637813   -0.3103823     0.0161092   -0.0287298    -0.0036295    0.0009485 
 		      -0.8642918   -0.3110192    -0.0335267    0.0112478    -0.0035823    0.0009701     0.0121059   -0.0300769
 		       0.0160888   -0.0286538    -0.0034829    0.0009571    -0.0175381    0.0190557    -0.8587198   -0.3083300
 		      -0.0036091    0.0009741     0.0120504   -0.0299196    -0.8595377   -0.3090774    -0.0323565    0.0146233
     350000000    -0.0113244    0.0142715    -0.8844473   -0.2402138     0.0133213   -0.0273090    -0.0033334    0.0013792 
 		      -0.8855619   -0.2395589    -0.0295937    0.0086931    -0.0032625    0.0012620     0.0091124   -0.0283571
 		       0.0133509   -0.0272337    -0.0032983    0.0013043    -0.0116736    0.0148189    -0.8807169   -0.2382357
 		      -0.0032961    0.0013347     0.0090781   -0.0282482    -0.8805217   -0.2374995    -0.0281983    0.0123910
     360000000    -0.0069536    0.0095042    -0.9002461   -0.1658196     0.0107751   -0.0254505    -0.0029482    0.0016953 
 		      -0.9009245   -0.1647160    -0.0253166    0.0050599    -0.0029807    0.0015479     0.0063489   -0.0261833
 		       0.0107339   -0.0253767    -0.0029324    0.0015834    -0.0058829    0.0098020    -0.8961672   -0.1653332
 		      -0.0030173    0.0017072     0.0063495   -0.0262042    -0.8956064   -0.1657441    -0.0244341    0.0084231
     370000000    -0.0037844    0.0039303    -0.9099956   -0.0905059     0.0084469   -0.0234183    -0.0025231    0.0018987 
 		      -0.9104967   -0.0920228    -0.0216158    0.0010345    -0.0026250    0.0017847     0.0040422   -0.0237582
 		       0.0085962   -0.0232913    -0.0025789    0.0017908    -0.0010631    0.0044394    -0.9060131   -0.0922030
 		      -0.0025054    0.0018562     0.0040189   -0.0237796    -0.9063131   -0.0937178    -0.0222667    0.0035268
     380000000    -0.0018304   -0.0022684    -0.9139223   -0.0180785     0.0065763   -0.0209258    -0.0020864    0.0018442 
 		      -0.9137765   -0.0171906    -0.0196454   -0.0033174    -0.0022344    0.0019156     0.0022233   -0.0209422
 		       0.0066827   -0.0208773    -0.0022294    0.0018867     0.0022766   -0.0009120    -0.9089187   -0.0187393
 		      -0.0022006    0.0018326     0.0021967   -0.0209509    -0.9091259   -0.0193393    -0.0203981   -0.0021663
     390000000    -0.0009854   -0.0082132    -0.9110051    0.0562275     0.0053126   -0.0182872    -0.0019266    0.0018612 
 		      -0.9108029    0.0548364    -0.0194473   -0.0078447    -0.0018244    0.0018312     0.0006741   -0.0180195
 		       0.0053349   -0.0182223    -0.0018346    0.0018637     0.0034250   -0.0064315    -0.9068453    0.0551969
 		      -0.0018210    0.0018791     0.0007348   -0.0180066    -0.9061956    0.0556526    -0.0190278   -0.0071967
     400000000     0.0006835   -0.0146123    -0.9034162    0.1287584     0.0042586   -0.0154398    -0.0015786    0.0018690 
 		      -0.9033701    0.1282660    -0.0192827   -0.0117962    -0.0016122    0.0017678    -0.0001560   -0.0148142
 		       0.0043820   -0.0154623    -0.0016342    0.0018623     0.0022731   -0.0125082    -0.8984014    0.1272917
 		      -0.0016397    0.0018401    -0.0001293   -0.0148795    -0.8974673    0.1278622    -0.0178414   -0.0119016
     410000000     0.0011007   -0.0224155    -0.8889928    0.2007346     0.0038957   -0.0126005    -0.0014077    0.0017594 
 		      -0.8896376    0.2009824    -0.0195646   -0.0177170    -0.0014086    0.0017293    -0.0006040   -0.0116436
 		       0.0039558   -0.0125819    -0.0014176    0.0016667     0.0001783   -0.0188209    -0.8835694    0.1991962
 		      -0.0013870    0.0018186    -0.0005568   -0.0115503    -0.8842039    0.2002015    -0.0166476   -0.0174934
     420000000    -0.0010199   -0.0298212    -0.8679066    0.2717717     0.0039468   -0.0096774    -0.0012433    0.0016156 
