! MS46524B
! 1918203/M1: 91020113/M2: 91020112
! 9/9/2020 2:28:19 PM
! C:\USERS\ANRITSUUSER\DESKTOP\2118 -5.S4P
! CHANNEL.1
! TR.MEASUREMENT
! CORRECTED.DATA
# GHZ S RI R 50.0
! FREQ.HZ          S11RE        S11IM         S12RE        S12IM         S13RE        S13IM         S14RE        S14IM         
!		       S21RE        S21IM         S22RE        S22IM         S23RE        S23IM         S24RE        S24IM         
!		       S31RE        S31IM         S32RE        S32IM         S33RE        S33IM         S34RE        S34IM         
!		       S41RE        S41IM         S42RE        S42IM         S43RE        S43IM         S44RE        S44IM         
!; PortSelection: Port_1234
      10000000     0.0100666   -0.0022524     0.9899105   -0.0454213     0.0003107    0.0017458    -0.0002487    0.0000219 
 		       0.9908405   -0.0454473     0.0097542   -0.0018396    -0.0002008    0.0000393     0.0003702    0.0016745
 		       0.0002772    0.0017574    -0.0001850    0.0000722     0.0105907   -0.0022317     0.9861951   -0.0454268
 		      -0.0002097    0.0000021     0.0003253    0.0016942     0.9847518   -0.0450613     0.0104082   -0.0016658
      20000000     0.0109021   -0.0051985     0.9850942   -0.0891364     0.0006227    0.0033218    -0.0002684    0.0002042 
 		       0.9856223   -0.0896250     0.0105806   -0.0042471    -0.0002941    0.0001959     0.0006372    0.0033136
 		       0.0006140    0.0033266    -0.0002737    0.0002005     0.0114067   -0.0058839     0.9818269   -0.0900353
 		      -0.0002821    0.0002146     0.0006323    0.0033415     0.9809440   -0.0886415     0.0107654   -0.0046011
      30000000     0.0122465   -0.0088619     0.9794868   -0.1324900     0.0010013    0.0048862    -0.0002688    0.0003733 
 		       0.9799557   -0.1325398     0.0118165   -0.0079438    -0.0002738    0.0003811     0.0010368    0.0048933
 		       0.0010184    0.0048857    -0.0002793    0.0003714     0.0121363   -0.0096646     0.9750072   -0.1331994
 		      -0.0002781    0.0003753     0.0010355    0.0048985     0.9737719   -0.1323038     0.0110412   -0.0077990
      40000000     0.0128121   -0.0129627     0.9712829   -0.1754771     0.0015775    0.0063783    -0.0002406    0.0005541 
 		       0.9716040   -0.1755152     0.0122339   -0.0122922    -0.0002349    0.0005729     0.0015785    0.0063838
 		       0.0015726    0.0064131    -0.0002477    0.0005494     0.0129971   -0.0133823     0.9675332   -0.1759151
 		      -0.0002273    0.0005683     0.0015599    0.0063854     0.9666932   -0.1749502     0.0118896   -0.0114043
      50000000     0.0125840   -0.0163175     0.9623950   -0.2178980     0.0022213    0.0078641    -0.0001730    0.0007028 
 		       0.9617462   -0.2179772     0.0118908   -0.0161414    -0.0001507    0.0007288     0.0022359    0.0078857
 		       0.0021970    0.0078604    -0.0001267    0.0007220     0.0138327   -0.0170534     0.9574280   -0.2180173
 		      -0.0001553    0.0007072     0.0022269    0.0078240     0.9563989   -0.2173187     0.0128846   -0.0156510
      60000000     0.0123050   -0.0194734     0.9508198   -0.2596857     0.0030583    0.0092760    -0.0000438    0.0008766 
 		       0.9505755   -0.2600349     0.0116382   -0.0196844    -0.0000315    0.0008900     0.0030307    0.0092772
 		       0.0029978    0.0092577    -0.0000144    0.0008335     0.0141725   -0.0210754     0.9458563   -0.2599872
 		      -0.0000413    0.0008677     0.0029768    0.0092331     0.9451891   -0.2591164     0.0134201   -0.0206388
      70000000     0.0110517   -0.0234824     0.9364843   -0.3010608     0.0039382    0.0106582     0.0000965    0.0009930 
 		       0.9361767   -0.3007913     0.0106835   -0.0238177     0.0000748    0.0010619     0.0039497    0.0106010
 		       0.0039314    0.0106047     0.0000763    0.0010016     0.0132295   -0.0252981     0.9325227   -0.2998332
 		       0.0000637    0.0010317     0.0039079    0.0106023     0.9317988   -0.2985822     0.0126619   -0.0259405
      80000000     0.0089104   -0.0282709     0.9220918   -0.3404808     0.0049507    0.0118518     0.0002674    0.0011554 
 		       0.9219319   -0.3410836     0.0093342   -0.0288655     0.0002867    0.0010950     0.0049984    0.0118491
 		       0.0049592    0.0118220     0.0002686    0.0011659     0.0108296   -0.0292216     0.9172483   -0.3397927
 		       0.0002795    0.0011448     0.0049530    0.0118207     0.9170852   -0.3398439     0.0106423   -0.0302530
      90000000     0.0058183   -0.0326754     0.9052598   -0.3808885     0.0060977    0.0129765     0.0004907    0.0011798 
 		       0.9050934   -0.3801269     0.0074427   -0.0335284     0.0004547    0.0012406     0.0061203    0.0130310
 		       0.0060697    0.0130019     0.0005022    0.0012322     0.0076152   -0.0329463     0.9004747   -0.3789306
 		       0.0004722    0.0012252     0.0060912    0.0129718     0.9004803   -0.3787462     0.0076041   -0.0339129
     100000000     0.0032361   -0.0362269     0.8864374   -0.4192754     0.0073225    0.0141121     0.0006917    0.0012774 
 		       0.8872067   -0.4194852     0.0058447   -0.0374151     0.0006645    0.0012919     0.0073679    0.0140321
 		       0.0073050    0.0140412     0.0006325    0.0012821     0.0044049   -0.0366007     0.8821067   -0.4172641
 		       0.0006803    0.0012721     0.0072999    0.0140369     0.8818738   -0.4169607     0.0044641   -0.0368226
     110000000     0.0008743   -0.0396058     0.8670938   -0.4566161     0.0086797    0.0150098     0.0008650    0.0013140 
 		       0.8666247   -0.4569449     0.0039299   -0.0408185     0.0008678    0.0013779     0.0086642    0.0150159
 		       0.0086047    0.0150278     0.0008309    0.0013488     0.0014493   -0.0403556     0.8622878   -0.4552948
 		       0.0007782    0.0013481     0.0086118    0.0149891     0.8616238   -0.4559765     0.0014843   -0.0398724
     120000000    -0.0018609   -0.0426236     0.8441494   -0.4925868     0.0100412    0.0159322     0.0010842    0.0013552 
 		       0.8454585   -0.4935361     0.0007781   -0.0434898     0.0011232    0.0013692     0.0100947    0.0158613
 		       0.0100139    0.0158760     0.0010685    0.0014249    -0.0007237   -0.0441937     0.8408699   -0.4913294
 		       0.0010931    0.0013793     0.0100406    0.0158252     0.8403708   -0.4914747    -0.0008586   -0.0435916
     130000000    -0.0051770   -0.0455048     0.8216789   -0.5280101     0.0115213    0.0166237     0.0013123    0.0013422 
 		       0.8215874   -0.5285936    -0.0034634   -0.0457291     0.0013376    0.0013606     0.0115775    0.0165357
 		       0.0115358    0.0166140     0.0013387    0.0013450    -0.0027457   -0.0480765     0.8179215   -0.5265461
 		       0.0012937    0.0013648     0.0114718    0.0165674     0.8176780   -0.5274153    -0.0035442   -0.0477766
     140000000    -0.0086838   -0.0486731     0.7963971   -0.5619559     0.0130358    0.0172543     0.0015194    0.0013072 
 		       0.7977023   -0.5626684    -0.0077946   -0.0485003     0.0015887    0.0013352     0.0130931    0.0171564
 		       0.0130247    0.0172319     0.0015607    0.0013371    -0.0056781   -0.0514903     0.7931759   -0.5615715
 		       0.0015507    0.0013528     0.0130569    0.0171981     0.7927796   -0.5621819    -0.0062822   -0.0517165
     150000000    -0.0125540   -0.0524746     0.7722464   -0.5951864     0.0147293    0.0177750     0.0017914    0.0013060 
 		       0.7719016   -0.5966927    -0.0120534   -0.0523201     0.0018331    0.0012267     0.0146529    0.0177010
 		       0.0145771    0.0177266     0.0018121    0.0013137    -0.0095924   -0.0541620     0.7679944   -0.5947629
 		       0.0018444    0.0012925     0.0146351    0.0176225     0.7670338   -0.5939339    -0.0098373   -0.0552300
     160000000    -0.0171367   -0.0554605     0.7443323   -0.6279158     0.0163216    0.0180917     0.0020584    0.0011392 
 		       0.7452127   -0.6286632    -0.0158024   -0.0557599     0.0020509    0.0011608     0.0163007    0.0180263
 		       0.0162166    0.0180798     0.0021017    0.0011766    -0.0144572   -0.0556889     0.7393287   -0.6259555
 		       0.0020929    0.0012165     0.0162333    0.0179747     0.7396365   -0.6264635    -0.0138669   -0.0579854
     170000000    -0.0212597   -0.0567932     0.7160480   -0.6580383     0.0179717    0.0183502     0.0023299    0.0009784 
 		       0.7152886   -0.6592382    -0.0190093   -0.0582548     0.0022821    0.0009969     0.0179844    0.0181952
 		       0.0179249    0.0183082     0.0023054    0.0009520    -0.0200806   -0.0563862     0.7116995   -0.6563897
 		       0.0023750    0.0009561     0.0179283    0.0182309     0.7125193   -0.6565945    -0.0178903   -0.0596708
     180000000    -0.0252130   -0.0575992     0.6849347   -0.6893324     0.0196150    0.0184201     0.0025404    0.0008203 
 		       0.6868301   -0.6883484    -0.0223815   -0.0594300     0.0024780    0.0008916     0.0196795    0.0183523
 		       0.0196436    0.0183391     0.0025163    0.0007951    -0.0254902   -0.0568825     0.6816139   -0.6858827
 		       0.0025521    0.0007907     0.0195855    0.0183128     0.6826628   -0.6859832    -0.0223949   -0.0613334
     190000000    -0.0296826   -0.0583380     0.6545693   -0.7160831     0.0213187    0.0183832     0.0027566    0.0005651 
 		       0.6550487   -0.7169719    -0.0269991   -0.0605012     0.0027324    0.0005949     0.0213464    0.0182764
 		       0.0212849    0.0183983     0.0026580    0.0006420    -0.0307924   -0.0576666     0.6522084   -0.7139885
 		       0.0027016    0.0006117     0.0212782    0.0182852     0.6520946   -0.7139940    -0.0275306   -0.0630370
     200000000    -0.0353119   -0.0594237     0.6231162   -0.7422996     0.0230340    0.0182274     0.0029613    0.0003109 
 		       0.6228583   -0.7444038    -0.0328162   -0.0613371     0.0028686    0.0003711     0.0230800    0.0180850
 		       0.0229873    0.0182162     0.0028472    0.0004604    -0.0353795   -0.0585462     0.6178051   -0.7413257
 		       0.0029973    0.0003885     0.0229512    0.0180851     0.6187093   -0.7408395    -0.0329312   -0.0638522
     210000000    -0.0413174   -0.0597730     0.5888261   -0.7680166     0.0247508    0.0179039     0.0030550    0.0000509 
 		       0.5885111   -0.7687812    -0.0387849   -0.0616693     0.0030632    0.0000768     0.0247069    0.0178242
 		       0.0246774    0.0179461     0.0030389    0.0001664    -0.0399287   -0.0599573     0.5866175   -0.7657996
 		       0.0031642    0.0000833     0.0246881    0.0178313     0.5865234   -0.7657244    -0.0386183   -0.0648461
     220000000    -0.0460401   -0.0598579     0.5553180   -0.7921908     0.0263973    0.0174576     0.0031808   -0.0002324 
 		       0.5555094   -0.7920181    -0.0435821   -0.0622355     0.0031322   -0.0001351     0.0263963    0.0173450
 		       0.0263948    0.0174494     0.0031526   -0.0001369    -0.0449072   -0.0615879     0.5526977   -0.7892119
 		       0.0032333   -0.0002738     0.0263708    0.0174259     0.5516837   -0.7898659    -0.0436531   -0.0645740
     230000000    -0.0497967   -0.0599428     0.5192790   -0.8133531     0.0280839    0.0169961     0.0034196   -0.0005203 
 		       0.5199847   -0.8144823    -0.0472234   -0.0628085     0.0032866   -0.0003328     0.0280461    0.0168228
 		       0.0280730    0.0169197     0.0032987   -0.0003621    -0.0496785   -0.0628114     0.5162691   -0.8108298
 		       0.0032824   -0.0004914     0.0279929    0.0168275     0.5162042   -0.8115864    -0.0482796   -0.0636449
     240000000    -0.0535060   -0.0595626     0.4839198   -0.8345301     0.0297338    0.0163328     0.0034074   -0.0008451 
 		       0.4838063   -0.8347755    -0.0506173   -0.0625260     0.0034243   -0.0006879     0.0297287    0.0161879
 		       0.0296513    0.0162403     0.0034698   -0.0007604    -0.0552243   -0.0628354     0.4804196   -0.8315371
 		       0.0034187   -0.0008389     0.0296251    0.0161392     0.4817566   -0.8321017    -0.0522600   -0.0623771
     250000000    -0.0575953   -0.0579874     0.4479348   -0.8540480     0.0313031    0.0154873     0.0033775   -0.0012249 
 		       0.4484590   -0.8530378    -0.0549148   -0.0607092     0.0034889   -0.0011303     0.0312697    0.0153205
 		       0.0312505    0.0154995     0.0034788   -0.0010831    -0.0600192   -0.0623273     0.4448099   -0.8498872
 		       0.0034679   -0.0012135     0.0311994    0.0153789     0.4454026   -0.8515501    -0.0565063   -0.0610374
     260000000    -0.0617463   -0.0562670     0.4099392   -0.8711946     0.0328805    0.0145548     0.0033260   -0.0014975 
 		       0.4108497   -0.8710111    -0.0594385   -0.0584869     0.0034285   -0.0014744     0.0328128    0.0144144
 		       0.0327447    0.0145763     0.0033872   -0.0014698    -0.0643225   -0.0610823     0.4075297   -0.8680704
 		       0.0033812   -0.0014676     0.0327901    0.0144224     0.4080494   -0.8685730    -0.0610866   -0.0600372
     270000000    -0.0663972   -0.0551943     0.3730927   -0.8859083     0.0342627    0.0134898     0.0033768   -0.0017445 
 		       0.3743771   -0.8857608    -0.0639480   -0.0571882     0.0033861   -0.0018443     0.0342212    0.0134052
 		       0.0342498    0.0135508     0.0033568   -0.0017451    -0.0678301   -0.0592352     0.3701454   -0.8833366
 		       0.0034062   -0.0017017     0.0341879    0.0134372     0.3700855   -0.8827091    -0.0659878   -0.0590349
     280000000    -0.0719809   -0.0540519     0.3357455   -0.8999692     0.0356400    0.0124715     0.0033995   -0.0022191 
 		       0.3348622   -0.9012046    -0.0693472   -0.0564366     0.0033037   -0.0021006     0.0356239    0.0123452
 		       0.0355961    0.0123899     0.0033228   -0.0021010    -0.0710875   -0.0565668     0.3307216   -0.8974846
 		       0.0034657   -0.0022002     0.0355579    0.0122518     0.3323117   -0.8969846    -0.0713343   -0.0574054
     290000000    -0.0762425   -0.0514956     0.2953104   -0.9136617     0.0370162    0.0111742     0.0033250   -0.0026167 
 		       0.2953484   -0.9140172    -0.0735174   -0.0548122     0.0032385   -0.0024671     0.0369570    0.0109936
 		       0.0369176    0.0111793     0.0032850   -0.0024176    -0.0743556   -0.0537065     0.2924994   -0.9102120
 		       0.0032728   -0.0026064     0.0368620    0.0109752     0.2931944   -0.9093708    -0.0760840   -0.0552322
     300000000    -0.0796624   -0.0484886     0.2565892   -0.9246091     0.0382269    0.0097584     0.0031434   -0.0030578 
 		       0.2559443   -0.9239503    -0.0770335   -0.0524691     0.0031824   -0.0028209     0.0381501    0.0096716
 		       0.0381404    0.0099022     0.0031664   -0.0028075    -0.0785423   -0.0502956     0.2535204   -0.9198055
 		       0.0030615   -0.0029467     0.0380808    0.0097033     0.2545300   -0.9208757    -0.0802472   -0.0521698
     310000000    -0.0824100   -0.0451288     0.2170206   -0.9338541     0.0393658    0.0084000     0.0028457   -0.0032974 
 		       0.2167985   -0.9338088    -0.0799103   -0.0495181     0.0029908   -0.0031575     0.0393387    0.0082402
 		       0.0393667    0.0084344     0.0030115   -0.0031488    -0.0828660   -0.0470075     0.2145929   -0.9287725
 		       0.0028408   -0.0032790     0.0391949    0.0083186     0.2145356   -0.9296557    -0.0831410   -0.0489802
     320000000    -0.0859906   -0.0414230     0.1764062   -0.9402482     0.0402898    0.0069592     0.0025763   -0.0035284 
 		       0.1752126   -0.9407087    -0.0838255   -0.0461578     0.0027232   -0.0035003     0.0403823    0.0067468
 		       0.0403050    0.0069151     0.0028298   -0.0034554    -0.0875396   -0.0435997     0.1753762   -0.9370140
 		       0.0027056   -0.0035404     0.0402005    0.0068054     0.1741976   -0.9366789    -0.0860739   -0.0453877
     330000000    -0.0893152   -0.0373976     0.1357518   -0.9456943     0.0413622    0.0053428     0.0023022   -0.0038213 
 		       0.1355560   -0.9456707    -0.0877652   -0.0429652     0.0024805   -0.0038397     0.0412003    0.0051285
 		       0.0413330    0.0053870     0.0025501   -0.0038491    -0.0918661   -0.0404761     0.1355138   -0.9424765
 		       0.0024209   -0.0039019     0.0412315    0.0052221     0.1345130   -0.9415396    -0.0891179   -0.0419629
     340000000    -0.0920616   -0.0339022     0.0962201   -0.9502537     0.0421679    0.0036010     0.0022601   -0.0040546 
 		       0.0965015   -0.9504796    -0.0912617   -0.0399542     0.0021720   -0.0041466     0.0421662    0.0034431
 		       0.0421903    0.0037183     0.0021958   -0.0041386    -0.0950992   -0.0376049     0.0939063   -0.9455642
 		       0.0020667   -0.0041427     0.0420318    0.0035606     0.0946963   -0.9463715    -0.0925561   -0.0380891
     350000000    -0.0945380   -0.0304548     0.0560635   -0.9520322     0.0429711    0.0019661     0.0019074   -0.0045587 
 		       0.0571710   -0.9528869    -0.0940752   -0.0373789     0.0019723   -0.0043456     0.0428700    0.0018419
 		       0.0429074    0.0020006     0.0019823   -0.0042785    -0.0974216   -0.0345582     0.0538174   -0.9480501
 		       0.0018952   -0.0044150     0.0428030    0.0019171     0.0537378   -0.9479343    -0.0963769   -0.0340764
     360000000    -0.0963982   -0.0260690     0.0153988   -0.9528701     0.0435095    0.0002950     0.0014643   -0.0047947 
 		       0.0126704   -0.9538066    -0.0958308   -0.0336876     0.0016431   -0.0045849     0.0434683   -0.0000047
 		       0.0434483    0.0002231     0.0017667   -0.0046485    -0.0986540   -0.0310594     0.0142170   -0.9489311
 		       0.0015269   -0.0048127     0.0433897    0.0001656     0.0146221   -0.9485802    -0.0996286   -0.0292308
     370000000    -0.0978035   -0.0211616    -0.0265854   -0.9525731     0.0441372   -0.0015432     0.0010291   -0.0049071 
 		      -0.0268957   -0.9510796    -0.0972827   -0.0295436     0.0012656   -0.0048433     0.0439803   -0.0018079
 		       0.0439082   -0.0014946     0.0012599   -0.0049110    -0.0999616   -0.0257563    -0.0249266   -0.9479464
 		       0.0010140   -0.0049414     0.0438705   -0.0017160    -0.0259098   -0.9481163    -0.1012611   -0.0254174
     380000000    -0.0984468   -0.0167492    -0.0656845   -0.9494730     0.0444460   -0.0034440     0.0006690   -0.0048499 
 		      -0.0661158   -0.9484126    -0.0987051   -0.0237215     0.0008040   -0.0051162     0.0443085   -0.0035460
 		       0.0443249   -0.0034050     0.0007927   -0.0050972    -0.1007430   -0.0197215    -0.0660489   -0.9448563
 		       0.0006251   -0.0048976     0.0442186   -0.0035404    -0.0655757   -0.9448168    -0.1026406   -0.0220380
     390000000    -0.0996298   -0.0131476    -0.1048440   -0.9452623     0.0447183   -0.0052115     0.0003668   -0.0050643 
 		      -0.1040653   -0.9440115    -0.0988811   -0.0193392     0.0003237   -0.0051883     0.0446239   -0.0054340
 		       0.0446582   -0.0052126     0.0003309   -0.0051377    -0.1014982   -0.0137405    -0.1044798   -0.9403957
 		       0.0002867   -0.0050038     0.0446017   -0.0052693    -0.1057646   -0.9397547    -0.1035831   -0.0187006
     400000000    -0.1017670   -0.0088827    -0.1438879   -0.9385982     0.0448195   -0.0071213    -0.0000752   -0.0052987 
 		      -0.1439901   -0.9393249    -0.1014098   -0.0152424    -0.0000597   -0.0051296     0.0446805   -0.0071532
 		       0.0448618   -0.0070706    -0.0000711   -0.0051555    -0.1023544   -0.0082755    -0.1437605   -0.9344241
 		      -0.0000801   -0.0051716     0.0446631   -0.0071639    -0.1445734   -0.9338911    -0.1042646   -0.0149953
     410000000    -0.1031684   -0.0035617    -0.1836197   -0.9309763     0.0449147   -0.0089408    -0.0006093   -0.0053619 
 		      -0.1831305   -0.9323285    -0.1035124   -0.0110169    -0.0004069   -0.0052991     0.0447596   -0.0091633
 		       0.0448446   -0.0089998    -0.0004085   -0.0051224    -0.1027793   -0.0031016    -0.1837472   -0.9261879
 		      -0.0005101   -0.0052610     0.0447224   -0.0090994    -0.1838268   -0.9274091    -0.1058788   -0.0107249
     420000000    -0.1028289    0.0017015    -0.2212193   -0.9216057     0.0448252   -0.0108457    -0.0010071   -0.0053598 
