
# Hz S RI R 50

30000000 0.9727854599490136 -0.16835462286343428
60000000 0.927167550979065 -0.32574977698169416
90000000 0.8575091984807353 -0.47168623617313865
120000000 0.7660534479950509 -0.6029853326407366
150000000 0.655082851539496 -0.716702692868282
180000000 0.5295479281845341 -0.8113179096198625
210000000 0.3892316309115802 -0.884154629506469
240000000 0.24074372251706688 -0.933908559076569
270000000 0.08583279581379821 -0.9584944192495851
300000000 -0.06985213413032842 -0.9579980988077209
330000000 -0.22276509840890835 -0.9316079739136451
360000000 -0.3688137224190917 -0.8815046343975146
390000000 -0.5055742098776819 -0.8079911675107944
420000000 -0.6281640548220893 -0.7148515942110967
450000000 -0.7337291660505809 -0.6031210959541725
480000000 -0.819710695568389 -0.47612483172453524
510000000 -0.8838936066506904 -0.3373512205539171
540000000 -0.9249768164062114 -0.19014363806653944
570000000 -0.9415644499345531 -0.038594472954232795
600000000 -0.9337437569278539 0.11271996083215596
630000000 -0.9025563071616862 0.2611223864128729
660000000 -0.84771037203804 0.4022106394739804
690000000 -0.7703987878920326 0.532419088443379
720000000 -0.6737402363680589 0.6480293823637184
750000000 -0.5600167714679858 0.7467588361446821
780000000 -0.43211966866397966 0.8252671843500979
810000000 -0.2935577632393781 0.882936737693389
840000000 -0.14746339566579492 0.917039334824029
870000000 0.0013818848576145903 0.9274339256644079
900000000 0.15033703558227662 0.9139391450523106
930000000 0.29410936352563755 0.8769161456372228
960000000 0.4304897860305152 0.8169713985045458
990000000 0.5548604662878036 0.7359010769400801
1020000000 0.6654432739484969 0.6364305932861285
1050000000 0.7575496775816821 0.5204884356820795
1080000000 0.8302728545577998 0.3914109180416707
1110000000 0.8809469152796127 0.25241177255636693
1140000000 0.9086715709265665 0.10781309127205907
1170000000 0.9120985379168466 -0.038190046752268725
1200000000 0.8936283880263889 -0.1836117261038277
1230000000 0.8518009943774166 -0.32416319146636174
1260000000 0.7878174088932741 -0.45610337007334567
1290000000 0.7037173373440136 -0.5754070032830457
1320000000 0.6016526746143189 -0.6799480190994325
1350000000 0.48394230363940527 -0.7663817381970119
1380000000 0.3546072635949038 -0.8329431636881219
1410000000 0.2166567504048409 -0.8775459621103013
1440000000 0.07303175394608408 -0.8997005277933863
1470000000 -0.07228966469951226 -0.8983666723655329
1500000000 -0.21465555354867405 -0.8742272548386
1530000000 -0.3513715658183634 -0.8274496395021015
1560000000 -0.47899024200478546 -0.759373459319239
1590000000 -0.5937210757363615 -0.6718876612805683
1620000000 -0.6930925471670663 -0.5668438940819426
1650000000 -0.7738346466197943 -0.4472988001605479
1680000000 -0.8342660506745765 -0.3163638247654621
1710000000 -0.872251317516975 -0.17712920192062698
1740000000 -0.8836597908941091 -0.035748040189312935
1770000000 -0.8801989382577886 0.10061739675701697
1800000000 -0.8546156009930423 0.24189658028764538
1830000000 -0.8034890883394363 0.3761889318959353
1860000000 -0.7321085878633649 0.4996307029478254
1890000000 -0.6423070119775036 0.6102133181741858
1920000000 -0.5356681318959178 0.7040954372181557
1950000000 -0.4157833359778169 0.7797211912767312
1980000000 -0.28516649965307717 0.835054934112918
2009999999.9999998 -0.14767983090057413 0.8690071136020745
2040000000 -0.007370797704503329 0.880004791731194
2069999999.9999998 0.13362606762938 0.8689051596103532
2100000000 0.2701071974419734 0.8350767509916566
2130000000 0.3997389731755564 0.7800832002629845
2160000000 0.5195056122543659 0.7048354871961391
2190000000 0.6247109735954984 0.6119471607577747
2220000000 0.713873675882996 0.5022516338592878
2250000000 0.7838570140932205 0.37978557991764883
2280000000 0.8327793270737217 0.24680602187563805
2310000000 0.8556554848015006 0.10781134073219534
2340000000 0.8556914661638799 -0.020944792105772214
2370000000 0.8489885741989364 -0.15503467122130776
2400000000 0.8143503054167782 -0.29186341869513743
2430000000 0.7567064840595835 -0.4199216254106293
2460000000 0.6789732385708678 -0.535932695316213
2490000000 0.5840152383721869 -0.6370308580468453
2520000000 0.4741412768276688 -0.7218117026823252
2550000000 0.35208014297921136 -0.7874002183905044
2580000000 0.22141915145520608 -0.832788156107699
2610000000 0.08553959144332746 -0.8563613330514415
2640000000 -0.05201574303604717 -0.8585656869727825
2670000000 -0.18732744068805107 -0.8381847672293694
2700000000 -0.3181577770687425 -0.7971668717279199
2730000000 -0.4403583995658969 -0.7347686064370161
2760000000 -0.551216407338029 -0.6548285560873622
2790000000 -0.6485375621185634 -0.557526349378571
2820000000 -0.7274296113345127 -0.44614282349242185
2850000000 -0.7885678195297449 -0.323006513887912
2880000000 -0.8280311587557405 -0.19128770276762552
2910000000 -0.843127333605561 -0.057156908317956
2940000000 -0.8416757150317782 0.07373774619602735
2970000000 -0.8207506231833959 0.20795398862905612
3000000000 -0.7771196704812905 0.3372745559791832
3030000000 -0.7119162300095538 0.45761611178507033
3060000000 -0.6291820919404639 0.5656936877220702
3090000000 -0.5290572723916958 0.6590248963377768
3120000000 -0.41667941583255125 0.7341178231671933
3150000000 -0.29307556763820997 0.7909273886856463
3180000000 -0.1626984418254559 0.8257937070641976
3210000000 -0.029546132429850047 0.8408415223003511
3240000000 0.10484587500451936 0.8334507176047774
3270000000 0.2351214729533201 0.8055449940654396
3300000000 0.36030924560430105 0.7571793293251321
3330000000 0.476722332982075 0.6898116440645241
3360000000 0.5795051655863305 0.604355235537177
3390000000 0.6677203828325948 0.5039383678972051
3420000000 0.738828105663677 0.3899865054020366
3450000000 0.789968696552209 0.266553060175874
3480000000 0.8210371074726763 0.13685806120051847
3510000000 0.8305127203676654 0.005094352274003112
3540000000 0.8210185742820637 -0.12692900072856572
3570000000 0.7898493791946446 -0.25646650115386205
3600000000 0.7377912257680727 -0.37958289080509644
3630000000 0.6668015429075907 -0.49198501932441796
3660000000 0.5787858209864336 -0.5919647691366104
3690000000 0.4758300603613377 -0.6764609514194497
3720000000 0.36124798709330497 -0.7420808413644919
3750000000 0.23815474933381164 -0.7899341515804459
3780000000 0.10925634682702612 -0.8166789420346197
3810000000 -0.022210482918771923 -0.8226633784041525
3840000000 -0.15240689799378737 -0.8079728929567457
3870000000 -0.27943935228815575 -0.7731383535564749
3900000000 -0.3987941588870705 -0.7175347517268595
3930000000 -0.5076562473089868 -0.6440868970528804
3960000000 -0.604177340090681 -0.5535370208221926
3990000000 -0.6834957174839498 -0.44926951994480624
4019999999.9999995 -0.7454751763978581 -0.3337655473483174
4050000000 -0.7873674403298035 -0.2092442061421117
4080000000 -0.8089676975676224 -0.08105327853490452
4110000000.0000005 -0.8105020923663886 0.0468308662323359
4139999999.9999995 -0.7928343074950165 0.17544473405947714
4170000000 -0.7548157682386466 0.3005066379068366
4200000000 -0.6965900416976427 0.41704429561601786
4230000000.0000005 -0.6197416214638736 0.5224669543960371
4260000000 -0.5277854596057125 0.6141949394577405
4290000000 -0.4234547884033228 0.689622312110713
4320000000 -0.30808965311481507 0.7475696621334078
4350000000 -0.1849425382343386 0.7858555644627507
4380000000 -0.05865446269436769 0.8051857030085874
4410000000 0.07019490591570765 0.8035392327623991
4440000000 0.19597707817744858 0.7812921895726118
4470000000 0.31748497305147605 0.7395463806669567
4500000000 0.43142067721453753 0.6789198264193667
4530000000 0.5333246053784356 0.6003978276421341
4560000000 0.6205246992130748 0.5068959982657139
4590000000 0.6920384599658468 0.3995827771808459
4620000000 0.7445137595348706 0.28217774685208874
4650000000 0.7752602327863263 0.1582278287129557
4680000000 0.7833407353737416 0.03704415575265707
4710000000 0.781507255161942 -0.08115026729276087
4740000000 0.763212278075483 -0.20508240222122276
4770000000 0.72210778823398 -0.3260728649064899
4800000000 0.6604310700681164 -0.43826342098078475
4830000000 0.5803820102787242 -0.5393813978163251
4860000000 0.4854906060274042 -0.6253914841096987
4890000000 0.37856659388062963 -0.6939363592136195
4920000000 0.2623155556586544 -0.7453955481902592
4950000000 0.13958910659370338 -0.777150139943753
4980000000 0.013470023028853362 -0.7887752811028127
5010000000 -0.11275882569620299 -0.7805255542920357
5040000000 -0.23605967583981147 -0.7518635707579984
5070000000 -0.3540527959995823 -0.7030579236640836
5100000000 -0.4608708673166603 -0.6368699731822094
5130000000 -0.5574385319032198 -0.554513039225182
5160000000 -0.6374767275094886 -0.45580718600613657
5190000000 -0.7009815197593793 -0.3466834194578745
5220000000 -0.745188916603662 -0.2290286755162254
5250000000 -0.768145194580661 -0.1064443874616075
5280000000 -0.7720499047767722 0.01346249355864651
5310000000 -0.7636701821208568 0.132957739040808
5340000000 -0.7344229888029458 0.2547159962183938
5370000000 -0.6842809197516276 0.37013056845526315
5400000000 -0.6161638222102477 0.4748872691271405
5430000000 -0.5313117141215029 0.5670944395604105
5460000000 -0.4337609064566924 0.6442927079875181
5490000000 -0.3253833954401339 0.704834911218144
5520000000 -0.2088143821208598 0.7467770765472757
5550000000 -0.08879710567532328 0.7701506439249896
5580000000 0.03566818216063461 0.7746599480264519
5610000000 0.15802460527936357 0.7575563927528031
5640000000 0.27557895594303183 0.7228242246493689
5670000000 0.38736876407397436 0.6695743245681698
5700000000 0.48866780234733875 0.5980952717982415
5730000000 0.5764229934135332 0.5116948075002582
5760000000 0.6497695600875895 0.4122409366287735
5790000000 0.7053988141698453 0.30227681749158797
5820000000 0.7423157712494396 0.1849751230298471
5850000000 0.7595752424415246 0.06511666905559022
5880000000 0.7594085975730014 -0.05459670232352637
5910000000 0.7425708159798355 -0.17473243526482551
5940000000 0.7056375278538951 -0.2914976230104367
5970000000 0.649483554631774 -0.4009926503343443
6000000000 0.576027732491999 -0.49938759773424357
6030000000 0.48864618328777426 -0.5851280983953859
6060000000 0.3886648237221382 -0.6549952660156364
6090000000 0.27963794830158906 -0.7073384339235829
6120000000 0.16444256467859075 -0.7433810031773064
6150000000 0.043790619681783216 -0.7589690059887413
6180000000 -0.07619819632489055 -0.755679924195141
6210000000 -0.19591606283899077 -0.7348844587026249
6240000000 -0.30968742705162144 -0.6930030058459637
6270000000 -0.41560090787394177 -0.634301686004072
6300000000 -0.5107971567680629 -0.5584793131367337
6330000000 -0.5916064093373563 -0.4690425208161899
6360000000 -0.6573107237116981 -0.3673577513630717
6390000000 -0.705503712558952 -0.2564469603610797
6420000000 -0.734368774419504 -0.14023558425446603
6450000000 -0.7438650827649285 -0.023863106452216135
6480000000 -0.7384675131325237 0.09241082569530362
6510000000 -0.7166245908032126 0.20914214924909835
6540000000 -0.674096351363361 0.3226079632475254
6570000000 -0.6134016884464437 0.4265811392803952
6600000000 -0.5362560136863561 0.5193133427822747
6630000000 -0.44572479558574857 0.5983303756112216
6660000000 -0.3444765826828411 0.6622144262242231
6690000000 -0.23472588351713042 0.7079496381645817
6720000000 -0.11957622542351398 0.7360442374322214
6750000000 8.170962287512573e-05 0.7455532344593317
6780000000 0.1183418295034745 0.7355912697215515
6810000000 0.2333283636361304 0.7070088208231796
6840000000 0.34333476124458007 0.6603969523331468
6870000000 0.44304113039439874 0.596048000730091
6900000000 0.5308335759090279 0.5170320804754548
6930000000 0.6050453907404876 0.42370333116240266
6960000000 0.6617601456000141 0.32066500261472974
6990000000 0.7003619829909389 0.20988079305119667
7020000000 0.7192098213916255 0.09680766855799283
7050000000 0.7224663070947961 -0.012704736349448159
7080000000 0.714285278924452 -0.12274575978614244
7110000000 0.6890187505983266 -0.23579470792791157
7140000000 0.6439656105523912 -0.3448174369712118
7170000000 0.5796845720534802 -0.4449620139231306
7200000000 0.5002114478476769 -0.5318710818032414
7230000000 0.4077526218339923 -0.606396219711333
7260000000 0.304580671430425 -0.6635926133022811
7290000000 0.19551240209142562 -0.704172011159936
7320000000 0.07854915289609865 -0.7257990025841444
7350000000 -0.03828904693405977 -0.7292557341108996
7380000000 -0.15527259477688748 -0.7139169549912096
7410000000 -0.2665728834600045 -0.6789929282007702
7440000000 -0.3715001528196389 -0.6273680936206733
7470000000 -0.4664395328195562 -0.559017003661108
7500000000 -0.5488497183048333 -0.47633489476745683
7530000000 -0.6165177598224147 -0.3825869765553973
7560000000 -0.6686997242454505 -0.27893850187162805
7590000000 -0.7021282503688284 -0.1685835288366061
7620000000 -0.7187247068027126 -0.055501274228482333
7650000000 -0.7180737385782578 0.05822040493458458
7680000000 -0.6996056079657617 0.17128195592556295
7710000000 -0.6634568516895594 0.28071229498148753
7740000000 -0.6098475997652144 0.3833451536131065
7770000000 -0.5405456477678425 0.4744986664153541
7800000000 -0.4575982625005335 0.5542747941134226
7830000000 -0.36353023578577337 0.6191306424115812
7860000000 -0.26059581918079844 0.6700521344188876
7890000000 -0.15110312768615453 0.7012167333737485
7920000000 -0.039347085674111715 0.7176435816230806
7950000000 0.0782029232886099 0.714444400474153
7980000000 0.18901800586394635 0.6920305827619141
8010000000 0.29831037741006594 0.6538706643123902
8039999999.999999 0.3978456520135968 0.5951246292258547
8070000000 0.4860925079776725 0.5246729577475981
8100000000 0.5628843978573304 0.4394437193444318
8130000000.000001 0.6237654282687987 0.3435715708738899
8160000000 0.669692614819513 0.23992617251420545
8189999999.999999 0.698028158916765 0.12988304375040888
8220000000.000001 0.7087488731421122 0.01746136059824499
8250000000 0.7018515091866959 -0.09415254480149571
8279999999.999999 0.677710663216713 -0.204962324304804
8310000000.000001 0.6354340966674299 -0.3106673581060527
8340000000 0.5768731875604889 -0.40679672631204045
8369999999.999999 0.5057043508932603 -0.4932836867414383
8400000000 0.42001629940205704 -0.5671201192102463
8430000000 0.32568116444419876 -0.6251648766869504
8460000000.000001 0.22247742376123936 -0.6703229991945449
8490000000 0.11230658635631385 -0.6963805634603601
8520000000 0.0018140969538575913 -0.7059364843292049
8550000000.000001 -0.11188348600478204 -0.6976477130448724
8580000000 -0.22128611415037747 -0.6682473090251824
8610000000 -0.3233712008656012 -0.6247849739682028
8640000000 -0.4195645999785649 -0.5640603031339214
8670000000 -0.5011877954419495 -0.4875424783590322
8700000000 -0.5708244762058207 -0.40160595250638864
8730000000 -0.6262749745043468 -0.30420826949467406
8760000000 -0.6629923187184925 -0.19941242604847276
8790000000 -0.6829563666593474 -0.09321161822628127
8820000000 -0.6879095661237312 0.01430139976112943
8850000000 -0.677814800551197 0.1224290851311316
8880000000 -0.6504808595626965 0.22845627766187115
8910000000 -0.6068997803321219 0.33029686935152736
8940000000 -0.5454943987835748 0.42418032106164716
8970000000 -0.47076091027779093 0.5054863063591376
9000000000 -0.38450133260441866 0.5756589033617789
9030000000 -0.286819591911052 0.6293470735454001
9060000000 -0.18325545510355246 0.6674513317580967
9090000000 -0.07315313354687425 0.6892359342083708
9120000000 0.03742168755732922 0.6910054971794937
9150000000 0.1467557888860488 0.6765296895255166
9180000000 0.25365473500434743 0.6434769530006019
9210000000 0.3513800838412341 0.5935269495086087
9240000000 0.44069070684571354 0.5294658849630396
9270000000 0.5181892831950176 0.4512588114713417
9300000000 0.5813332226747873 0.36240462732181733
9330000000 0.6303090728269084 0.2646982882504867
9360000000 0.6618740804182788 0.16032271088017203
9390000000 0.6764139571309611 0.0543353019192499
9420000000 0.676012986432666 -0.052003981931620646
9450000000 0.6597328283769943 -0.15896848679766762
9480000000 0.6261172947260274 -0.2624059512926906
9510000000 0.5761072154656419 -0.35830601059952694
9540000000 0.5121584685875763 -0.44747121903990084
9570000000 0.43287230636387264 -0.5232425452350604
9600000000 0.3453285100609207 -0.5848277717797784
9630000000 0.2472751513636553 -0.6346997703097704
9660000000 0.1418555722736814 -0.6645160853654721
9690000000 0.03562477222981064 -0.6794066723743316
9720000000 -0.07430862146309014 -0.6773121735812654
9750000000 -0.18044731727117447 -0.6548172331086508
9780000000 -0.2810857537680551 -0.617877803532688
9810000000 -0.376235548491367 -0.5647023281076995
9840000000 -0.4589453232962748 -0.49630791274567887
9870000000 -0.5301348995418371 -0.41681724075415016
9900000000 -0.5881607595439158 -0.32646625418537967
9930000000 -0.6295924871456733 -0.22830734130614316
9960000000 -0.654715177773836 -0.1261043122954265
9990000000 -0.6642100523040257 -0.0226063074579351
10020000000 -0.6593672509543487 0.08093679946123716
10050000000 -0.6385645085839188 0.18368213530400168
10080000000 -0.6020611425798914 0.2838286671697705
10110000000 -0.5482253066625749 0.3775932987694066
10140000000 -0.48013045642147073 0.45935616408371405
10170000000 -0.4013173018717869 0.5315770572898582
10200000000 -0.30895738019308827 0.5885874282644058
10230000000 -0.2115397826720976 0.6293898488716229
10260000000 -0.10833019378581343 0.657791989570099
10290000000 -0.00016540425781264023 0.6652457215583807
10320000000 0.10454775367557534 0.6564254167091795
10350000000 0.20880258849770705 0.6325360435554137
10380000000 0.30719113448787516 0.5889695113796601
10410000000 0.3956409172116014 0.5328766006284689
10440000000 0.47598316135312424 0.4626759759314596
10470000000 0.5419298075698868 0.3799314760539141
10500000000 0.5937213014560918 0.2890763893162299
10530000000 0.6311132432412023 0.19081719569225775
10560000000 0.6519015124398717 0.0884790675926711
10590000000 0.6567011672948085 -0.015629042995193364
10620000000 0.6453312536882158 -0.11887954429607994
10650000000 0.6181216802743617 -0.2204376219874895
10680000000 0.5738465929729168 -0.3157189178239166
10710000000 0.5170341905539487 -0.4026226897705143
10740000000 0.4447863024606378 -0.4807355506644416
10770000000 0.36270031647574147 -0.5440997683582594
10800000000 0.2724051683471127 -0.5965646173621623
10830000000 0.171886730826731 -0.6315956790694758
10860000000 0.07019685287178201 -0.6505453276703889
10890000000 -0.03519878084770933 -0.6544153411427619
10920000000 -0.13973868042272986 -0.6385325429742978
10950000000 -0.23765953120929162 -0.6071012549791923
10980000000 -0.33193149990634074 -0.5602245954871989
11010000000 -0.41514922712654034 -0.4973501428156193
11040000000 -0.4860262561015599 -0.4242313393272571
11070000000 -0.5449906489654281 -0.33873574872307843
11100000000 -0.5868772497951877 -0.2458147264159104
11130000000 -0.612382636025812 -0.14982201221429736
11160000000 -0.622835926818122 -0.053513207014806496
11190000000 -0.62173380886152 0.04059127238015356
11220000000 -0.610117432525607 0.13624720065433615
11250000000 -0.5836416500453799 0.23294119916877498
11280000000 -0.5388504409816386 0.32630949583845315
11310000000 -0.4786768104413609 0.41097833720861354
11340000000 -0.40470580916833165 0.48564254661112294
11370000000 -0.3178166137588192 0.5457071458428934
11400000000 -0.22453037568567435 0.5904745789203351
11430000000 -0.12272010351881135 0.6204194049240999
11460000000 -0.017836891102607 0.6307780288003514
11490000000 0.08369846718076857 0.624971935473511
11520000000 0.1845650907010763 0.6030492351701062
11550000000 0.27874947895312885 0.5623538102726022
11580000000 0.36187236668483924 0.5104434031600555
11610000000 0.43779026720062036 0.44735800567795103
11640000000 0.5003369439776317 0.3717269061449687
11670000000 0.5486122093669535 0.2909365290916597
11700000000 0.5858771110450095 0.20392187099642328
11730000000 0.6087335792662113 0.11203030944127629
11760000000 0.6173951344105515 0.01998162122792453
11790000000 0.614162021705921 -0.07235430801839787
